(1699182824.655178) can0 570#0062210826050000
(1699182824.656061) can0 220#FEE37F0000E10F
(1699182824.656192) can0 153#200010FF00FF103E
(1699182824.656545) can0 2A2#0500000000000000
(1699182824.656827) can0 331#0000000000000000
(1699182824.657058) can0 394#0080000000000800
(1699182824.657524) can0 344#0000000000009403
(1699182824.659086) can0 200#0000002D08780D50
(1699182824.659270) can0 201#8100000000000081
(1699182824.659593) can0 202#5E0000000000005E
(1699182824.659797) can0 230#0100010000000080
(1699182824.659797) can0 2B0#F7FC0007B7
(1699182824.661564) can0 460#258A075D000A0000
(1699182824.662110) can0 291#00000000FEAEAE00
(1699182824.662595) can0 281#0000010000000000
(1699182824.662794) can0 316#78000000000D0026
(1699182824.663103) can0 329#205B0600002F0000
(1699182824.663289) can0 382#0000FF3F106F0000
(1699182824.663844) can0 111#08C0FFFF00001D00
(1699182824.663938) can0 100#0C30000000FF3200
(1699182824.664428) can0 523#60006059605A5B00
(1699182824.664693) can0 524#5A5A0A0128000000
(1699182824.664943) can0 52D#6259000000000000
(1699182824.665931) can0 220#FEE37F0000E10F
(1699182824.666196) can0 153#200010FF00FF204E
(1699182824.666428) can0 2A2#0400000000000000
(1699182824.666727) can0 331#0000000000000000
(1699182824.667039) can0 386#0000000000000000
(1699182824.667531) can0 344#0000000000009403
(1699182824.668508) can0 450#000020
(1699182824.668698) can0 462#FE3FFF0F00000000
(1699182824.668945) can0 200#0000002D08780F52
(1699182824.669194) can0 201#C1000000000000C1
(1699182824.669434) can0 202#7E0000000000007E
(1699182824.669694) can0 230#0100010000000080
(1699182824.669993) can0 471#440050000004
(1699182824.670225) can0 2B0#F7FC000748
(1699182824.671537) can0 380#1E0B091C00008506
(1699182824.672054) can0 291#00000000FEAEAE00
(1699182824.672537) can0 281#0000010000000000
(1699182824.672774) can0 316#78000000000D0026
(1699182824.673024) can0 329#205B0600002F0000
(1699182824.673279) can0 382#0000FF3F106F0000
(1699182824.673807) can0 111#08C0FFFF00001D00
(1699182824.674024) can0 100#0C30000000FF3200
(1699182824.676091) can0 220#FEE37F0000E10F
(1699182824.676188) can0 153#200010FF00FF305E
(1699182824.676582) can0 2A2#0500000000000000
(1699182824.676790) can0 331#0000000000000000
(1699182824.677029) can0 394#00A0000000000600
(1699182824.677579) can0 344#0000000000009403
(1699182824.679115) can0 200#0000002D0878114C
(1699182824.679264) can0 201#0100000000000001
(1699182824.679507) can0 202#1E0000000000001E
(1699182824.679804) can0 230#0100010000000080
(1699182824.679805) can0 2B0#F9FC0007B9
(1699182824.680781) can0 584#010000151920344B
(1699182824.681424) can0 460#258A065D000A0000
(1699182824.681946) can0 291#00000000FEAEAE00
(1699182824.682476) can0 281#0000010000000000
(1699182824.682743) can0 316#78000000000D0026
(1699182824.682992) can0 329#205B0600002F0000
(1699182824.683227) can0 382#0000FF3F106F0000
(1699182824.683737) can0 111#08C0FFFF00001D00
(1699182824.683995) can0 100#0C30000000FF3200
(1699182824.685964) can0 220#FFC37F0000E10F
(1699182824.686197) can0 153#200010FF00FF406E
(1699182824.686484) can0 2A2#0400000000000000
(1699182824.686698) can0 331#0000000000000000
(1699182824.686946) can0 386#0000000000000000
(1699182824.687473) can0 344#0000000000009403
(1699182824.688540) can0 450#000020
(1699182824.688790) can0 462#FE3FFF0F00000000
(1699182824.689035) can0 200#0000002D0878134E
(1699182824.689289) can0 201#4100000000000041
(1699182824.689521) can0 202#3E0000000000003E
(1699182824.689770) can0 230#0100010000000080
(1699182824.689771) can0 471#440040000008
(1699182824.690283) can0 2B0#F7FC00076A
(1699182824.690530) can0 490#01001000000000
(1699182824.691517) can0 380#1D0B091C00008505
(1699182824.692083) can0 291#00000000FEAEAE00
(1699182824.692588) can0 281#0000010000000000
(1699182824.692740) can0 316#78000000000D0026
(1699182824.693058) can0 329#205B0600002F0000
(1699182824.693275) can0 382#0000FF3F106F0000
(1699182824.693845) can0 111#08C0FFFF00001D00
(1699182824.693991) can0 100#0C30000000FF3200
(1699182824.696118) can0 220#FFC37F0000E10F
(1699182824.696274) can0 153#200010FF00FF507E
(1699182824.696587) can0 2A2#0500000000000000
(1699182824.696738) can0 331#0000000000000000
(1699182824.696995) can0 394#00C0000000000400
(1699182824.697584) can0 344#0000000000009403
(1699182824.699096) can0 200#0000002D08781548
(1699182824.699255) can0 201#8100000000000081
(1699182824.699466) can0 202#5E0000000000005E
(1699182824.699706) can0 230#0100010000000080
(1699182824.699708) can0 2B0#F7FC00077B
(1699182824.701536) can0 460#258A065D000A0000
(1699182824.702030) can0 291#00000000FEAEAE00
(1699182824.702538) can0 281#0000010000000000
(1699182824.702789) can0 316#78000000000D0026
(1699182824.703040) can0 329#205B0600002F0000
(1699182824.703290) can0 382#0000FF3F106F0000
(1699182824.703532) can0 549#3C80540EE2205400
(1699182824.703791) can0 556#0077000000290000
(1699182824.703996) can0 100#0C30000000FF3200
(1699182824.704196) can0 111#08C0FFFF00001D00
(1699182824.704454) can0 557#808000005A180200
(1699182824.704804) can0 560#98AA0025180701A0
(1699182824.704805) can0 561#43646073431F003D
(1699182824.704995) can0 56B#365E000000000000
(1699182824.706095) can0 220#FFC37F0000E10F
(1699182824.706259) can0 153#200010FF00FF608E
(1699182824.706542) can0 2A2#0400000000000000
(1699182824.706789) can0 331#0000000000000000
(1699182824.707048) can0 386#0000000000000000
(1699182824.707293) can0 518#00000000000000C0
(1699182824.707454) can0 51C#0000000000007000
(1699182824.707696) can0 344#0000000000009403
(1699182824.707945) can0 51D#0000000000000000
(1699182824.708197) can0 585#0060332C05000005
(1699182824.708198) can0 590#0700110094002396
(1699182824.708513) can0 592#30C890D351040044
(1699182824.708826) can0 59E#0000000000000000
(1699182824.709014) can0 200#0000002D0878174A
(1699182824.709294) can0 201#C1000000000000C1
(1699182824.709537) can0 202#7E0000000000007E
(1699182824.709788) can0 230#0100010000000080
(1699182824.709946) can0 450#000000
(1699182824.710196) can0 59F#0000000000080000
(1699182824.710454) can0 2B0#F9FC0007EC
(1699182824.710695) can0 462#FE3FFF0F00000000
(1699182824.711061) can0 471#44005000004C
(1699182824.711539) can0 380#1D0B091C00008505
(1699182824.712093) can0 291#00000000FEAEAE00
(1699182824.712552) can0 281#0000010000000000
(1699182824.712745) can0 316#78000000000D0026
(1699182824.713032) can0 329#205B0600002F0000
(1699182824.713285) can0 382#0000FF3F106F0000
(1699182824.713841) can0 111#08C0FFFF00001D00
(1699182824.714014) can0 100#0C30000000FF3200
(1699182824.715613) can0 670#9411E015C46A0200
(1699182824.715777) can0 51E#0000000000000000
(1699182824.716045) can0 588#690A0000006A0000
(1699182824.716228) can0 153#200010FF00FF709E
(1699182824.716569) can0 220#FFE37F0000E20F
(1699182824.716742) can0 2A2#0500000000000000
(1699182824.717073) can0 331#0000000000000000
(1699182824.717075) can0 394#00E0000000000200
(1699182824.717242) can0 5AD#B8B90D001E1F0000
(1699182824.717563) can0 344#0000000000009403
(1699182824.717741) can0 5AE#D3006A1D2E000000
(1699182824.718037) can0 5F1#CC10690A00000000
(1699182824.719113) can0 200#0000002D08781944
(1699182824.719286) can0 201#0100000000000001
(1699182824.719583) can0 202#1E0000000000001E
(1699182824.719781) can0 230#0100010000000080
(1699182824.719783) can0 2B0#F7FC00071D
(1699182824.721567) can0 460#258A065D000A0000
(1699182824.722089) can0 291#00000000FEAEAE00
(1699182824.722584) can0 281#0000010000000000
(1699182824.722754) can0 316#78000000000D0026
(1699182824.723063) can0 329#205B0600002F0000
(1699182824.723229) can0 382#0000FF3F106F0000
(1699182824.723773) can0 111#08C0FFFF00001D00
(1699182824.724039) can0 100#0C30000000FF3200
(1699182824.724199) can0 56A#00C8000184078AC0
(1699182824.724558) can0 538#0000000002000000
(1699182824.726274) can0 220#FFE37F0000E40F
(1699182824.726287) can0 153#200010FF00FF80AE
(1699182824.726518) can0 2A2#0400000000000000
(1699182824.726803) can0 331#0000000000000000
(1699182824.727081) can0 386#0000000000000000
(1699182824.727082) can0 507#00000001
(1699182824.727689) can0 344#0000000000009403
(1699182824.728923) can0 450#000000
(1699182824.728961) can0 200#0000002D08781B46
(1699182824.729302) can0 201#4100000000000041
(1699182824.729555) can0 202#3E0000000000003E
(1699182824.729762) can0 230#0100010000000080
(1699182824.730045) can0 462#FE3FFF0F00000000
(1699182824.730257) can0 2B0#F7FC00072E
(1699182824.730496) can0 471#440050000010
(1699182824.730782) can0 50E#0000000000000000
(1699182824.730946) can0 520#0000000000000000
(1699182824.731196) can0 541#0340400000000000
(1699182824.731448) can0 380#1D0B091B00008505
(1699182824.731695) can0 54E#FF00000000FF0000
(1699182824.732068) can0 553#0000000000008000
(1699182824.732201) can0 291#00000000FEAEAE00
(1699182824.732545) can0 281#0000010000000000
(1699182824.732795) can0 316#78000000000D0026
(1699182824.733045) can0 329#205B0600002F0000
(1699182824.733296) can0 382#0000FF3F106F0000
(1699182824.733515) can0 576#FF1F1FFFFFFFFF0F
(1699182824.733757) can0 100#0C30000000FF3200
(1699182824.734085) can0 111#08C0FFFF00001D00
(1699182824.734267) can0 577#FFFFFFFFFFFF0F00
(1699182824.734553) can0 578#000000000000
(1699182824.734756) can0 57C#07FFFFFFFFFFFFFF
(1699182824.735035) can0 57D#F7FFFFFFFFFFFFFF
(1699182824.735290) can0 57E#F7FFFFFFFF3F0000
(1699182824.735543) can0 58A#7FFF3FFF3F0F0000
(1699182824.736092) can0 5A8#0000000000000000
(1699182824.736258) can0 153#200010FF00FF90BE
(1699182824.736260) can0 220#FFE37F0000E40F
(1699182824.736566) can0 2A2#0500000000000000
(1699182824.736784) can0 331#0000000000000000
(1699182824.737090) can0 394#0000000000000000
(1699182824.737293) can0 5AB#0000000000000000
(1699182824.737547) can0 344#0000000000009403
(1699182824.737787) can0 5D0#E11C070000000000
(1699182824.738019) can0 5D3#0F00000000000000
(1699182824.738571) can0 5D4#0F00000000000000
(1699182824.738749) can0 5DF#045A020000000000
(1699182824.738975) can0 200#0000002D08781D40
(1699182824.739288) can0 201#8100000000000081
(1699182824.739521) can0 202#5E0000000000005E
(1699182824.739763) can0 230#0100010000000080
(1699182824.740048) can0 490#01001000000000
(1699182824.740234) can0 2B0#F9FC0007DF
(1699182824.740580) can0 5EC#0000000000000000
(1699182824.741552) can0 460#258A075D000A0000
(1699182824.742304) can0 291#00000000FEAEAE00
(1699182824.742522) can0 281#0000010000000000
(1699182824.742756) can0 316#78000000000D0026
(1699182824.743022) can0 329#205B0600002F0000
(1699182824.743264) can0 382#0000FF3F106F0000
(1699182824.743835) can0 111#08C0FFFF00001D00
(1699182824.744026) can0 100#0C30000000FF3200
(1699182824.746068) can0 220#FFE37F0000E40F
(1699182824.746283) can0 153#200010FF00FFA0CE
(1699182824.746545) can0 2A2#0400000000000000
(1699182824.746758) can0 331#0000000000000000
(1699182824.747084) can0 386#0000000000000000
(1699182824.747563) can0 344#0000000000009403
(1699182824.748541) can0 450#000020
(1699182824.748787) can0 462#FE3FFF0F00000000
(1699182824.749058) can0 200#0000002D08781F42
(1699182824.749250) can0 201#C1000000000000C1
(1699182824.749543) can0 202#7E0000000000007E
(1699182824.749752) can0 230#0100010000000080
(1699182824.750035) can0 471#440050000014
(1699182824.750264) can0 2B0#F7FC0007C0
(1699182824.750815) can0 570#0062210826050000
(1699182824.751457) can0 380#1E0B091B00008506
(1699182824.752206) can0 291#00000000FEAEAE00
(1699182824.752457) can0 281#0000010000000000
(1699182824.752698) can0 316#78000000000D0026
(1699182824.752982) can0 329#205B0600002F0000
(1699182824.753203) can0 382#0000FF3F106F0000
(1699182824.753708) can0 111#08C0FFFF00001D00
(1699182824.753948) can0 100#0C30000000FF3200
(1699182824.755998) can0 220#FFE37F0000E40F
(1699182824.756207) can0 153#200010FF00FFB0DE
(1699182824.756458) can0 2A2#0500000000000000
(1699182824.756703) can0 331#0000000000000000
(1699182824.756969) can0 394#0020000000000E00
(1699182824.757457) can0 344#0000000000009403
(1699182824.758965) can0 200#0000002D0878015C
(1699182824.759207) can0 201#0100000000000001
(1699182824.759466) can0 202#1E0000000000001E
(1699182824.759731) can0 230#0100010000000080
(1699182824.759733) can0 2B0#F7FC0007D1
(1699182824.761459) can0 460#258A075D000A0000
(1699182824.762245) can0 291#00000000FEAEAE00
(1699182824.762502) can0 281#0000010000000000
(1699182824.762744) can0 316#78000000000D0026
(1699182824.762995) can0 329#205B0600002F0000
(1699182824.763210) can0 382#0000FF3F106F0000
(1699182824.763731) can0 111#08C0FFFF00001D00
(1699182824.763995) can0 100#0C30000000FF3200
(1699182824.764502) can0 523#60006059605A5B00
(1699182824.764745) can0 524#5A5A0A0128000000
(1699182824.764996) can0 52D#6259000000000000
(1699182824.765245) can0 540#DE48DA4800000000
(1699182824.766003) can0 220#FFE37F0000E40F
(1699182824.766244) can0 153#200010FF00FFC0EE
(1699182824.766487) can0 2A2#0400000000000000
(1699182824.766726) can0 331#0000000000000000
(1699182824.766997) can0 386#0000000000000000
(1699182824.767480) can0 344#0000000000009403
(1699182824.768502) can0 450#000020
(1699182824.768770) can0 462#FE3FFF0F00000000
(1699182824.768962) can0 200#0000002D0878035E
(1699182824.769200) can0 201#4100000000000041
(1699182824.769466) can0 202#3E0000000000003E
(1699182824.769706) can0 230#0100010000000080
(1699182824.769955) can0 471#440050000018
(1699182824.770207) can0 2B0#F8FC000712
(1699182824.771468) can0 380#1E0B091C00008506
(1699182824.772204) can0 291#00000000FEAEAE00
(1699182824.772462) can0 281#0000010000000000
(1699182824.772742) can0 316#78000000000D0026
(1699182824.773025) can0 329#205B0600002F0000
(1699182824.773200) can0 382#0000FF3F106F0000
(1699182824.773722) can0 111#08C0FFFF00001D00
(1699182824.773959) can0 100#0C30000000FF3200
(1699182824.775984) can0 220#FFE37F0000E40F
(1699182824.776202) can0 153#200010FF00FFD0FE
(1699182824.776504) can0 2A2#0500000000000000
(1699182824.776744) can0 331#0000000000000000
(1699182824.776997) can0 394#0040000000000C00
(1699182824.777457) can0 344#0000000000009403
(1699182824.778980) can0 200#0000002D08780558
(1699182824.779269) can0 201#8100000000000081
(1699182824.779502) can0 202#5E0000000000005E
(1699182824.779770) can0 230#0100010000000080
(1699182824.779771) can0 2B0#F7FC0007F3
(1699182824.780753) can0 584#0100001519304146
(1699182824.781514) can0 460#258A065D000A0000
(1699182824.782264) can0 291#00000000FEAEAE00
(1699182824.782513) can0 281#0000010000000000
(1699182824.782783) can0 316#78000000000D0026
(1699182824.783012) can0 329#205B0600002F0000
(1699182824.783230) can0 382#0000FF3F106F0000
(1699182824.783752) can0 111#08C0FFFF00001D00
(1699182824.783998) can0 100#0C30000000FF3200
(1699182824.786009) can0 220#FFE37F0000E40F
(1699182824.786247) can0 153#200010FF00FFE00E
(1699182824.786502) can0 2A2#0400000000000000
(1699182824.786770) can0 331#0000000000000000
(1699182824.786986) can0 386#0000000000000000
(1699182824.787488) can0 344#0000000000009403
(1699182824.788502) can0 450#000000
(1699182824.788769) can0 462#FE3FFF0F00000000
(1699182824.788951) can0 200#0000002D0878075A
(1699182824.789221) can0 201#C1000000000000C1
(1699182824.789459) can0 202#7E0000000000007E
(1699182824.789725) can0 230#0100010000000080
(1699182824.789952) can0 471#44004000005C
(1699182824.790231) can0 2B0#F8FC000774
(1699182824.790462) can0 490#01001000000000
(1699182824.791461) can0 380#1D0B091C00008505
(1699182824.792221) can0 291#00000000FEAEAE00
(1699182824.792562) can0 281#0000010000000000
(1699182824.792837) can0 316#78000000000D0026
(1699182824.793052) can0 329#205B0600002F0000
(1699182824.793323) can0 382#0000FF3F106F0000
(1699182824.793812) can0 111#08C0FFFF00001D00
(1699182824.794074) can0 100#0C30000000FF3200
(1699182824.796085) can0 220#FFE37F0000E40F
(1699182824.796217) can0 153#200010FF00FF002E
(1699182824.796491) can0 2A2#0500000000000000
(1699182824.796778) can0 331#0000000000000000
(1699182824.797064) can0 394#0060000000000A00
(1699182824.797584) can0 344#0000000000009403
(1699182824.799117) can0 200#0000002D08780954
(1699182824.799332) can0 201#0100000000000001
(1699182824.799577) can0 202#1E0000000000001E
(1699182824.799885) can0 230#0100010000000080
(1699182824.799886) can0 2B0#F7FC000795
(1699182824.801601) can0 460#258A065D000A0000
(1699182824.802355) can0 291#00000000FEAEAE00
(1699182824.802560) can0 281#0000010000000000
(1699182824.802720) can0 316#78000000000D0026
(1699182824.802952) can0 329#205B0600002F0000
(1699182824.803219) can0 382#0000FF3F106F0000
(1699182824.803454) can0 549#3C805411E2205400
(1699182824.803722) can0 556#0077000000290000
(1699182824.803953) can0 100#0C30000000FF3200
(1699182824.804220) can0 111#08C0FFFF00001D00
(1699182824.804524) can0 557#808000005A170200
(1699182824.804524) can0 560#D8AA0025180701A0
(1699182824.804791) can0 561#43646073431F003D
(1699182824.805005) can0 56B#365E000000000000
(1699182824.805992) can0 220#FFE37F0000E40F
(1699182824.806258) can0 153#200010FF00FF103E
(1699182824.806492) can0 2A2#0400000000000000
(1699182824.806758) can0 331#0000000000000000
(1699182824.807015) can0 386#0000000000000000
(1699182824.807219) can0 518#00000000000000C0
(1699182824.807481) can0 344#0000000000009403
(1699182824.807747) can0 51C#0000000000007000
(1699182824.807979) can0 51D#0000000000000000
(1699182824.808255) can0 585#0060332C05000005
(1699182824.808256) can0 590#0700110094002396
(1699182824.808493) can0 592#30C890D351040084
(1699182824.808758) can0 59E#0000000000000000
(1699182824.808989) can0 200#0000002D08780B56
(1699182824.809259) can0 201#4100000000000041
(1699182824.809490) can0 202#3E0000000000003E
(1699182824.809747) can0 230#0100010000000080
(1699182824.809976) can0 450#000020
(1699182824.810248) can0 59F#0000000000080000
(1699182824.810525) can0 2B0#F7FC0007A6
(1699182824.810791) can0 462#FE3FFF0F00000000
(1699182824.811036) can0 471#440050000020
(1699182824.811493) can0 380#1D0B091C00008505
(1699182824.812349) can0 291#00000000FEAEAE00
(1699182824.812484) can0 281#0000010000000000
(1699182824.812827) can0 316#78000000000D0026
(1699182824.813023) can0 329#205B0600002F0000
(1699182824.813312) can0 382#0000FF3F106F0000
(1699182824.813558) can0 587#0000000000000004
(1699182824.813811) can0 111#08C0FFFF00001D00
(1699182824.813979) can0 100#0C30000000FF3200
(1699182824.815550) can0 670#9411E015C46A0200
(1699182824.815833) can0 51E#0000000000000000
(1699182824.816019) can0 588#690A0000006A0000
(1699182824.816227) can0 153#200010FF00FF204E
(1699182824.816228) can0 220#FFE37F0000E40F
(1699182824.816560) can0 2A2#0500000000000000
(1699182824.816747) can0 331#0000000000000000
(1699182824.817074) can0 394#0080000000000800
(1699182824.817259) can0 5AD#B8B90D001E1F0000
(1699182824.817558) can0 344#0000000000009403
(1699182824.817787) can0 5AE#38006A1D2E000000
(1699182824.818016) can0 5F1#CC10690A00000000
(1699182824.819099) can0 200#0000002D08780D50
(1699182824.819215) can0 201#8100000000000081
(1699182824.819450) can0 202#5E0000000000005E
(1699182824.819721) can0 230#0100010000000080
(1699182824.819721) can0 2B0#F7FC0007B7
(1699182824.821813) can0 460#258A065D000A0000
(1699182824.822327) can0 291#00000000FEAEAE00
(1699182824.822541) can0 281#0000010000000000
(1699182824.822826) can0 316#78000000000D0026
(1699182824.823033) can0 329#205B0600002F0000
(1699182824.823331) can0 382#0000FF3F106F0000
(1699182824.823805) can0 111#08C0FFFF00001D00
(1699182824.824033) can0 100#0C30000000FF3200
(1699182824.824264) can0 56A#00C8000184088ACF
(1699182824.824509) can0 538#0000000002000000
(1699182824.826099) can0 220#FFE37F0000E40F
(1699182824.826273) can0 153#200010FF00FF305E
(1699182824.826559) can0 2A2#0400000000000000
(1699182824.826817) can0 331#0000000000000000
(1699182824.827063) can0 386#0000000000000000
(1699182824.827064) can0 507#00000001
(1699182824.827335) can0 344#0000000000009403
(1699182824.828876) can0 450#000000
(1699182824.829033) can0 200#0000002D08780F52
(1699182824.829330) can0 201#C1000000000000C1
(1699182824.829496) can0 202#7E0000000000007E
(1699182824.829843) can0 230#0100010000000080
(1699182824.829974) can0 462#FE3FFF0F00000000
(1699182824.830332) can0 2B0#F9FC0007A8
(1699182824.830522) can0 471#440050000024
(1699182824.830866) can0 520#0000000000000000
(1699182824.831036) can0 541#0340400000000000
(1699182824.831215) can0 578#000000000000
(1699182824.831477) can0 5EC#0000000000000000
(1699182824.831867) can0 380#1D0B091B00008505
(1699182824.832353) can0 291#00000000FEAEAE00
(1699182824.832532) can0 281#0000010000000000
(1699182824.832720) can0 316#78000000000D0026
(1699182824.833021) can0 329#205B0600002F0000
(1699182824.833332) can0 382#0000FF3F106F0000
(1699182824.833850) can0 111#08C0FFFF00001D00
(1699182824.834032) can0 100#0C30000000FF3200
(1699182824.836124) can0 220#FFE37F0000E40F
(1699182824.836216) can0 153#200010FF00FF406E
(1699182824.836583) can0 2A2#0500000000000000
(1699182824.836797) can0 331#0000000000000000
(1699182824.837014) can0 394#00A0000000000600
(1699182824.837303) can0 344#0000000000009403
(1699182824.838569) can0 490#01001000000000
(1699182824.839029) can0 200#0000002D0878114C
(1699182824.839308) can0 201#0100000000000001
(1699182824.839551) can0 202#1E0000000000001E
(1699182824.839777) can0 230#0100010000000080
(1699182824.839778) can0 2B0#F7FC000759
(1699182824.841604) can0 460#258A075D000A0000
(1699182824.842310) can0 291#00000000FEAEAE00
(1699182824.842578) can0 281#0000010000000000
(1699182824.842812) can0 316#78000000000D0026
(1699182824.843061) can0 329#205B0600002F0000
(1699182824.843306) can0 382#0000FF3F106F0000
(1699182824.843866) can0 111#08C0FFFF00001D00
(1699182824.844008) can0 100#0C30000000FF3200
(1699182824.846393) can0 220#FFE37F0000E40F
(1699182824.846401) can0 153#200010FF00FF507E
(1699182824.846530) can0 2A2#0400000000000000
(1699182824.846844) can0 331#0000000000000000
(1699182824.846976) can0 386#0000000000000000
(1699182824.847307) can0 570#0062210826050000
(1699182824.847560) can0 344#0000000000009403
(1699182824.848585) can0 450#000000
(1699182824.848805) can0 462#FE3FFF0F00000000
(1699182824.849054) can0 200#0000002D0878134E
(1699182824.849290) can0 201#4100000000000041
(1699182824.849598) can0 202#3E0000000000003E
(1699182824.849808) can0 230#0100010000000080
(1699182824.849968) can0 471#440050000028
(1699182824.850224) can0 2B0#F7FC00076A
(1699182824.851507) can0 380#1E0B091B00008506
(1699182824.852338) can0 291#00000000FEAEAE00
(1699182824.852527) can0 281#0000010000000000
(1699182824.852805) can0 316#78000000000D0026
(1699182824.853063) can0 329#205B0600002F0000
(1699182824.853323) can0 382#0000FF3F106F0000
(1699182824.853826) can0 111#08C0FFFF00001D00
(1699182824.854102) can0 100#0C30000000FF3200
(1699182824.856104) can0 220#FFE37F0000E40F
(1699182824.856228) can0 153#200010FF00FF608E
(1699182824.856576) can0 2A2#0500000000000000
(1699182824.856769) can0 331#0000000000000000
(1699182824.857063) can0 394#00C0000000000400
(1699182824.857313) can0 344#0000000000009403
(1699182824.859097) can0 200#0000002D08781548
(1699182824.859271) can0 201#8100000000000081
(1699182824.859563) can0 202#5E0000000000005E
(1699182824.859809) can0 230#0100010000000080
(1699182824.859811) can0 2B0#F9FC00079B
(1699182824.861816) can0 460#258A075D000A0000
(1699182824.862444) can0 291#00000000FEAEAE00
(1699182824.862481) can0 281#0000010000000000
(1699182824.862819) can0 316#78000000000D0026
(1699182824.863027) can0 329#205B0600002F0000
(1699182824.863309) can0 382#0000FF3F106F0000
(1699182824.863848) can0 111#08C0FFFF00001D00
(1699182824.864020) can0 100#0C30000000FF3200
(1699182824.864690) can0 523#6000605960595B00
(1699182824.864728) can0 524#5A5A0A0128000000
(1699182824.865077) can0 52D#6259000000000000
(1699182824.866090) can0 220#FFE37F0000E40F
(1699182824.866293) can0 153#200010FF00FF709E
(1699182824.866580) can0 2A2#0400000000000000
(1699182824.866779) can0 331#0000000000000000
(1699182824.867069) can0 386#0000000000000000
(1699182824.867279) can0 344#0000000000009403
(1699182824.868581) can0 450#000020
(1699182824.868769) can0 462#FE3FFF0F00000000
(1699182824.869085) can0 200#0000002D0878174A
(1699182824.869269) can0 201#C1000000000000C1
(1699182824.869570) can0 202#7E0000000000007E
(1699182824.869807) can0 230#0100010000000080
(1699182824.870071) can0 471#44005000006C
(1699182824.870308) can0 2B0#F7FC00070C
(1699182824.871815) can0 380#1E0B091C00008506
(1699182824.872317) can0 291#00000000FEAEAE00
(1699182824.872570) can0 281#0000010000000000
(1699182824.872769) can0 316#78000000000D0026
(1699182824.873065) can0 329#205B0600002F0000
(1699182824.873315) can0 382#0000FF3F106F0000
(1699182824.874002) can0 111#08C0FFFF00001D00
(1699182824.874015) can0 100#0C30000000FF3200
(1699182824.876397) can0 220#FFE37F0000E40F
(1699182824.876412) can0 153#200010FF00FF80AE
(1699182824.876585) can0 2A2#0500000000000000
(1699182824.876772) can0 331#0000000000000000
(1699182824.877057) can0 394#00E0000000000200
(1699182824.877313) can0 344#0000000000009403
(1699182824.879382) can0 200#0000002D08781944
(1699182824.879395) can0 201#0100000000000001
(1699182824.879542) can0 202#1E0000000000001E
(1699182824.879837) can0 230#0100010000000080
(1699182824.879838) can0 2B0#F7FC00071D
(1699182824.881014) can0 584#0100001519404D33
(1699182824.881686) can0 460#258A075D000A0000
(1699182824.882441) can0 291#00000000FEAEAE00
(1699182824.882481) can0 281#0000010000000000
(1699182824.882819) can0 316#78000000000D0026
(1699182824.883033) can0 329#205B0600002F0000
(1699182824.883314) can0 382#0000FF3F106F0000
(1699182824.883870) can0 111#08C0FFFF00001D00
(1699182824.884036) can0 100#0C30000000FF3200
(1699182824.886392) can0 220#FFE37F0000E40F
(1699182824.886405) can0 153#200010FF00FF90BE
(1699182824.886565) can0 2A2#0400000000000000
(1699182824.886843) can0 331#0000000000000000
(1699182824.887034) can0 386#0000000000000000
(1699182824.887322) can0 344#0000000000009403
(1699182824.888590) can0 450#000020
(1699182824.888774) can0 462#FE3FFF0F00000000
(1699182824.889086) can0 200#0000002D08781B46
(1699182824.889283) can0 201#4100000000000041
(1699182824.889589) can0 202#3E0000000000003E
(1699182824.889777) can0 230#0100010000000080
(1699182824.889778) can0 471#440040000070
(1699182824.890093) can0 2B0#F7FC00072E
(1699182824.890275) can0 490#01001000000000
(1699182824.892117) can0 380#1E0B091C00008506
(1699182824.892293) can0 291#00000000FEAEAE00
(1699182824.892575) can0 281#0000010000000000
(1699182824.892780) can0 316#78000000000D0026
(1699182824.893069) can0 329#205B0600002F0000
(1699182824.893282) can0 382#0000FF3F106F0000
(1699182824.894005) can0 111#08C0FFFF00001D00
(1699182824.894019) can0 100#0C30000000FF3200
(1699182824.896401) can0 220#FFE37F0000E40F
(1699182824.896415) can0 153#200010FF00FFA0CE
(1699182824.896585) can0 2A2#0500000000000000
(1699182824.896843) can0 331#0000000000000000
(1699182824.897035) can0 394#0000000000000000
(1699182824.897315) can0 344#0000000000009403
(1699182824.899380) can0 200#0000002D08781D40
(1699182824.899394) can0 201#8100000000000081
(1699182824.899552) can0 202#5E0000000000005E
(1699182824.899855) can0 230#0100010000000080
(1699182824.899857) can0 2B0#F7FC00073F
(1699182824.901845) can0 460#258A065D000A0000
(1699182824.902484) can0 291#00000000FEAEAE00
(1699182824.902498) can0 281#0000010000000000
(1699182824.902812) can0 316#78000000000D0026
(1699182824.903030) can0 329#205B0600002F0000
(1699182824.903312) can0 382#0000FF3F106F0000
(1699182824.903577) can0 549#3B805413E2205400
(1699182824.903774) can0 111#08C0FFFF00001D00
(1699182824.904062) can0 100#0C30000000FF3200
(1699182824.904280) can0 556#0077000000290000
(1699182824.904568) can0 557#808000005A180200
(1699182824.904774) can0 560#18AA0025180701A0
(1699182824.905065) can0 561#43646073431F003D
(1699182824.905316) can0 56B#365E000000000000
(1699182824.906266) can0 220#FFE37F0000E40F
(1699182824.906280) can0 153#200010FF00FFB0DE
(1699182824.906490) can0 2A2#0400000000000000
(1699182824.906846) can0 331#0000000000000000
(1699182824.907033) can0 386#0000000000000000
(1699182824.907312) can0 518#00000000000000C0
(1699182824.907574) can0 344#0000000000009403
(1699182824.907775) can0 51C#0000000000007000
(1699182824.908030) can0 51D#0000000000000000
(1699182824.908316) can0 585#0060332C05000005
(1699182824.908317) can0 590#0700110094002396
(1699182824.908532) can0 592#30C890D3510400C4
(1699182824.908721) can0 450#000000
(1699182824.908976) can0 200#0000002D08781F42
(1699182824.909311) can0 201#C1000000000000C1
(1699182824.909571) can0 202#7E0000000000007E
(1699182824.909773) can0 230#0100010000000080
(1699182824.910063) can0 462#FE3FFF0F00000000
(1699182824.910274) can0 59E#0000000000000000
(1699182824.910479) can0 2B0#F9FC000720
(1699182824.910841) can0 59F#0000000000080000
(1699182824.910843) can0 471#440050000074
(1699182824.911594) can0 380#1D0B091C00008505
(1699182824.912343) can0 291#00000000FEAEAE00
(1699182824.912565) can0 281#0000010000000000
(1699182824.912775) can0 316#78000000000D0026
(1699182824.913083) can0 329#205B0600002F0000
(1699182824.913276) can0 382#0000FF3F106F0000
(1699182824.914016) can0 111#08C0FFFF00001D00
(1699182824.914029) can0 100#0C30000000FF3200
(1699182824.915853) can0 670#9411E015C46A0200
(1699182824.915867) can0 51E#0000000000000000
(1699182824.916031) can0 588#690A0000006A0000
(1699182824.916337) can0 153#200010FF00FFC0EE
(1699182824.916339) can0 220#FFE37F0000E40F
(1699182824.916569) can0 2A2#0500000000000000
(1699182824.916837) can0 331#0000000000000000
(1699182824.917097) can0 394#0020000000000E00
(1699182824.917299) can0 344#0000000000009403
(1699182824.917570) can0 5AD#B8B90D001E1F0000
(1699182824.917721) can0 5AE#38006A1D2E000000
(1699182824.917976) can0 5F1#CC10690A00000000
(1699182824.918988) can0 200#0000002D0878015C
(1699182824.919220) can0 201#0100000000000001
(1699182824.919531) can0 202#1E0000000000001E
(1699182824.919799) can0 230#0100010000000080
(1699182824.919801) can0 2B0#F7FC0007D1
(1699182824.921634) can0 460#258A065D000A0000
(1699182824.922329) can0 291#00000000FEAEAE00
(1699182824.922565) can0 281#0000010000000000
(1699182824.922813) can0 316#78000000000D0026
(1699182824.923068) can0 329#205B0600002F0000
(1699182824.923313) can0 382#0000FF3F106F0000
(1699182824.923880) can0 111#08C0FFFF00001D00
(1699182824.924037) can0 100#0C30000000FF3200
(1699182824.924284) can0 56A#00C8000184098ACE
(1699182824.924581) can0 538#0000000002000000
(1699182824.926121) can0 220#FFE37F0000E40F
(1699182824.926280) can0 153#200010FF00FFD0FE
(1699182824.926568) can0 2A2#0400000000000000
(1699182824.926841) can0 331#0000000000000000
(1699182824.927093) can0 386#0000000000000000
(1699182824.927094) can0 507#00000001
(1699182824.927294) can0 344#0000000000009403
(1699182824.928870) can0 450#000000
(1699182824.929022) can0 200#0000002D0878035E
(1699182824.929309) can0 201#4100000000000041
(1699182824.929573) can0 202#3E0000000000003E
(1699182824.929835) can0 230#0100010000000080
(1699182824.930004) can0 462#FE3FFF0F00000000
(1699182824.930247) can0 2B0#F8FC000712
(1699182824.930575) can0 471#440050000078
(1699182824.930840) can0 50E#0000000000000000
(1699182824.931027) can0 520#0000000000000000
(1699182824.931303) can0 541#0340400000000000
(1699182824.931574) can0 54E#FF00000000FF0000
(1699182824.931836) can0 380#1E0B091C00008505
(1699182824.932026) can0 553#0000000000008000
(1699182824.932294) can0 576#FF1F1FFFFFFFFF0F
(1699182824.932566) can0 281#0000010000000000
(1699182824.932839) can0 291#00000000FEAEAE00
(1699182824.933026) can0 316#78000000000D0026
(1699182824.933341) can0 329#205B0600002F0000
(1699182824.933527) can0 382#0000FF3F106F0000
(1699182824.933838) can0 577#FFFFFFFFFFFF0F00
(1699182824.934069) can0 100#0C30000000FF3200
(1699182824.934262) can0 111#08C0FFFF00001D00
(1699182824.934505) can0 578#000000000000
(1699182824.934858) can0 57C#07FFFFFFFFFFFFFF
(1699182824.935002) can0 57D#F7FFFFFFFFFFFFFF
(1699182824.935338) can0 57E#F7FFFFFFFF3F0000
(1699182824.935518) can0 58A#7FFF3FFF3F0F0000
(1699182824.935808) can0 5A8#0000000000000000
(1699182824.936041) can0 153#200010FF00FFE00E
(1699182824.936287) can0 220#FFE37F0000E40F
(1699182824.936563) can0 2A2#0500000000000000
(1699182824.936821) can0 331#0000000000000000
(1699182824.937058) can0 394#0040000000000C00
(1699182824.937298) can0 5AB#0000000000000000
(1699182824.937570) can0 344#0000000000009403
(1699182824.937815) can0 5DF#045A020000000000
(1699182824.938047) can0 5EC#0000000000000000
(1699182824.938591) can0 490#01001000000000
(1699182824.939052) can0 200#0000002D08780558
(1699182824.939253) can0 201#8100000000000081
(1699182824.939594) can0 202#5E0000000000005E
(1699182824.939810) can0 230#0100010000000080
(1699182824.939811) can0 2B0#F9FC000713
(1699182824.941592) can0 460#258A075D000A0000
(1699182824.941806) can0 570#0062210826050000
(1699182824.942292) can0 291#00000000FEAEAE00
(1699182824.942563) can0 281#0000010000000000
(1699182824.942835) can0 316#78000000000D0026
(1699182824.943035) can0 329#205B0600002F0000
(1699182824.943327) can0 382#0000FF3F106F0000
(1699182824.943731) can0 111#08C0FFFF00001D00
(1699182824.943995) can0 100#0C30000000FF3200
(1699182824.946088) can0 220#FFE37F0000E40F
(1699182824.946306) can0 153#200010FF00FF002E
(1699182824.946554) can0 2A2#0400000000000000
(1699182824.946814) can0 331#0000000000000000
(1699182824.947055) can0 386#0000000000000000
(1699182824.947307) can0 344#0000000000009403
(1699182824.948574) can0 450#000020
(1699182824.948821) can0 462#FE3FFF0F00000000
(1699182824.949015) can0 200#0000002D0878075A
(1699182824.949313) can0 201#C1000000000000C1
(1699182824.949556) can0 202#7E0000000000007E
(1699182824.949819) can0 230#0100010000000080
(1699182824.949820) can0 471#4400500000BC
(1699182824.950014) can0 2B0#F7FC000784
(1699182824.951594) can0 380#1E0B091B00008506
(1699182824.952339) can0 291#00000000FEAEAE00
(1699182824.952506) can0 281#0000010000000000
(1699182824.952808) can0 316#78000000000D0026
(1699182824.953044) can0 329#205B0600002F0000
(1699182824.953305) can0 382#0000FF3F106F0000
(1699182824.953844) can0 111#08C0FFFF00001D00
(1699182824.954022) can0 100#0C30000000FF3200
(1699182824.956092) can0 220#FFE37F0000E40F
(1699182824.956295) can0 153#200010FF00FF103E
(1699182824.956569) can0 2A2#0500000000000000
(1699182824.956840) can0 331#0000000000000000
(1699182824.957090) can0 394#0060000000000A00
(1699182824.957272) can0 344#0000000000009403
(1699182824.959118) can0 200#0000002D08780954
(1699182824.959294) can0 201#0100000000000001
(1699182824.959565) can0 202#1E0000000000001E
(1699182824.959840) can0 230#0100010000000080
(1699182824.959841) can0 2B0#F7FC000795
(1699182824.961819) can0 460#258A075D000A0000
(1699182824.962451) can0 291#00000000FEAEAE00
(1699182824.962489) can0 281#0000010000000000
(1699182824.962852) can0 316#78000000000D0026
(1699182824.963028) can0 329#205B0600002F0000
(1699182824.963520) can0 382#0000FF3F106F0000
(1699182824.963828) can0 111#08C0FFFF00001D00
(1699182824.964093) can0 100#0C30000000FF3200
(1699182824.964892) can0 523#60006059605A5B00
(1699182824.964894) can0 524#5A5A0A0128000000
(1699182824.965055) can0 52D#6259000000000000
(1699182824.965360) can0 540#D848DA4800000000
(1699182824.966112) can0 220#FFE37F0000E40F
(1699182824.966309) can0 153#200010FF00FF204E
(1699182824.966590) can0 2A2#0400000000000000
(1699182824.966852) can0 331#0000000000000000
(1699182824.967100) can0 386#0000000000000000
(1699182824.967283) can0 344#0000000000009403
(1699182824.968593) can0 450#000000
(1699182824.968794) can0 462#FE3FFF0F00000000
(1699182824.969087) can0 200#0000002D08780B56
(1699182824.969334) can0 201#4100000000000041
(1699182824.969535) can0 202#3E0000000000003E
(1699182824.969828) can0 230#0100010000000080
(1699182824.970104) can0 471#440050000000
(1699182824.970105) can0 2B0#F7FC0007A6
(1699182824.971832) can0 380#1E0B091C00008506
(1699182824.972353) can0 291#00000000FEAEAE00
(1699182824.972593) can0 281#0000010000000000
(1699182824.972805) can0 316#78000000000D0026
(1699182824.973112) can0 329#205B0600002F0000
(1699182824.973306) can0 382#0000FF3F106F0000
(1699182824.974026) can0 111#08C0FFFF00001D00
(1699182824.974040) can0 100#0C30000000FF3200
(1699182824.976423) can0 220#FFC37F0000E40F
(1699182824.976436) can0 153#200010FF00FF305E
(1699182824.976606) can0 2A2#0500000000000000
(1699182824.976836) can0 331#0000000000000000
(1699182824.977058) can0 394#0080000000000800
(1699182824.977337) can0 344#0000000000009403
(1699182824.979401) can0 200#0000002D08780D50
(1699182824.979415) can0 201#8100000000000081
(1699182824.979585) can0 202#5E0000000000005E
(1699182824.979843) can0 230#0100010000000080
(1699182824.979846) can0 2B0#F7FC0007B7
(1699182824.980534) can0 584#0100001519503030
(1699182824.981830) can0 460#258A075D000A0000
(1699182824.982490) can0 291#00000000FEAEAE00
(1699182824.982529) can0 281#0000010000000000
(1699182824.982841) can0 316#78000000000D0026
(1699182824.983099) can0 329#205B0600002F0000
(1699182824.983304) can0 382#0000FF3F106F0000
(1699182824.983907) can0 111#08C0FFFF00001D00
(1699182824.984086) can0 100#0C30000000FF3200
(1699182824.986420) can0 220#FEC37F0000E40F
(1699182824.986435) can0 153#200010FF00FF406E
(1699182824.986599) can0 2A2#0400000000000000
(1699182824.986803) can0 331#0000000000000000
(1699182824.987092) can0 386#0000000000000000
(1699182824.987300) can0 344#0000000000009403
(1699182824.988612) can0 450#000020
(1699182824.988800) can0 462#FE3FFF0F00000000
(1699182824.989110) can0 200#0000002D08780F52
(1699182824.989300) can0 201#C1000000000000C1
(1699182824.989606) can0 202#7E0000000000007E
(1699182824.989800) can0 230#0100010000000080
(1699182824.990089) can0 471#440040000004
(1699182824.990091) can0 2B0#F9FC0007A8
(1699182824.990299) can0 490#01001000000000
(1699182824.991861) can0 380#1E0B091C00008505
(1699182824.992309) can0 291#00000000FEAEAE00
(1699182824.992595) can0 281#0000010000000000
(1699182824.992803) can0 316#78000000000D0026
(1699182824.993056) can0 329#205B0600002F0000
(1699182824.993336) can0 382#0000FF3F106F0000
(1699182824.993872) can0 111#08C0FFFF00001D00
(1699182824.994052) can0 100#0C30000000FF3200
(1699182824.996430) can0 220#FFE37F0000E40F
(1699182824.996447) can0 153#200010FF00FF507E
(1699182824.996567) can0 2A2#0500000000000000
(1699182824.996835) can0 331#0000000000000000
(1699182824.997054) can0 394#00A0000000000600
(1699182824.997337) can0 344#0000000000009403
(1699182824.999406) can0 200#0000002D0878114C
(1699182824.999419) can0 201#0100000000000001
(1699182824.999589) can0 202#1E0000000000001E
(1699182824.999833) can0 230#0100010000000080
(1699182824.999835) can0 2B0#F7FC000759
(1699182825.001870) can0 460#258A065D000A0000
(1699182825.002512) can0 291#00000000FEAEAE00
(1699182825.002526) can0 281#0000010000000000
(1699182825.002838) can0 316#78000000000D0026
(1699182825.003057) can0 329#205B0600002F0000
(1699182825.003338) can0 382#0000FF3F106F0000
(1699182825.003558) can0 549#3A805415E2205400
(1699182825.003839) can0 100#0C30000000FF3200
(1699182825.004095) can0 111#08C0FFFF00001D00
(1699182825.004299) can0 556#0077000000290000
(1699182825.004505) can0 557#808000005A180200
(1699182825.004745) can0 560#58AA0025180701A0
(1699182825.005002) can0 561#43646073431F003D
(1699182825.005246) can0 56B#365E000000000000
(1699182825.006127) can0 220#FFE37F0000E40F
(1699182825.006303) can0 153#200010FF00FF608E
(1699182825.006591) can0 2A2#0400000000000000
(1699182825.006774) can0 331#0000000000000000
(1699182825.007082) can0 386#0000000000000000
(1699182825.007272) can0 518#00000000000000C0
(1699182825.007562) can0 344#0000000000009403
(1699182825.007819) can0 51C#0000000000007000
(1699182825.008063) can0 51D#0000000000000000
(1699182825.008286) can0 585#0060332C05000005
(1699182825.008288) can0 590#0700110094002396
(1699182825.008598) can0 592#30C890D351040004
(1699182825.008803) can0 450#000020
(1699182825.009060) can0 200#0000002D0878134E
(1699182825.009297) can0 201#4100000000000041
(1699182825.009513) can0 202#3E0000000000003E
(1699182825.009837) can0 230#0100010000000080
(1699182825.010096) can0 462#FE3FFF0F00000000
(1699182825.010299) can0 59E#0000000000000000
(1699182825.010587) can0 2B0#F9FC00078A
(1699182825.010842) can0 59F#0000000000080000
(1699182825.010844) can0 471#440050000008
(1699182825.011655) can0 380#1D0B091C00008505
(1699182825.012373) can0 291#00000000FEAEAE00
(1699182825.012561) can0 281#0000010000000000
(1699182825.012841) can0 316#78000000000D0026
(1699182825.013098) can0 329#205B0600002F0000
(1699182825.013303) can0 382#0000FF3F106F0000
(1699182825.013551) can0 587#0000000000000005
(1699182825.013745) can0 100#0C30000000FF3200
(1699182825.014101) can0 111#08C0FFFF00001D00
(1699182825.015868) can0 670#9411E015C46A0200
(1699182825.015881) can0 51E#0000000000000000
(1699182825.015882) can0 588#690A0000006A0000
(1699182825.016060) can0 153#200010FF00FF709E
(1699182825.016326) can0 220#FFE37F0000E40F
(1699182825.016609) can0 2A2#0500000000000000
(1699182825.016824) can0 331#0000000000000000
(1699182825.017093) can0 394#00C0000000000400
(1699182825.017299) can0 344#0000000000009403
(1699182825.017561) can0 5AD#B8B90D001E1F0000
(1699182825.017798) can0 5AE#D3006A1D2E000000
(1699182825.018054) can0 5F1#CC10690A00000000
(1699182825.019032) can0 200#0000002D08781548
(1699182825.019246) can0 201#8100000000000081
(1699182825.019247) can0 202#5E0000000000005E
(1699182825.019502) can0 230#0100010000000080
(1699182825.019859) can0 2B0#F7FC00077B
(1699182825.021535) can0 460#258A075D000A0000
(1699182825.022275) can0 291#00000000FEAEAE00
(1699182825.022527) can0 281#0000010000000000
(1699182825.022851) can0 316#78000000000D0026
(1699182825.023084) can0 329#205B0600002F0000
(1699182825.023346) can0 382#0000FF3F106F0000
(1699182825.023895) can0 111#08C0FFFF00001D00
(1699182825.024054) can0 100#0C30000000FF3200
(1699182825.024263) can0 56A#00C80001840A8ACD
(1699182825.024653) can0 044#0000108679000000
(1699182825.024785) can0 538#0000000002000000
(1699182825.025134) can0 5C3#0000000080000000
(1699182825.025288) can0 5C4#00FF00FF00000000
(1699182825.026012) can0 220#FFE37F0000E40F
(1699182825.026308) can0 153#200010FF00FF80AE
(1699182825.026564) can0 2A2#0400000000000000
(1699182825.026769) can0 331#0000000000000000
(1699182825.027123) can0 386#0000000000000000
(1699182825.027124) can0 507#00000001
(1699182825.027274) can0 344#0000000000009403
(1699182825.028890) can0 450#000000
(1699182825.029028) can0 200#0000002D0878174A
(1699182825.029324) can0 201#C1000000000000C1
(1699182825.029559) can0 202#7E0000000000007E
(1699182825.029829) can0 230#0100010000000080
(1699182825.029831) can0 462#FE3FFF0F00000000
(1699182825.030082) can0 2B0#F7FC00070C
(1699182825.030317) can0 471#44005000004C
(1699182825.030881) can0 520#0000000000000000
(1699182825.031073) can0 541#0340400000000000
(1699182825.031314) can0 578#000000000000
(1699182825.031563) can0 5EC#0000000000000000
(1699182825.031804) can0 380#1E0B091C00008505
(1699182825.032314) can0 291#00000000FEAEAE00
(1699182825.032623) can0 281#0000010000000000
(1699182825.032840) can0 316#78000000000D0026
(1699182825.033096) can0 329#205B0600002F0000
(1699182825.033340) can0 382#0000FF3F106F0000
(1699182825.033879) can0 111#08C0FFFF00001D00
(1699182825.034059) can0 100#0C30000000FF3200
(1699182825.036125) can0 220#FFE37F0000E40F
(1699182825.036262) can0 153#200010FF00FF90BE
(1699182825.036504) can0 2A2#0500000000000000
(1699182825.036882) can0 331#0000000000000000
(1699182825.037065) can0 394#00E0000000000200
(1699182825.037343) can0 344#0000000000009403
(1699182825.037599) can0 570#0062210826050000
(1699182825.038643) can0 490#01001000000000
(1699182825.039138) can0 200#0000002D08781944
(1699182825.039288) can0 201#0100000000000001
(1699182825.039656) can0 202#1E0000000000001E
(1699182825.039827) can0 230#0100010000000080
(1699182825.039829) can0 2B0#F7FC00071D
(1699182825.041641) can0 460#258A075D000A0000
(1699182825.042336) can0 291#00000000FEAEAE00
(1699182825.042601) can0 281#0000010000000000
(1699182825.042844) can0 316#78000000000D0026
(1699182825.043078) can0 329#205B0600002F0000
(1699182825.043310) can0 382#0000FF3F106F0000
(1699182825.043900) can0 111#08C0FFFF00001D00
(1699182825.044050) can0 100#0C30000000FF3200
(1699182825.046150) can0 220#FFE37F0000E40F
(1699182825.046321) can0 153#200010FF00FFA0CE
(1699182825.046598) can0 2A2#0400000000000000
(1699182825.046868) can0 331#0000000000000000
(1699182825.047036) can0 386#0000000000000000
(1699182825.047342) can0 344#0000000000009403
(1699182825.048639) can0 450#000000
(1699182825.048801) can0 462#FE3FFF0F00000000
(1699182825.049084) can0 200#0000002D08781B46
(1699182825.049342) can0 201#4100000000000041
(1699182825.049602) can0 202#3E0000000000003E
(1699182825.049804) can0 230#0100010000000080
(1699182825.050071) can0 471#440050000010
(1699182825.050072) can0 2B0#F9FC0007CE
(1699182825.051615) can0 380#1E0B091C00008606
(1699182825.052385) can0 291#00000000FEAEAE00
(1699182825.052503) can0 281#0000010000000000
(1699182825.052803) can0 316#78000000000D0026
(1699182825.053070) can0 329#205B0600002F0000
(1699182825.053258) can0 382#0000FF3F106F0000
(1699182825.053877) can0 111#08C0FFFF00001D00
(1699182825.053878) can0 100#0C30000000FF3200
(1699182825.056151) can0 220#FFE37F0000E40F
(1699182825.056259) can0 153#200010FF00FFB0DE
(1699182825.056639) can0 2A2#0500000000000000
(1699182825.056777) can0 331#0000000000000000
(1699182825.057136) can0 394#0000000000000000
(1699182825.057308) can0 344#0000000000009403
(1699182825.059140) can0 200#0000002D08781D40
(1699182825.059331) can0 201#8100000000000081
(1699182825.059333) can0 202#5E0000000000005E
(1699182825.059598) can0 230#0100010000000080
(1699182825.059805) can0 2B0#F9FC0007DF
(1699182825.061647) can0 460#258A075D000A0000
(1699182825.062325) can0 291#00000000FEAEAE00
(1699182825.062601) can0 281#0000010000000000
(1699182825.062802) can0 316#78000000000D0026
(1699182825.063085) can0 329#205B0600002F0000
(1699182825.063323) can0 382#0000FF3F106F0000
(1699182825.063901) can0 111#08C0FFFF00001D00
(1699182825.064049) can0 100#0C30000000FF3200
(1699182825.065023) can0 523#60006059605A5B00
(1699182825.065036) can0 524#5A5A0A0128000000
(1699182825.065343) can0 52D#6259000000000000
(1699182825.066240) can0 220#FFE37F0000E40F
(1699182825.066270) can0 153#200010FF00FFC0EE
(1699182825.066596) can0 2A2#0400000000000000
(1699182825.066876) can0 331#0000000000000000
(1699182825.067062) can0 386#0000000000000000
(1699182825.067347) can0 344#0000000000009403
(1699182825.068609) can0 450#000020
(1699182825.068805) can0 462#FE3FFF0F00000000
(1699182825.069267) can0 200#0000002D08781F42
(1699182825.069281) can0 201#C1000000000000C1
(1699182825.069609) can0 202#7E0000000000007E
(1699182825.069871) can0 230#0100010000000080
(1699182825.069872) can0 471#440050000014
(1699182825.070063) can0 2B0#F7FC0007C0
(1699182825.071873) can0 380#1E0B091C00008606
(1699182825.072319) can0 291#00000000FEAEAE00
(1699182825.072599) can0 281#0000010000000000
(1699182825.072865) can0 316#78000000000D0026
(1699182825.073054) can0 329#205B0600002F0000
(1699182825.073331) can0 382#0000FF3F106F0000
(1699182825.073890) can0 111#08C0FFFF00001D00
(1699182825.074059) can0 100#0C30000000FF3200
(1699182825.076151) can0 220#FFE37F0000E40F
(1699182825.076331) can0 153#200010FF00FFD0FE
(1699182825.076503) can0 2A2#0500000000000000
(1699182825.076769) can0 331#0000000000000000
(1699182825.077085) can0 394#0020000000000E00
(1699182825.077370) can0 344#0000000000009403
(1699182825.079146) can0 200#0000002D0878015C
(1699182825.079367) can0 201#0100000000000001
(1699182825.079369) can0 202#1E0000000000001E
(1699182825.079563) can0 230#0100010000000080
(1699182825.079826) can0 2B0#F7FC0007D1
(1699182825.080620) can0 584#0100001519603033
(1699182825.081643) can0 460#258A075D000A0000
(1699182825.082387) can0 291#00000000FEAEAE00
(1699182825.082608) can0 281#0000010000000000
(1699182825.082866) can0 316#78000000000D0026
(1699182825.083103) can0 329#205B0600002F0000
(1699182825.083353) can0 382#0000FF3F106F0000
(1699182825.083900) can0 111#08C0FFFF00001D00
(1699182825.084109) can0 100#0C30000000FF3200
(1699182825.086147) can0 220#FFE37F0000E40F
(1699182825.086373) can0 153#200010FF00FFE00E
(1699182825.086588) can0 2A2#0400000000000000
(1699182825.086881) can0 331#0000000000000000
(1699182825.087107) can0 386#0000000000000000
(1699182825.087321) can0 344#0000000000009403
(1699182825.088338) can0 450#000020
(1699182825.088587) can0 462#FE3FFF0F00000000
(1699182825.088854) can0 471#440040000018
(1699182825.089089) can0 200#0000002D0878035E
(1699182825.089354) can0 201#4100000000000041
(1699182825.089590) can0 202#3E0000000000003E
(1699182825.089854) can0 230#0100010000000080
(1699182825.090028) can0 490#01001000000000
(1699182825.090269) can0 2B0#F7FC0007E2
(1699182825.091512) can0 380#1E0B091C00008505
(1699182825.092334) can0 291#00000000FEAEAE00
(1699182825.092915) can0 281#0000010000000000
(1699182825.092916) can0 316#78000000000D0026
(1699182825.093080) can0 329#205B0600002F0000
(1699182825.093383) can0 382#0000FF3F106F0000
(1699182825.093891) can0 111#08C0FFFF00001D00
(1699182825.094075) can0 100#0C30000000FF3200
(1699182825.096152) can0 220#FFE37F0000E10F
(1699182825.096277) can0 153#200010FF00FF002E
(1699182825.096590) can0 2A2#0500000000000000
(1699182825.096856) can0 331#0000000000000000
(1699182825.097118) can0 394#0040000000000C00
(1699182825.097356) can0 344#0000000000009403
(1699182825.099119) can0 200#0000002D08780558
(1699182825.099133) can0 201#8100000000000081
(1699182825.099327) can0 202#5E0000000000005E
(1699182825.099585) can0 230#0100010000000080
(1699182825.099771) can0 2B0#F9FC000713
(1699182825.101640) can0 460#258A065D000A0000
(1699182825.102646) can0 281#0000010000000000
(1699182825.102820) can0 291#00000000FEAEAE00
(1699182825.102821) can0 316#78000000000D0026
(1699182825.103095) can0 329#205B0600002F0000
(1699182825.103335) can0 382#0000FF3F106F0000
(1699182825.103597) can0 549#39805415E2205400
(1699182825.103864) can0 100#0C30000000FF3200
(1699182825.104030) can0 111#08C0FFFF00001D00
(1699182825.104282) can0 556#0077000000290000
(1699182825.104595) can0 557#808000005A180200
(1699182825.104859) can0 560#98AA0025180701A0
(1699182825.105001) can0 561#43646073431F003D
(1699182825.105269) can0 56B#365E000000000000
(1699182825.106141) can0 220#FFE37F0000DF0F
(1699182825.106319) can0 153#200010FF00FF103E
(1699182825.106584) can0 2A2#0400000000000000
(1699182825.106855) can0 331#0000000000000000
(1699182825.107091) can0 386#0000000000000000
(1699182825.107269) can0 344#0000000000009403
(1699182825.107597) can0 518#00000000000000C0
(1699182825.107857) can0 51C#0000000000007000
(1699182825.108051) can0 51D#0000000000000000
(1699182825.108280) can0 585#0060332C05000005
(1699182825.108615) can0 590#0700110094002396
(1699182825.108617) can0 592#30C890D351040044
(1699182825.108818) can0 59E#0000000000000000
(1699182825.109085) can0 200#0000002D0878075A
(1699182825.109351) can0 201#C1000000000000C1
(1699182825.109590) can0 202#7E0000000000007E
(1699182825.109851) can0 230#0100010000000080
(1699182825.110084) can0 450#000000
(1699182825.110270) can0 59F#0000000000080000
(1699182825.110502) can0 2B0#F7FC000784
(1699182825.110769) can0 462#FE3FFF0F00000000
(1699182825.111027) can0 471#44005000005C
(1699182825.111584) can0 380#1D0B091C00008505
(1699182825.112586) can0 281#0000010000000000
(1699182825.112855) can0 291#00000000FEAEAE00
(1699182825.112856) can0 316#78000000000D0026
(1699182825.113051) can0 329#205B0600002F0000
(1699182825.113360) can0 382#0000FF3F106F0000
(1699182825.113906) can0 111#08C0FFFF00001D00
(1699182825.114119) can0 100#0C30000000FF3200
(1699182825.115372) can0 670#9411E015C46A0200
(1699182825.115591) can0 51E#0000000000000000
(1699182825.115819) can0 588#690A0000006A0000
(1699182825.116028) can0 153#200010FF00FF204E
(1699182825.116303) can0 220#FFE37F0000DF0F
(1699182825.116584) can0 2A2#0500000000000000
(1699182825.116852) can0 331#0000000000000000
(1699182825.117026) can0 394#0060000000000A00
(1699182825.117297) can0 344#0000000000009403
(1699182825.117601) can0 5AD#B8B90D001E1F0000
(1699182825.117858) can0 5AE#D3006A1D2E000000
(1699182825.118112) can0 5F1#CC10690A00000000
(1699182825.119063) can0 200#0000002D08780954
(1699182825.119357) can0 201#0100000000000001
(1699182825.119358) can0 202#1E0000000000001E
(1699182825.119551) can0 230#0100010000000080
(1699182825.119860) can0 2B0#F9FC000775
(1699182825.121667) can0 460#258A065D000A0000
(1699182825.122666) can0 281#0000010000000000
(1699182825.122667) can0 291#00000000FEAEAE00
(1699182825.122827) can0 316#78000000000D0026
(1699182825.123167) can0 329#205B0600002F0000
(1699182825.123305) can0 382#0000FF3F106F0000
(1699182825.123928) can0 111#08C0FFFF00001D00
(1699182825.124061) can0 100#0C30000000FF3200
(1699182825.124289) can0 56A#00C80001840B8ACC
(1699182825.124644) can0 538#0000000002000000
(1699182825.126164) can0 220#FFE37F0000E10F
(1699182825.126324) can0 153#200010FF00FF305E
(1699182825.126618) can0 2A2#0400000000000000
(1699182825.126856) can0 331#0000000000000000
(1699182825.127092) can0 386#0000000000000000
(1699182825.127335) can0 344#0000000000009403
(1699182825.127336) can0 507#00000001
(1699182825.128916) can0 450#000020
(1699182825.129080) can0 200#0000002D08780B56
(1699182825.129319) can0 201#4100000000000041
(1699182825.129576) can0 202#3E0000000000003E
(1699182825.129917) can0 230#0100010000000080
(1699182825.130055) can0 462#FE3FFF0F00000000
(1699182825.130355) can0 2B0#F9FC000746
(1699182825.130529) can0 471#440050000020
(1699182825.130796) can0 50E#0000000000000000
(1699182825.131145) can0 520#0000000000000000
(1699182825.131269) can0 541#0340400000000000
(1699182825.131671) can0 54E#FF00000000FF0000
(1699182825.131832) can0 380#1E0B091C00008505
(1699182825.132087) can0 553#0000000000008000
(1699182825.132275) can0 576#FF1F1FFFFFFFFF0F
(1699182825.132613) can0 281#0000010000000000
(1699182825.132856) can0 291#00000000FEAEAE00
(1699182825.133123) can0 316#78000000000D0026
(1699182825.133359) can0 329#205B0600002F0000
(1699182825.133616) can0 382#0000FF3F106F0000
(1699182825.133856) can0 100#0C30000000FF3200
(1699182825.134026) can0 111#08C0FFFF00001D00
(1699182825.134269) can0 570#0062210826050000
(1699182825.134527) can0 577#FFFFFFFFFFFF0F00
(1699182825.134769) can0 578#000000000000
(1699182825.135073) can0 57C#07FFFFFFFFFFFFFF
(1699182825.135383) can0 57D#F7FFFFFFFFFFFFFF
(1699182825.135576) can0 57E#F7FFFFFFFF3F0000
(1699182825.135853) can0 58A#7FFF3FFF3F0F0000
(1699182825.136105) can0 153#200010FF00FF406E
(1699182825.136292) can0 220#FFE37F0000E40F
(1699182825.136617) can0 2A2#0500000000000000
(1699182825.136884) can0 331#0000000000000000
(1699182825.137116) can0 394#0080000000000800
(1699182825.137355) can0 344#0000000000009403
(1699182825.137616) can0 5A8#0000000000000000
(1699182825.137797) can0 5AB#0000000000000000
(1699182825.138164) can0 5DF#045A020000000000
(1699182825.138339) can0 5EC#0000000000000000
(1699182825.138527) can0 490#01001000000000
(1699182825.138769) can0 200#0000002D08780D50
(1699182825.139052) can0 201#8100000000000081
(1699182825.139295) can0 202#5E0000000000005E
(1699182825.139652) can0 230#0100010000000080
(1699182825.139797) can0 2B0#F8FC000747
(1699182825.141651) can0 460#258A075D000A0000
(1699182825.142648) can0 291#00000000FEAEAE00
(1699182825.142819) can0 281#0000010000000000
(1699182825.143114) can0 316#78000000000D0026
(1699182825.143358) can0 329#205B0600002F0000
(1699182825.143360) can0 382#0000FF3F106F0000
(1699182825.143897) can0 111#08C0FFFF00001D00
(1699182825.144047) can0 100#0C30000000FF3200
(1699182825.146154) can0 220#FFE37F0000E70F
(1699182825.146319) can0 153#200010FF00FF507E
(1699182825.146670) can0 2A2#0400000000000000
(1699182825.146830) can0 331#0000000000000000
(1699182825.147107) can0 386#0000000000000000
(1699182825.147354) can0 344#0000000000009403
(1699182825.148370) can0 450#000000
(1699182825.148603) can0 462#FE3FFF0F00000000
(1699182825.148865) can0 471#440050000024
(1699182825.149119) can0 200#0000002D08780F52
(1699182825.149356) can0 201#C1000000000000C1
(1699182825.149527) can0 202#7E0000000000007E
(1699182825.149866) can0 230#0100010000000080
(1699182825.150019) can0 2B0#F7FC000748
(1699182825.151586) can0 380#1D0B091C00008506
(1699182825.152669) can0 281#0000010000000000
(1699182825.152671) can0 291#00000000FEAEAE00
(1699182825.152833) can0 316#78000000000D0026
(1699182825.153161) can0 329#205B0600002F0000
(1699182825.153332) can0 382#0000FF3F106F0000
(1699182825.153907) can0 111#08C0FFFF00001D00
(1699182825.154047) can0 100#0C30000000FF3200
(1699182825.156171) can0 220#FFE37F0000E80F
(1699182825.156279) can0 153#200010FF00FF608E
(1699182825.156672) can0 2A2#0500000000000000
(1699182825.156821) can0 331#0000000000000000
(1699182825.157027) can0 394#00A0000000000600
(1699182825.157391) can0 344#0000000000009403
(1699182825.158921) can0 200#0000002D0878114C
(1699182825.159078) can0 201#0100000000000001
(1699182825.159389) can0 202#1E0000000000001E
(1699182825.159576) can0 230#0100010000000080
(1699182825.159850) can0 2B0#F7FC000759
(1699182825.161876) can0 460#258A075D000A0000
(1699182825.162823) can0 281#0000010000000000
(1699182825.162824) can0 291#00000000FEAEAE00
(1699182825.162837) can0 316#78000000000D0026
(1699182825.163087) can0 329#205B0600002F0000
(1699182825.163366) can0 382#0000FF3F106F0000
(1699182825.163925) can0 111#08C0FFFF00001D00
(1699182825.164085) can0 100#0C30000000FF3200
(1699182825.165069) can0 523#60006059605A5B00
(1699182825.165083) can0 524#5A5A0A0128000000
(1699182825.165367) can0 52D#6259000000000000
(1699182825.165625) can0 540#DE48DA4800000000
(1699182825.166120) can0 220#FFE37F0000E50F
(1699182825.166326) can0 153#200010FF00FF709E
(1699182825.166607) can0 2A2#0400000000000000
(1699182825.166856) can0 331#0000000000000000
(1699182825.167113) can0 386#0000000000000000
(1699182825.167319) can0 344#0000000000009403
(1699182825.168338) can0 5A0#0000000025029102
(1699182825.168615) can0 450#000000
(1699182825.168859) can0 462#FE3FFF0F00000000
(1699182825.169112) can0 200#0000002D0878134E
(1699182825.169319) can0 201#4100000000000041
(1699182825.169576) can0 202#3E0000000000003E
(1699182825.169861) can0 230#0100010000000080
(1699182825.170113) can0 471#440050000028
(1699182825.170358) can0 2B0#F9FC00078A
(1699182825.171872) can0 380#1E0B091C00008506
(1699182825.172737) can0 281#0000010000000000
(1699182825.172739) can0 291#00000000FEAEAE00
(1699182825.172778) can0 316#78000000000D0026
(1699182825.173122) can0 329#205B0600002F0000
(1699182825.173319) can0 382#0000FF3F106F0000
(1699182825.173613) can0 111#08C0FFFF00001D00
(1699182825.173855) can0 100#0C30000000FF3200
(1699182825.176450) can0 220#FFE37F0000E20F
(1699182825.176463) can0 153#200010FF00FF80AE
(1699182825.176636) can0 2A2#0500000000000000
(1699182825.176895) can0 331#0000000000000000
(1699182825.177077) can0 394#00C0000000000400
(1699182825.177374) can0 344#0000000000009403
(1699182825.179146) can0 200#0000002D08781548
(1699182825.179159) can0 201#8100000000000081
(1699182825.179327) can0 202#5E0000000000005E
(1699182825.179805) can0 230#0100010000000080
(1699182825.179818) can0 2B0#F9FC00079B
(1699182825.180783) can0 584#010000151900484C
(1699182825.181825) can0 460#258A075D000A0000
(1699182825.182827) can0 281#0000010000000000
(1699182825.182829) can0 291#00000000FEAEAE00
(1699182825.182843) can0 316#78000000000D0026
(1699182825.183082) can0 329#205B0600002F0000
(1699182825.183377) can0 382#0000FF3F106F0000
(1699182825.183931) can0 111#08C0FFFF00001D00
(1699182825.183933) can0 100#0C30000000FF3200
(1699182825.186442) can0 220#FFE37F0000E00F
(1699182825.186456) can0 153#200010FF00FF90BE
(1699182825.186635) can0 2A2#0400000000000000
(1699182825.186911) can0 331#0000000000000000
(1699182825.187090) can0 386#0000000000000000
(1699182825.187382) can0 344#0000000000009403
(1699182825.188875) can0 450#000020
(1699182825.188889) can0 462#FE3FFF0F00000000
(1699182825.189091) can0 200#0000002D0878174A
(1699182825.189374) can0 201#C1000000000000C1
(1699182825.189582) can0 202#7E0000000000007E
(1699182825.189885) can0 230#0100010000000080
(1699182825.189887) can0 471#44004000006C
(1699182825.190074) can0 2B0#F7FC00070C
(1699182825.190388) can0 490#01001000000000
(1699182825.191872) can0 380#1E0B091C00008506
(1699182825.192329) can0 281#0000010000000000
(1699182825.192620) can0 291#00000000FEAEAE00
(1699182825.192824) can0 316#78000000000D0026
(1699182825.193119) can0 329#205B0600002F0000
(1699182825.193323) can0 382#0000FF3F106F0000
(1699182825.193875) can0 111#08C0FFFF00001D00
(1699182825.194117) can0 100#0C30000000FF3200
(1699182825.196447) can0 220#FFE37F0000DD0F
(1699182825.196462) can0 153#200010FF00FFA0CE
(1699182825.196627) can0 2A2#0500000000000000
(1699182825.196894) can0 331#0000000000000000
(1699182825.197082) can0 394#00E0000000000200
(1699182825.197374) can0 344#0000000000009403
(1699182825.199151) can0 200#0000002D08781944
(1699182825.199165) can0 201#0100000000000001
(1699182825.199330) can0 202#1E0000000000001E
(1699182825.199629) can0 230#0100010000000080
(1699182825.199820) can0 2B0#F9FC0007FD
(1699182825.201916) can0 460#258A065D000A0000
(1699182825.202817) can0 281#0000010000000000
(1699182825.202818) can0 291#00000000FEAEAE00
(1699182825.202833) can0 316#78000000000D0026
(1699182825.203092) can0 329#205B0600002F0000
(1699182825.203377) can0 382#0000FF3F106F0000
(1699182825.203583) can0 549#39805416E2205400
(1699182825.203868) can0 111#08C0FFFF00001D00
(1699182825.204080) can0 100#0C30000000FF3200
(1699182825.204364) can0 556#0077000000290000
(1699182825.204581) can0 557#808000005A170200
(1699182825.204822) can0 560#D8AA0025180701A0
(1699182825.205086) can0 561#43646073431F003D
(1699182825.205321) can0 56B#365E000000000000
(1699182825.206318) can0 220#FFE37F0000DB0F
(1699182825.206333) can0 153#200010FF00FFB0DE
(1699182825.206582) can0 2A2#0400000000000000
(1699182825.206875) can0 331#0000000000000000
(1699182825.207138) can0 386#0000000000000000
(1699182825.207331) can0 344#0000000000009403
(1699182825.207620) can0 518#00000000000000C0
(1699182825.207874) can0 51C#0000000000007000
(1699182825.208081) can0 51D#0000000000000000
(1699182825.208082) can0 528#130F61007D037004
(1699182825.208324) can0 585#0060332C05000005
(1699182825.208528) can0 590#0700110094002396
(1699182825.208769) can0 592#30C890D351040084
(1699182825.209026) can0 200#0000002D08781B46
(1699182825.209269) can0 201#4100000000000041
(1699182825.209622) can0 202#3E0000000000003E
(1699182825.209798) can0 230#0100010000000080
(1699182825.210100) can0 450#000020
(1699182825.210338) can0 59E#0000000000000000
(1699182825.210595) can0 2B0#F8FC0007DE
(1699182825.210845) can0 59F#0000000000080000
(1699182825.211099) can0 462#FE3FFF0F00000000
(1699182825.211100) can0 471#440050000070
(1699182825.211655) can0 380#1D0B091C00008505
(1699182825.212366) can0 281#0000010000000000
(1699182825.212616) can0 291#00000000FEAEAE00
(1699182825.212823) can0 316#78000000000D0026
(1699182825.213110) can0 329#205B0600002F0000
(1699182825.213363) can0 382#0000FF3F106F0000
(1699182825.213619) can0 587#0000000000000006
(1699182825.213823) can0 100#0C30000000FF3200
(1699182825.214086) can0 111#08C0FFFF00001D00
(1699182825.215378) can0 670#9411E015C46A0200
(1699182825.215581) can0 51E#0000000000000000
(1699182825.215822) can0 588#690A0000006A0000
(1699182825.216079) can0 153#200010FF00FFC0EE
(1699182825.216337) can0 220#FFE37F0000DD0F
(1699182825.216608) can0 2A2#0500000000000000
(1699182825.216856) can0 331#0000000000000000
(1699182825.217094) can0 344#0000000000009403
(1699182825.217355) can0 394#0000000000000000
(1699182825.217555) can0 5AD#B8B90C001E1F0000
(1699182825.217820) can0 5AE#38006A1D2E000000
(1699182825.218053) can0 5F1#CC10690A00000000
(1699182825.218836) can0 200#0000002D08781D40
(1699182825.219147) can0 201#8100000000000081
(1699182825.219297) can0 202#5E0000000000005E
(1699182825.219657) can0 230#0100010000000080
(1699182825.219822) can0 2B0#F7FC00073F
(1699182825.221657) can0 460#258A065D000A0000
(1699182825.222369) can0 281#0000010000000000
(1699182825.222613) can0 291#00000000FEAEAE00
(1699182825.222856) can0 316#78000000000D0026
(1699182825.223098) can0 329#205B0600002F0000
(1699182825.223361) can0 382#0000FF3F106F0000
(1699182825.223912) can0 111#08C0FFFF00001D00
(1699182825.223913) can0 100#0C30000000FF3200
(1699182825.224315) can0 56A#00C80001840C8ACB
(1699182825.224589) can0 538#0000000002000000
(1699182825.226154) can0 220#FFE37F0000E00F
(1699182825.226343) can0 153#200010FF00FFD0FE
(1699182825.226613) can0 2A2#0400000000000000
(1699182825.226882) can0 331#0000000000000000
(1699182825.227073) can0 386#0000000000000000
(1699182825.227356) can0 344#0000000000009403
(1699182825.227357) can0 507#00000001
(1699182825.228555) can0 570#0062210826050000
(1699182825.228887) can0 450#000000
(1699182825.229076) can0 200#0000002D08781F42
(1699182825.229395) can0 201#C1000000000000C1
(1699182825.229577) can0 202#7E0000000000007E
(1699182825.229859) can0 230#0100010000000080
(1699182825.230093) can0 462#FE3FFF0F00000000
(1699182825.230371) can0 2B0#F9FC000720
(1699182825.230594) can0 471#440050000074
(1699182825.230821) can0 520#0000000000000000
(1699182825.231055) can0 541#0340400000000000
(1699182825.231322) can0 578#000000000000
(1699182825.231554) can0 380#1D0B091B00008505
(1699182825.231918) can0 5EC#0000000000000000
(1699182825.232330) can0 281#0000010000000000
(1699182825.232591) can0 291#00000000FEAEAE00
(1699182825.232858) can0 316#78000000000D0026
(1699182825.233093) can0 329#205B0600002F0000
(1699182825.233354) can0 382#0000FF3F106F0000
(1699182825.233903) can0 111#08C0FFFF00001D00
(1699182825.234074) can0 100#0C30000000FF3200
(1699182825.236087) can0 220#FFE37F0000E20F
(1699182825.236321) can0 153#200010FF00FFE00E
(1699182825.236593) can0 2A2#0500000000000000
(1699182825.236822) can0 331#0000000000000000
(1699182825.237150) can0 394#0020000000000E00
(1699182825.237320) can0 344#0000000000009403
(1699182825.238903) can0 490#01001000000000
(1699182825.239071) can0 200#0000002D0878015C
(1699182825.239357) can0 201#0100000000000001
(1699182825.239595) can0 202#1E0000000000001E
(1699182825.239861) can0 230#0100010000000080
(1699182825.240093) can0 2B0#F8FC000721
(1699182825.241660) can0 460#258A065D000A0000
(1699182825.242650) can0 281#0000010000000000
(1699182825.242883) can0 291#00000000FEAEAE00
(1699182825.243075) can0 316#78000000000D0026
(1699182825.243388) can0 329#205B0600002F0000
(1699182825.243576) can0 382#0000FF3F106F0000
(1699182825.243858) can0 111#08C0FFFF00001D00
(1699182825.244094) can0 100#0C30000000FF3200
(1699182825.246148) can0 220#FFE37F0000E20F
(1699182825.246343) can0 153#200010FF00FF002E
(1699182825.246617) can0 2A2#0400000000000000
(1699182825.246882) can0 331#0000000000000000
(1699182825.247075) can0 386#0000000000000000
(1699182825.247344) can0 344#0000000000009403
(1699182825.248629) can0 450#000000
(1699182825.248855) can0 462#FE3FFF0F00000000
(1699182825.249128) can0 200#0000002D0878035E
(1699182825.249395) can0 201#4100000000000041
(1699182825.249578) can0 202#3E0000000000003E
(1699182825.250050) can0 230#0100010000000080
(1699182825.250052) can0 471#440050000078
(1699182825.250065) can0 2B0#F7FC0007E2
(1699182825.251898) can0 380#1D0B091B00008605
(1699182825.252381) can0 281#0000010000000000
(1699182825.252576) can0 291#00000000FEAEAE00
(1699182825.252876) can0 316#78000000000D0026
(1699182825.253075) can0 329#205B0600002F0000
(1699182825.253384) can0 382#0000FF3F106F0000
(1699182825.253616) can0 111#08C0FFFF00001D00
(1699182825.253881) can0 100#0C30000000FF3200
(1699182825.256049) can0 220#FFE37F0000E20F
(1699182825.256298) can0 153#200010FF00FF103E
(1699182825.256534) can0 2A2#0500000000000000
(1699182825.256797) can0 331#0000000000000000
(1699182825.257061) can0 394#0040000000000C00
(1699182825.257303) can0 344#0000000000009403
(1699182825.258802) can0 200#0000002D08780558
(1699182825.259088) can0 201#8100000000000081
(1699182825.259341) can0 202#5E0000000000005E
(1699182825.259558) can0 230#0100010000000080
(1699182825.259858) can0 2B0#F8FC000703
(1699182825.261819) can0 460#258A075D000A0000
(1699182825.262544) can0 281#0000010000000000
(1699182825.262558) can0 291#00000000FEAEAE00
(1699182825.262889) can0 316#78000000000D0026
(1699182825.263084) can0 329#205B0600002F0000
(1699182825.263398) can0 382#0000FF3F106F0000
(1699182825.263573) can0 111#08C0FFFF00001D00
(1699182825.263876) can0 100#0C30000000FF3200
(1699182825.264937) can0 523#60006059605A5B00
(1699182825.265100) can0 524#5A5A090128000000
(1699182825.265378) can0 52D#6259000000000000
(1699182825.266114) can0 220#FFE37F0000E20F
(1699182825.266308) can0 153#200010FF00FF204E
(1699182825.266576) can0 2A2#0400000000000000
(1699182825.266808) can0 331#0000000000000000
(1699182825.267132) can0 386#0000000000000000
(1699182825.267399) can0 344#0000000000009403
(1699182825.268617) can0 450#000020
(1699182825.268908) can0 462#FE3FFF0F00000000
(1699182825.269087) can0 200#0000002D0878075A
(1699182825.269395) can0 201#C1000000000000C1
(1699182825.269621) can0 202#7E0000000000007E
(1699182825.269878) can0 230#0100010000000080
(1699182825.269879) can0 471#4400500000BC
(1699182825.270132) can0 2B0#F8FC000774
(1699182825.271580) can0 380#1D0B091C00008506
(1699182825.272366) can0 281#0000010000000000
(1699182825.272553) can0 291#00000000FEAEAE00
(1699182825.272886) can0 316#78000000000D0026
(1699182825.273141) can0 329#205B0600002F0000
(1699182825.273346) can0 382#0000FF3F106F0000
(1699182825.273629) can0 111#08C0FFFF00001D00
(1699182825.273891) can0 100#0C30000000FF3200
(1699182825.276144) can0 220#FFE37F0000E50F
(1699182825.276352) can0 153#200010FF00FF305E
(1699182825.276610) can0 2A2#0500000000000000
(1699182825.276821) can0 331#0000000000000000
(1699182825.277171) can0 394#0060000000000A00
(1699182825.277351) can0 344#0000000000009403
(1699182825.278945) can0 200#0000002D08780954
(1699182825.279078) can0 201#0100000000000001
(1699182825.279357) can0 202#1E0000000000001E
(1699182825.279641) can0 230#0100010000000080
(1699182825.279880) can0 2B0#F6FC000785
(1699182825.280697) can0 584#0100001519104631
(1699182825.281709) can0 460#258A075D000A0000
(1699182825.282413) can0 281#0000010000000000
(1699182825.282612) can0 291#00000000FEAEAE00
(1699182825.282901) can0 316#78000000000D0026
(1699182825.283134) can0 329#205B0600002F0000
(1699182825.283374) can0 382#0000FF3F106F0000
(1699182825.283655) can0 111#08C0FFFF00001D00
(1699182825.283854) can0 100#0C30000000FF3200
(1699182825.286159) can0 220#FFE37F0000EA0F
(1699182825.286354) can0 153#200010FF00FF406E
(1699182825.286651) can0 2A2#0400000000000000
(1699182825.286835) can0 331#0000000000000000
(1699182825.287123) can0 386#0000000000000000
(1699182825.287373) can0 344#0000000000009403
(1699182825.288381) can0 450#000000
(1699182825.288651) can0 462#FE3FFF0F00000000
(1699182825.288851) can0 471#440040000000
(1699182825.289142) can0 200#0000002D08780B56
(1699182825.289393) can0 201#4100000000000041
(1699182825.289612) can0 202#3E0000000000003E
(1699182825.289830) can0 230#0100010000000080
(1699182825.290088) can0 490#01001000000000
(1699182825.290331) can0 2B0#F8FC000756
(1699182825.291652) can0 380#1E0B091C00008506
(1699182825.292398) can0 281#0000010000000000
(1699182825.292634) can0 291#00000000FEAEAE00
(1699182825.292893) can0 316#78000000000D0026
(1699182825.293151) can0 329#205B0600002F0000
(1699182825.293354) can0 382#0000FF3F106F0000
(1699182825.293635) can0 111#08C0FFFF00001D00
(1699182825.293892) can0 100#0C30000000FF3200
(1699182825.296112) can0 220#FFE37F0000E90F
(1699182825.296305) can0 153#200010FF00FF507E
(1699182825.296610) can0 2A2#0500000000000000
(1699182825.296913) can0 331#0000000000000000
(1699182825.297112) can0 394#0080000000000800
(1699182825.297395) can0 344#0000000000009403
(1699182825.298909) can0 200#0000002D08780D50
(1699182825.299104) can0 201#8100000000000081
(1699182825.299360) can0 202#5E0000000000005E
(1699182825.299639) can0 230#0100010000000080
(1699182825.299894) can0 2B0#F8FC000747
(1699182825.301890) can0 460#258A075D000A0000
(1699182825.302518) can0 281#0000010000000000
(1699182825.302560) can0 291#00000000FEAEAE00
(1699182825.302875) can0 316#78000000000D0026
(1699182825.303153) can0 329#205B0600002F0000
(1699182825.303357) can0 382#0000FF3F106F0000
(1699182825.303639) can0 549#39805416E2205400
(1699182825.303891) can0 100#0C30000000FF3200
(1699182825.304155) can0 111#08C0FFFF00001D00
(1699182825.304340) can0 556#0077000000290000
(1699182825.304552) can0 557#808000005A170200
(1699182825.304793) can0 560#18AA0025180701A0
(1699182825.305050) can0 561#43646073431F003D
(1699182825.305378) can0 56B#365E000000000000
(1699182825.306346) can0 220#FFE37F0000E60F
(1699182825.306359) can0 153#200010FF00FF608E
(1699182825.306653) can0 2A2#0400000000000000
(1699182825.306857) can0 331#0000000000000000
(1699182825.307139) can0 344#0000000000009403
(1699182825.307392) can0 386#0000000000000000
(1699182825.307649) can0 518#00000000000000C0
(1699182825.307894) can0 51C#0000000000007000
(1699182825.308051) can0 51D#0000000000000000
(1699182825.308323) can0 585#0060332C05000005
(1699182825.308324) can0 590#0700110094002396
(1699182825.308615) can0 592#30C890D3510400C4
(1699182825.308793) can0 59E#0000000000000000
(1699182825.309149) can0 200#0000002D08780F52
(1699182825.309353) can0 201#C1000000000000C1
(1699182825.309637) can0 202#7E0000000000007E
(1699182825.309891) can0 230#0100010000000080
(1699182825.310148) can0 450#000020
(1699182825.310395) can0 59F#0000000000080000
(1699182825.310648) can0 2B0#F8FC0007B8
(1699182825.310794) can0 462#FE3FFF0F00000000
(1699182825.311050) can0 471#440050000004
(1699182825.311561) can0 380#1D0B091C00008505
(1699182825.312328) can0 281#0000010000000000
(1699182825.312638) can0 291#00000000FEAEAE00
(1699182825.312893) can0 316#78000000000D0026
(1699182825.313147) can0 329#205B0600002F0000
(1699182825.313393) can0 382#0000FF3F106F0000
(1699182825.313648) can0 111#08C0FFFF00001D00
(1699182825.313895) can0 100#0C30000000FF3200
(1699182825.315327) can0 670#9411E015C46A0200
(1699182825.315551) can0 51E#0000000000000000
(1699182825.315793) can0 588#690A0000006A0000
(1699182825.316099) can0 153#200010FF00FF709E
(1699182825.316301) can0 220#FFE37F0000E40F
(1699182825.316637) can0 2A2#0500000000000000
(1699182825.316907) can0 331#0000000000000000
(1699182825.317093) can0 344#0000000000009403
(1699182825.317380) can0 394#00A0000000000600
(1699182825.317638) can0 5AD#B8B90C001E1F0000
(1699182825.317879) can0 5AE#38006A1D2E000000
(1699182825.318139) can0 5F1#CC10690A00000000
(1699182825.318812) can0 200#0000002D0878114C
(1699182825.319043) can0 201#0100000000000001
(1699182825.319296) can0 202#1E0000000000001E
(1699182825.319695) can0 230#0100010000000080
(1699182825.319844) can0 2B0#F7FC000759
(1699182825.321902) can0 460#258A065D000A0000
(1699182825.322536) can0 281#0000010000000000
(1699182825.322568) can0 291#00000000FEAEAE00
(1699182825.322877) can0 316#78000000000D0026
(1699182825.323140) can0 329#205B0600002F0000
(1699182825.323383) can0 382#0000FF3F106F0000
(1699182825.323638) can0 111#08C0FFFF00001D00
(1699182825.323880) can0 100#0C30000000FF3200
(1699182825.324138) can0 570#0062210826050000
(1699182825.324296) can0 538#0000000002000000
(1699182825.324551) can0 56A#00C80001840D8ACA
(1699182825.326061) can0 220#FFE37F0000E10F
(1699182825.326381) can0 153#200010FF00FF80AE
(1699182825.326642) can0 2A2#0400000000000000
(1699182825.326880) can0 331#0000000000000000
(1699182825.327139) can0 344#0000000000009403
(1699182825.327381) can0 386#0000000000000000
(1699182825.327383) can0 507#00000001
(1699182825.328893) can0 450#000020
(1699182825.329130) can0 200#0000002D0878134E
(1699182825.329296) can0 201#4100000000000041
(1699182825.329551) can0 202#3E0000000000003E
(1699182825.329936) can0 230#0100010000000080
(1699182825.330110) can0 462#FE3FFF0F00000000
(1699182825.330392) can0 2B0#F8FC00079A
(1699182825.330637) can0 471#440050000008
(1699182825.330820) can0 50E#0000000000000000
(1699182825.331101) can0 520#0000000000000000
(1699182825.331321) can0 541#0340400000000000
(1699182825.331600) can0 380#1D0B091C00008505
(1699182825.331841) can0 54E#FF00000000FF0000
(1699182825.332177) can0 553#0000000000008000
(1699182825.332292) can0 576#FF1F1FFFFFFFFF0F
(1699182825.332643) can0 281#0000010000000000
(1699182825.332881) can0 291#00000000FEAEAE00
(1699182825.333145) can0 316#78000000000D0026
(1699182825.333381) can0 329#205B0600002F0000
(1699182825.333646) can0 382#0000FF3F106F0000
(1699182825.333882) can0 100#0C30000000FF3200
(1699182825.334141) can0 111#08C0FFFF00001D00
(1699182825.334344) can0 577#FFFFFFFFFFFF0F00
(1699182825.334600) can0 578#000000000000
(1699182825.334841) can0 57C#07FFFFFFFFFFFFFF
(1699182825.335078) can0 57D#F7FFFFFFFFFFFFFF
(1699182825.335385) can0 57E#F7FFFFFFFF3F0000
(1699182825.335619) can0 58A#7FFF3FFF3F0F0000
(1699182825.335860) can0 5E3#0000000000000000
(1699182825.336104) can0 153#200010FF00FF90BE
(1699182825.336320) can0 220#FFE37F0000DE0F
(1699182825.336673) can0 2A2#0500000000000000
(1699182825.336899) can0 331#0000000000000000
(1699182825.337118) can0 344#0000000000009403
(1699182825.337408) can0 394#00C0000000000400
(1699182825.337630) can0 5A8#0000000000000000
(1699182825.337854) can0 5AB#0000000000000000
(1699182825.338143) can0 5DF#045A020000000000
(1699182825.338358) can0 5EC#0000000000000000
(1699182825.338655) can0 490#01001000000000
(1699182825.338858) can0 200#0000002D08781548
(1699182825.339149) can0 201#8100000000000081
(1699182825.339372) can0 202#5E0000000000005E
(1699182825.339641) can0 230#0100010000000080
(1699182825.339838) can0 2B0#F8FC00078B
(1699182825.341678) can0 460#258A065D000A0000
(1699182825.342676) can0 281#0000010000000000
(1699182825.342821) can0 291#00000000FEAEAE00
(1699182825.343179) can0 316#78000000000D0026
(1699182825.343321) can0 329#205B0600002F0000
(1699182825.343667) can0 382#0000FF3F106F0000
(1699182825.343817) can0 111#08C0FFFF00001D00
(1699182825.344157) can0 100#0C30000000FF3200
(1699182825.346175) can0 220#FFE37F0000DB0F
(1699182825.346322) can0 153#200010FF00FFA0CE
(1699182825.346617) can0 2A2#0400000000000000
(1699182825.346884) can0 331#0000000000000000
(1699182825.347111) can0 344#0000000000009403
(1699182825.347363) can0 386#0000000000000000
(1699182825.348364) can0 450#000000
(1699182825.348616) can0 462#FE3FFF0F00000000
(1699182825.348858) can0 471#44005000004C
(1699182825.349078) can0 200#0000002D0878174A
(1699182825.349319) can0 201#C1000000000000C1
(1699182825.349577) can0 202#7E0000000000007E
(1699182825.349908) can0 230#0100010000000080
(1699182825.350077) can0 2B0#F8FC0007FC
(1699182825.351677) can0 380#1D0B091B00008506
(1699182825.352334) can0 281#0000010000000000
(1699182825.352650) can0 291#00000000FEAEAE00
(1699182825.352821) can0 316#78000000000D0026
(1699182825.353118) can0 329#205B0600002F0000
(1699182825.353358) can0 382#0000FF3F106F0000
(1699182825.353613) can0 111#08C0FFFF00001D00
(1699182825.353886) can0 100#0C30000000FF3200
(1699182825.356174) can0 220#FFE37F0000DE0F
(1699182825.356339) can0 153#200010FF00FFB0DE
(1699182825.356634) can0 2A2#0500000000000000
(1699182825.356818) can0 331#0000000000000000
(1699182825.357068) can0 344#0000000000009403
(1699182825.357363) can0 394#00E0000000000200
(1699182825.358940) can0 200#0000002D08781944
(1699182825.359122) can0 201#0100000000000001
(1699182825.359387) can0 202#1E0000000000001E
(1699182825.359649) can0 230#0100010000000080
(1699182825.359913) can0 2B0#F8FC0007ED
(1699182825.361906) can0 460#258A075D000A0000
(1699182825.362520) can0 281#0000010000000000
(1699182825.362556) can0 291#00000000FEAEAE00
(1699182825.362879) can0 316#78000000000D0026
(1699182825.363142) can0 329#205B0600002F0000
(1699182825.363404) can0 382#0000FF3F106F0000
(1699182825.363642) can0 111#08C0FFFF00001D00
(1699182825.363907) can0 100#0C30000000FF3200
(1699182825.365358) can0 523#60006059605A5B00
(1699182825.365371) can0 524#5A5A090128000000
(1699182825.365602) can0 52D#6259000000000000
(1699182825.365603) can0 540#DE48DA4800000000
(1699182825.366074) can0 220#FFE37F0000E60F
(1699182825.366384) can0 153#200010FF00FFC0EE
(1699182825.366653) can0 2A2#0400000000000000
(1699182825.366916) can0 331#0000000000000000
(1699182825.367170) can0 344#0000000000009403
(1699182825.367364) can0 386#0000000000000000
(1699182825.368552) can0 450#000000
(1699182825.368907) can0 462#FE3FFF0F00000000
(1699182825.369156) can0 200#0000002D08781B46
(1699182825.369342) can0 201#4100000000000041
(1699182825.369650) can0 202#3E0000000000003E
(1699182825.369920) can0 230#0100010000000080
(1699182825.370169) can0 471#440050000010
(1699182825.370170) can0 2B0#F7FC00072E
(1699182825.371693) can0 380#1E0B091B00008506
(1699182825.372371) can0 281#0000010000000000
(1699182825.372637) can0 291#00000000FEAEAE00
(1699182825.372818) can0 316#78000000000D0026
(1699182825.373128) can0 329#205B0600002F0000
(1699182825.373373) can0 382#0000FF3F106F0000
(1699182825.373628) can0 111#08C0FFFF00001D00
(1699182825.373884) can0 100#0C30000000FF3200
(1699182825.376171) can0 220#FEE37F0000EA0F
(1699182825.376380) can0 153#200010FF00FFD0FE
(1699182825.376611) can0 2A2#0500000000000000
(1699182825.376882) can0 331#0000000000000000
(1699182825.377125) can0 344#0000000000009403
(1699182825.377408) can0 394#0000000000000000
(1699182825.378939) can0 200#0000002D08781D40
(1699182825.379114) can0 201#8100000000000081
(1699182825.379402) can0 202#5E0000000000005E
(1699182825.379639) can0 230#0100010000000080
(1699182825.379819) can0 2B0#F7FC00073F
(1699182825.380691) can0 584#010000151920344B
(1699182825.381690) can0 460#258A075D000A0000
(1699182825.382425) can0 281#0000010000000000
(1699182825.382601) can0 291#00000000FEAEAE00
(1699182825.382901) can0 316#78000000000D0026
(1699182825.383075) can0 329#205B0600002F0000
(1699182825.383378) can0 382#0000FF3F106F0000
(1699182825.383638) can0 111#08C0FFFF00001D00
(1699182825.383881) can0 100#0C30000000FF3200
(1699182825.386448) can0 220#FFE37F0000EA0F
(1699182825.386461) can0 153#200010FF00FFE00E
(1699182825.386625) can0 2A2#0400000000000000
(1699182825.386923) can0 331#0000000000000000
(1699182825.387129) can0 344#0000000000009403
(1699182825.387412) can0 386#0000000000000000
(1699182825.388789) can0 450#000020
(1699182825.388827) can0 462#FE3FFF0F00000000
(1699182825.389159) can0 200#0000002D08781F42
(1699182825.389376) can0 201#C1000000000000C1
(1699182825.389649) can0 202#7E0000000000007E
(1699182825.389897) can0 230#0100010000000080
(1699182825.389899) can0 471#440040000014
(1699182825.390068) can0 2B0#F7FC0007C0
(1699182825.390407) can0 490#01001000000000
(1699182825.391876) can0 380#1E0B091C00008506
(1699182825.392336) can0 281#0000010000000000
(1699182825.392626) can0 291#00000000FEAEAE00
(1699182825.392907) can0 316#78000000000D0026
(1699182825.393167) can0 329#205B0600002F0000
(1699182825.393414) can0 382#0000FF3F106F0000
(1699182825.393612) can0 111#08C0FFFF00001D00
(1699182825.393879) can0 100#0C30000000FF3200
(1699182825.396064) can0 220#FFE37F0000E40F
(1699182825.396314) can0 153#200010FF00FF002E
(1699182825.396637) can0 2A2#0500000000000000
(1699182825.396905) can0 331#0000000000000000
(1699182825.397156) can0 344#0000000000009403
(1699182825.397400) can0 394#0020000000000E00
(1699182825.399164) can0 200#0000002D0878015C
(1699182825.399177) can0 201#0100000000000001
(1699182825.399363) can0 202#1E0000000000001E
(1699182825.399653) can0 230#0100010000000080
(1699182825.399870) can0 2B0#F7FC0007D1
(1699182825.401582) can0 460#258A065D000A0000
(1699182825.402566) can0 281#0000010000000000
(1699182825.402579) can0 291#00000000FEAEAE00
(1699182825.402902) can0 316#78000000000D0026
(1699182825.403157) can0 329#205B0600002F0000
(1699182825.403402) can0 382#0000FF3F106F0000
(1699182825.403640) can0 549#37805415E2205400
(1699182825.403907) can0 100#0C30000000FF3200
(1699182825.404154) can0 111#08C0FFFF00001D00
(1699182825.404314) can0 556#0077000000290000
(1699182825.404615) can0 557#808000005A180200
(1699182825.404878) can0 560#58AA0025180701A0
(1699182825.405177) can0 561#43646073431F003D
(1699182825.405351) can0 56B#365E000000000000
(1699182825.406164) can0 220#FFE37F0000DF0F
(1699182825.406338) can0 153#200010FF00FF103E
(1699182825.406638) can0 2A2#0400000000000000
(1699182825.406906) can0 331#0000000000000000
(1699182825.407135) can0 344#0000000000009403
(1699182825.407320) can0 386#0000000000000000
(1699182825.407668) can0 518#00000000000000C0
(1699182825.407904) can0 51C#0000000000007000
(1699182825.408154) can0 51D#0000000000000000
(1699182825.408321) can0 585#0060332C05000005
(1699182825.408577) can0 590#0700110094002396
(1699182825.408579) can0 592#30C890D351040004
(1699182825.408818) can0 450#000020
(1699182825.409068) can0 200#0000002D0878035E
(1699182825.409419) can0 201#4100000000000041
(1699182825.409600) can0 202#3E0000000000003E
(1699182825.409902) can0 230#0100010000000080
(1699182825.410162) can0 462#FE3FFF0F00000000
(1699182825.410401) can0 59E#0000000000000000
(1699182825.410637) can0 2B0#F8FC000712
(1699182825.410910) can0 59F#0000000000080000
(1699182825.410912) can0 471#440050000018
(1699182825.411581) can0 380#1D0B091C00008505
(1699182825.412314) can0 281#0000010000000000
(1699182825.412637) can0 291#00000000FEAEAE00
(1699182825.412903) can0 316#78000000000D0026
(1699182825.413157) can0 329#205B0600002F0000
(1699182825.413401) can0 382#0000FF3F106F0000
(1699182825.413667) can0 587#0000000000000007
(1699182825.413905) can0 100#0C30000000FF3200
(1699182825.414154) can0 111#08C0FFFF00001D00
(1699182825.415411) can0 670#9411E015C46A0200
(1699182825.415625) can0 51E#0000000000000000
(1699182825.415867) can0 588#690A0000006A0000
(1699182825.416216) can0 153#200010FF00FF204E
(1699182825.416377) can0 220#FFC37F0000D90F
(1699182825.416552) can0 2A2#0500000000000000
(1699182825.416818) can0 331#0000000000000000
(1699182825.417161) can0 344#0000000000009403
(1699182825.417408) can0 394#0040000000000C00
(1699182825.417673) can0 5AD#B8B90C001E1F0000
(1699182825.417909) can0 5AE#D3006A1D2E000000
(1699182825.418154) can0 5F1#CC10690A00000000
(1699182825.418856) can0 200#0000002D08780558
(1699182825.419161) can0 201#8100000000000081
(1699182825.419401) can0 202#5E0000000000005E
(1699182825.419639) can0 230#0100010000000080
(1699182825.419818) can0 2B0#F8FC000703
(1699182825.420068) can0 570#0062210826050000
(1699182825.421728) can0 460#258A065D000A0000
(1699182825.422423) can0 281#0000010000000000
(1699182825.422658) can0 291#00000000FEAEAE00
(1699182825.422906) can0 316#78000000000D0026
(1699182825.423161) can0 329#205B0600002F0000
(1699182825.423400) can0 382#0000FF3F106F0000
(1699182825.423923) can0 111#08C0FFFF00001D00
(1699182825.424120) can0 100#0C30000000FF3200
(1699182825.424123) can0 56A#00C80001840E8AC9
(1699182825.424371) can0 538#0000000002000000
(1699182825.426477) can0 220#FFC37F0000D40F
(1699182825.426491) can0 153#200010FF00FF305E
(1699182825.426654) can0 2A2#0400000000000000
(1699182825.426924) can0 331#0000000000000000
(1699182825.427119) can0 344#0000000000009403
(1699182825.427419) can0 386#0000000000000000
(1699182825.427420) can0 507#00000001
(1699182825.429117) can0 450#000000
(1699182825.429119) can0 200#0000002D0878075A
(1699182825.429131) can0 201#C1000000000000C1
(1699182825.429365) can0 202#7E0000000000007E
(1699182825.429680) can0 230#0100010000000080
(1699182825.429868) can0 462#FE3FFF0F00000000
(1699182825.430144) can0 2B0#F8FC000774
(1699182825.430403) can0 471#44005000005C
(1699182825.430667) can0 520#0000000000000000
(1699182825.430905) can0 541#0340400000000000
(1699182825.431118) can0 578#000000000000
(1699182825.431362) can0 5EC#0000000000000000
(1699182825.431625) can0 380#1D0B091C00008505
(1699182825.432402) can0 281#0000010000000000
(1699182825.432664) can0 291#00000000FEAEAE00
(1699182825.432909) can0 316#78000000000D0026
(1699182825.433155) can0 329#205B0600002F0000
(1699182825.433400) can0 382#0000FF3F106F0000
(1699182825.433919) can0 111#08C0FFFF00001D00
(1699182825.434118) can0 100#0C30000000FF3200
(1699182825.436171) can0 220#FEC37F0000D90F
(1699182825.436398) can0 153#200010FF00FF406E
(1699182825.436664) can0 2A2#0500000000000000
(1699182825.436907) can0 331#0000000000000000
(1699182825.437156) can0 344#0000000000009403
(1699182825.437400) can0 394#0060000000000A00
(1699182825.438669) can0 490#01001000000000
(1699182825.438908) can0 200#0000002D08780954
(1699182825.439118) can0 201#0100000000000001
(1699182825.439362) can0 202#1E0000000000001E
(1699182825.439667) can0 230#0100010000000080
(1699182825.439905) can0 2B0#F8FC000765
(1699182825.441944) can0 460#258A065D000A0000
(1699182825.442866) can0 281#0000010000000000
(1699182825.442880) can0 291#00000000FEAEAE00
(1699182825.443122) can0 316#78000000000D0026
(1699182825.443123) can0 329#205B0600002F0000
(1699182825.443403) can0 382#0000FF3F106F0000
(1699182825.443666) can0 111#08C0FFFF00001D00
(1699182825.443908) can0 100#0C30000000FF3200
(1699182825.446365) can0 220#FFE37F0000E00F
(1699182825.446379) can0 153#200010FF00FF507E
(1699182825.446626) can0 2A2#0400000000000000
(1699182825.446907) can0 331#0000000000000000
(1699182825.447156) can0 344#0000000000009403
(1699182825.447401) can0 386#0000000000000000
(1699182825.448359) can0 450#000020
(1699182825.448660) can0 462#FE3FFF0F00000000
(1699182825.448868) can0 200#0000002D08780B56
(1699182825.449116) can0 201#4100000000000041
(1699182825.449362) can0 202#3E0000000000003E
(1699182825.449674) can0 230#0100010000000080
(1699182825.449867) can0 471#440050000020
(1699182825.450082) can0 2B0#F8FC000756
(1699182825.451957) can0 380#1D0B091C00008505
(1699182825.452361) can0 281#0000010000000000
(1699182825.452579) can0 316#78000000000D0026
(1699182825.452819) can0 291#00000000FEAEAE00
(1699182825.453165) can0 329#205B0600002F0000
(1699182825.453349) can0 382#0000FF3F106F0000
(1699182825.453640) can0 111#08C0FFFF00001D00
(1699182825.453895) can0 100#0C30000000FF3200
(1699182825.456224) can0 220#FFE37F0000E60F
(1699182825.456379) can0 153#200010FF00FF608E
(1699182825.456682) can0 2A2#0500000000000000
(1699182825.456949) can0 331#0000000000000000
(1699182825.457134) can0 344#0000000000009403
(1699182825.457364) can0 394#0080000000000800
(1699182825.458917) can0 200#0000002D08780D50
(1699182825.459116) can0 201#8100000000000081
(1699182825.459392) can0 202#5E0000000000005E
(1699182825.459675) can0 230#0100010000000080
(1699182825.459880) can0 2B0#F8FC000747
(1699182825.461927) can0 460#258A075D000A0000
(1699182825.462418) can0 281#0000010000000000
(1699182825.462677) can0 316#78000000000D0026
(1699182825.462879) can0 291#00000000FEAEAE00
(1699182825.463168) can0 329#205B0600002F0000
(1699182825.463375) can0 382#0000FF3F106F0000
(1699182825.463660) can0 111#08C0FFFF00001D00
(1699182825.463917) can0 100#0C30000000FF3200
(1699182825.465141) can0 523#60006059605A5B00
(1699182825.465340) can0 524#5A5A0A0128000000
(1699182825.465689) can0 52D#6259000000000000
(1699182825.466211) can0 220#FFE37F0000EC0F
(1699182825.466315) can0 153#200010FF00FF709E
(1699182825.466716) can0 2A2#0400000000000000
(1699182825.466892) can0 331#0000000000000000
(1699182825.467166) can0 344#0000000000009403
(1699182825.467414) can0 386#0000000000000000
(1699182825.468676) can0 450#000000
(1699182825.468877) can0 462#FE3FFF0F00000000
(1699182825.469164) can0 200#0000002D08780F52
(1699182825.469443) can0 201#C1000000000000C1
(1699182825.469444) can0 202#7E0000000000007E
(1699182825.469576) can0 230#0100010000000080
(1699182825.469947) can0 471#440050000024
(1699182825.470105) can0 2B0#F8FC0007B8
(1699182825.471964) can0 380#1E0B091C00008506
(1699182825.472378) can0 281#0000010000000000
(1699182825.472676) can0 316#78000000000D0026
(1699182825.472878) can0 291#00000000FEAEAE00
(1699182825.473170) can0 329#205B0600002F0000
(1699182825.473374) can0 382#0000FF3F106F0000
(1699182825.473661) can0 111#08C0FFFF00001D00
(1699182825.473918) can0 100#0C30000000FF3200
(1699182825.476105) can0 220#FFE37F0000EE0F
(1699182825.476314) can0 153#200010FF00FF80AE
(1699182825.476669) can0 2A2#0500000000000000
(1699182825.476931) can0 331#0000000000000000
(1699182825.477165) can0 344#0000000000009403
(1699182825.477402) can0 394#00A0000000000600
(1699182825.479200) can0 200#0000002D0878114C
(1699182825.479213) can0 201#0100000000000001
(1699182825.479377) can0 202#1E0000000000001E
(1699182825.479844) can0 230#0100010000000080
(1699182825.479857) can0 2B0#F8FC0007A9
(1699182825.480778) can0 584#0100001519304146
(1699182825.481888) can0 460#258A075D000A0000
(1699182825.482515) can0 281#0000010000000000
(1699182825.482628) can0 316#78000000000D0026
(1699182825.482909) can0 291#00000000FEAEAE00
(1699182825.483117) can0 329#205B0600002F0000
(1699182825.483399) can0 382#0000FF3F106F0000
(1699182825.483665) can0 111#08C0FFFF00001D00
(1699182825.483906) can0 100#0C30000000FF3200
(1699182825.486493) can0 220#FFE37F0000EC0F
(1699182825.486506) can0 153#200010FF00FF90BE
(1699182825.486652) can0 2A2#0400000000000000
(1699182825.486953) can0 331#0000000000000000
(1699182825.487133) can0 344#0000000000009403
(1699182825.487427) can0 386#0000000000000000
(1699182825.488381) can0 450#000000
(1699182825.488668) can0 462#FE3FFF0F00000000
(1699182825.488876) can0 471#400040000028
(1699182825.489161) can0 200#0000002D0878134E
(1699182825.489368) can0 201#4100000000000041
(1699182825.489664) can0 202#3E0000000000003E
(1699182825.489868) can0 230#0100010000000080
(1699182825.490116) can0 490#01001000000000
(1699182825.490363) can0 2B0#F8FC00079A
(1699182825.491586) can0 380#1E0B091C00008506
(1699182825.492404) can0 281#0000010000000000
(1699182825.492671) can0 316#78000000000D0026
(1699182825.492908) can0 291#00000000FEAEAE00
(1699182825.493163) can0 329#205B0600002F0000
(1699182825.493436) can0 382#0000FF3F106F0000
(1699182825.493627) can0 111#08C0FFFF00001D00
(1699182825.493903) can0 100#0C30000000FF3200
(1699182825.496169) can0 220#FFE37F0000E90F
(1699182825.496392) can0 153#200010FF00FFA0CE
(1699182825.496664) can0 2A2#0500000000000000
(1699182825.496931) can0 331#0000000000000000
(1699182825.497124) can0 344#0000000000009403
(1699182825.497440) can0 394#00C0000000000400
(1699182825.499179) can0 200#0000002D08781548
(1699182825.499192) can0 201#8100000000000081
(1699182825.499393) can0 202#5E0000000000005E
(1699182825.499678) can0 230#0100010000000080
(1699182825.499868) can0 2B0#F7FC00077B
(1699182825.501991) can0 460#258A075D000A0000
(1699182825.502453) can0 281#0000010000000000
(1699182825.502630) can0 316#78000000000D0026
(1699182825.502917) can0 291#00000000FEAEAE00
(1699182825.503123) can0 329#205B0600002F0000
(1699182825.503428) can0 382#0000FF3F106F0000
(1699182825.503683) can0 549#35805412E2205400
(1699182825.503873) can0 100#0C30000000FF3200
(1699182825.504149) can0 111#08C0FFFF00001D00
(1699182825.504360) can0 556#0077000000290000
(1699182825.504657) can0 557#808000005A180200
(1699182825.504942) can0 560#98AA0025180701A0
(1699182825.505116) can0 561#43646073431F003D
(1699182825.505411) can0 56B#365E000000000000
(1699182825.506198) can0 220#FFE37F0000E60F
(1699182825.506429) can0 153#200010FF00FFB0DE
(1699182825.506668) can0 2A2#0400000000000000
(1699182825.506914) can0 331#0000000000000000
(1699182825.507102) can0 344#0000000000009403
(1699182825.507416) can0 386#0000000000000000
(1699182825.507642) can0 518#00000000000000C0
(1699182825.507871) can0 51C#0000000000007000
(1699182825.508074) can0 51D#0000000000000000
(1699182825.508432) can0 585#0060332C05000005
(1699182825.508434) can0 590#0700110094002396
(1699182825.508625) can0 592#30C890D351040044
(1699182825.508902) can0 450#000020
(1699182825.509135) can0 200#0000002D0878174A
(1699182825.509407) can0 201#C1000000000000C1
(1699182825.509643) can0 202#7E0000000000007E
(1699182825.509843) can0 230#0100010000000080
(1699182825.510074) can0 462#FE3FFF0F00000000
(1699182825.510342) can0 59E#0000000000000000
(1699182825.510624) can0 2B0#F8FC0007FC
(1699182825.510944) can0 59F#0000000000080000
(1699182825.511121) can0 471#44005000006C
(1699182825.511702) can0 380#1D0B091C00008506
(1699182825.512359) can0 281#0000010000000000
(1699182825.512642) can0 316#78000000000D0026
(1699182825.512905) can0 291#00000000FEAEAE00
(1699182825.513142) can0 329#205B0600002F0000
(1699182825.513406) can0 382#0000FF3F106F0000
(1699182825.513647) can0 111#08C0FFFF00001D00
(1699182825.513872) can0 100#0C30000000FF3200
(1699182825.515138) can0 570#0062210826050000
(1699182825.515369) can0 670#9411E015C46A0200
(1699182825.515575) can0 51E#0000000000000000
(1699182825.515818) can0 588#690A0000006A0000
(1699182825.516258) can0 153#200010FF00FFC0EE
(1699182825.516403) can0 220#FFE37F0000E30F
(1699182825.516643) can0 2A2#0500000000000000
(1699182825.516905) can0 331#0000000000000000
(1699182825.517168) can0 344#0000000000009403
(1699182825.517407) can0 394#00E0000000000200
(1699182825.517643) can0 5AD#B8B90C001E1F0000
(1699182825.517870) can0 5AE#D3006A1D2E000000
(1699182825.518101) can0 5F1#CC10690A00000000
(1699182825.518887) can0 200#0000002D08781944
(1699182825.519092) can0 201#0100000000000001
(1699182825.519342) can0 202#1E0000000000001E
(1699182825.519678) can0 230#0100010000000080
(1699182825.519849) can0 2B0#F8FC0007ED
(1699182825.521592) can0 460#258A065D000A0000
(1699182825.522579) can0 281#0000010000000000
(1699182825.522592) can0 316#78000000000D0026
(1699182825.522923) can0 291#00000000FEAEAE00
(1699182825.523133) can0 329#205B0600002F0000
(1699182825.523419) can0 382#0000FF3F106F0000
(1699182825.523674) can0 111#08C0FFFF00001D00
(1699182825.523940) can0 100#0C30000000FF3200
(1699182825.524133) can0 538#0000000002000000
(1699182825.524420) can0 56A#00C80001840F8AC8
(1699182825.526199) can0 220#FFE37F0000E10F
(1699182825.526382) can0 153#200010FF00FFD0FE
(1699182825.526660) can0 2A2#0400000000000000
(1699182825.526921) can0 331#0000000000000000
(1699182825.527113) can0 344#0000000000009403
(1699182825.527411) can0 386#0000000000000000
(1699182825.527412) can0 507#00000001
(1699182825.528888) can0 450#000020
(1699182825.529184) can0 200#0000002D08781B46
(1699182825.529442) can0 201#4100000000000041
(1699182825.529636) can0 202#3E0000000000003E
(1699182825.529982) can0 230#0100010000000080
(1699182825.530149) can0 462#FE3FFF0F00000000
(1699182825.530433) can0 2B0#F7FC00072E
(1699182825.530613) can0 471#440050000070
(1699182825.530889) can0 50E#0000000000000000
(1699182825.531150) can0 520#0000000000000000
(1699182825.531399) can0 541#0340400000000000
(1699182825.531654) can0 380#1D0B091C00008505
(1699182825.531850) can0 54E#FF00000000FF0000
(1699182825.532176) can0 553#0000000000008000
(1699182825.532381) can0 576#FF1F1FFFFFFFFF0F
(1699182825.532643) can0 281#0000010000000000
(1699182825.532903) can0 291#00000000FEAEAE00
(1699182825.533152) can0 316#78000000000D0026
(1699182825.533404) can0 329#205B0600002F0000
(1699182825.533656) can0 382#0000FF3F106F0000
(1699182825.533906) can0 100#0C30000000FF3200
(1699182825.534112) can0 111#08C0FFFF00001D00
(1699182825.534387) can0 577#FFFFFFFFFFFF0F00
(1699182825.534612) can0 578#000000000000
(1699182825.534879) can0 57C#07FFFFFFFFFFFFFF
(1699182825.535072) can0 57D#F7FFFFFFFFFFFFFF
(1699182825.535341) can0 57E#F7FFFFFFFF3F0000
(1699182825.535651) can0 58A#7FFF3FFF3F0F0000
(1699182825.536214) can0 5A8#0000000000000000
(1699182825.536379) can0 153#200010FF00FFE00E
(1699182825.536380) can0 220#FFE37F0000E00F
(1699182825.536654) can0 2A2#0500000000000000
(1699182825.536909) can0 331#0000000000000000
(1699182825.537172) can0 344#0000000000009403
(1699182825.537419) can0 394#0000000000000000
(1699182825.537658) can0 5AB#0000000000000000
(1699182825.537883) can0 5DF#045A020000000000
(1699182825.538397) can0 5EC#0000000000000000
(1699182825.538612) can0 490#01001000000000
(1699182825.538879) can0 200#0000002D08781D40
(1699182825.539074) can0 201#8100000000000081
(1699182825.539342) can0 202#5E0000000000005E
(1699182825.539647) can0 230#0100010000000080
(1699182825.539913) can0 2B0#F7FC00073F
(1699182825.541705) can0 460#258A065D000A0000
(1699182825.542702) can0 281#0000010000000000
(1699182825.542882) can0 316#78000000000D0026
(1699182825.542883) can0 291#00000000FEAEAE00
(1699182825.543153) can0 329#205B0600002F0000
(1699182825.543405) can0 382#0000FF3F106F0000
