(1698931468.319988) can0 281#00000100005C0300
(1698931468.320269) can0 100#0C30000000FF3200
(1698931468.320531) can0 111#08C0FFFF00002600
(1698931468.320708) can0 316#783BD0123B0D0052
(1698931468.320983) can0 329#275D060000302E00
(1698931468.321225) can0 344#5A03000008038B03
(1698931468.321477) can0 382#0000FF3F106F0000
(1698931468.321479) can0 450#000020
(1698931468.321727) can0 153#200010FF00FF406E
(1698931468.322033) can0 220#F343800000E40F
(1698931468.322246) can0 2A2#0500000000000000
(1698931468.322575) can0 331#0000000000000000
(1698931468.322724) can0 386#0000000000000000
(1698931468.323013) can0 460#25810854000A0000
(1698931468.323290) can0 462#FE3FFF0F00000000
(1698931468.323495) can0 2B0#32F1000780
(1698931468.323707) can0 471#400040000018
(1698931468.324715) can0 291#00000000FEAEAE00
(1698931468.325818) can0 200#053A3A3C0B781F55
(1698931468.325965) can0 201#C1000000000000C1
(1698931468.326213) can0 202#7E00000000D401AB
(1698931468.326462) can0 230#0100010000000080
(1698931468.327224) can0 570#004D210820020000
(1698931468.327477) can0 523#6001605072535900
(1698931468.327737) can0 524#5163090128000000
(1698931468.328048) can0 52D#4D51000000000000
(1698931468.329982) can0 281#00000100005C0300
(1698931468.330211) can0 100#0C30000000FF3200
(1698931468.330459) can0 111#08C0FFFF00002600
(1698931468.330719) can0 316#783BE0123B0D0053
(1698931468.330959) can0 329#275D060000302E00
(1698931468.331215) can0 344#5903000008038B03
(1698931468.331552) can0 380#260B092200008507
(1698931468.331780) can0 382#0000FF3F106F0000
(1698931468.332091) can0 153#200010FF00FF507E
(1698931468.332093) can0 220#F343800000E70F
(1698931468.332289) can0 2A2#0400000000000000
(1698931468.332542) can0 331#0000000000000000
(1698931468.332760) can0 394#0040000000000C00
(1698931468.332957) can0 490#01001000000000
(1698931468.333207) can0 538#0000000002000000
(1698931468.333487) can0 2B0#34F10007F1
(1698931468.333707) can0 56A#00C80001850288C6
(1698931468.334106) can0 584#010000151900484C
(1698931468.334769) can0 291#00000000FEAEAE00
(1698931468.335847) can0 200#053A3A3C0B78014B
(1698931468.336005) can0 201#0100000000000001
(1698931468.336323) can0 202#1E00000000D401CB
(1698931468.336497) can0 230#0100010000000080
(1698931468.339977) can0 281#00000100005C0300
(1698931468.340310) can0 100#0C30000000FF3200
(1698931468.340466) can0 111#08C0FFFF00002600
(1698931468.340772) can0 316#783BE0123B0D0053
(1698931468.341040) can0 329#275D069200302E00
(1698931468.341266) can0 344#5803000008038B03
(1698931468.341553) can0 382#0000FF3F106F0000
(1698931468.341779) can0 460#25810854000A0000
(1698931468.341986) can0 153#200010FF00FF608E
(1698931468.341987) can0 220#F363800000EA0F
(1698931468.342214) can0 2A2#0500000000000000
(1698931468.342459) can0 331#0000000000000000
(1698931468.342708) can0 386#0000000000000000
(1698931468.342956) can0 450#000020
(1698931468.343228) can0 507#00000001
(1698931468.343229) can0 2B0#35F10007D2
(1698931468.343489) can0 549#7281556F1E225500
(1698931468.343708) can0 462#FE3FFF0F00000000
(1698931468.343957) can0 556#716DE01200290000
(1698931468.344206) can0 471#44005000005C
(1698931468.344462) can0 557#788200003EF80100
(1698931468.344727) can0 520#0000000000000000
(1698931468.344970) can0 291#00000000FEAEAE00
(1698931468.345216) can0 51E#0000000000000000
(1698931468.345466) can0 541#0341408000000000
(1698931468.345716) can0 200#053A3A3C0B780349
(1698931468.345968) can0 201#4100000000000041
(1698931468.346210) can0 202#3E00000000D401EB
(1698931468.346469) can0 230#0100010000000080
(1698931468.346817) can0 560#989C20001800019C
(1698931468.347050) can0 561#3B7461118200001C
(1698931468.347261) can0 578#000000000000
(1698931468.347560) can0 588#630A000000650000
(1698931468.347766) can0 5AD#B8B852FF24250000
(1698931468.347767) can0 5AE#D30065222D000000
(1698931468.348016) can0 5EC#0000000000000000
(1698931468.348243) can0 5F1#CC10630A00000000
(1698931468.348517) can0 670#9411E015C4650100
(1698931468.350021) can0 281#00000100005C0300
(1698931468.350312) can0 100#0C30000000FF3200
(1698931468.350493) can0 111#08C0FFFF00002600
(1698931468.350770) can0 316#783BF8123B0D005C
(1698931468.350959) can0 329#275D060000302E00
(1698931468.351218) can0 344#5903000008038A03
(1698931468.351543) can0 380#260B092200008507
(1698931468.351757) can0 382#0000FF3F106F0000
(1698931468.351758) can0 153#200010FF00FF709E
(1698931468.352059) can0 220#F383800000E90F
(1698931468.352235) can0 2A2#0400000000000000
(1698931468.352456) can0 331#0000000000000000
(1698931468.352828) can0 394#0060000000000A00
(1698931468.353016) can0 2B0#33F10007A3
(1698931468.355027) can0 291#00000000FEAEAE00
(1698931468.355714) can0 200#053A3A3C0B78054F
(1698931468.356022) can0 201#8100000000000081
(1698931468.356261) can0 202#5E00000000D4018B
(1698931468.356464) can0 230#0100010000000080
(1698931468.360090) can0 281#00000100005C0300
(1698931468.360281) can0 100#0C30000000FF3200
(1698931468.360540) can0 111#08C0FFFF00002600
(1698931468.360825) can0 316#783BF8123B0D005C
(1698931468.361038) can0 329#275D0693002F2E00
(1698931468.361326) can0 344#5903000008038B03
(1698931468.361518) can0 382#0000FF3F106F0000
(1698931468.361520) can0 450#000000
(1698931468.361792) can0 153#200010FF00FF80AE
(1698931468.362076) can0 220#F263800000E60F
(1698931468.362332) can0 2A2#0500000000000000
(1698931468.362480) can0 331#0000000000000000
(1698931468.362750) can0 386#0000000000000000
(1698931468.363000) can0 460#25810854000A0000
(1698931468.363255) can0 462#FE3FFF0F00000000
(1698931468.363600) can0 2B0#35F10007B4
(1698931468.363763) can0 471#440050000020
(1698931468.365110) can0 291#00000000FEAEAE00
(1698931468.365853) can0 200#053A3A3C0B78074D
(1698931468.366044) can0 201#C1000000000000C1
(1698931468.366326) can0 202#7E00000000D401AB
(1698931468.366513) can0 230#0100010000000080
(1698931468.370120) can0 281#00000100005C0300
(1698931468.370305) can0 100#0C30000000FF3200
(1698931468.370565) can0 111#08C0FFFF00002600
(1698931468.370832) can0 316#783BF8123B0D005C
(1698931468.371046) can0 329#275D0600002F2E00
(1698931468.371329) can0 344#5903000008038B03
(1698931468.371547) can0 380#260B092100008507
(1698931468.371549) can0 382#0000FF3F106F0000
(1698931468.371833) can0 153#200010FF00FF90BE
(1698931468.371978) can0 220#F103800000E30F
(1698931468.372227) can0 2A2#0400000000000000
(1698931468.372574) can0 331#0000000000000000
(1698931468.372796) can0 394#0080000000000800
(1698931468.373082) can0 56B#366F000000000000
(1698931468.373295) can0 2B0#32F10007D5
(1698931468.375080) can0 291#00000000FEAEAE00
(1698931468.375853) can0 200#053A3A3C0B780943
(1698931468.376044) can0 201#0100000000000001
(1698931468.376319) can0 202#1E00000000D401CB
(1698931468.376577) can0 230#0100010000000080
(1698931468.377618) can0 555#71000000106F8A29
(1698931468.380114) can0 281#00000100005C0300
(1698931468.380297) can0 100#0C30000000FF3200
(1698931468.380585) can0 111#08C0FFFF00002600
(1698931468.380799) can0 316#783BF8123B0D005C
(1698931468.381080) can0 329#275D0600002F2E00
(1698931468.381293) can0 344#5903000008038B03
(1698931468.381585) can0 382#0000FF3F106F0000
(1698931468.381795) can0 460#25810954000A0000
(1698931468.382081) can0 153#200010FF00FFA0CE
(1698931468.382291) can0 220#EFE37F0000E00F
(1698931468.382546) can0 2A2#0500000000000000
(1698931468.382791) can0 331#0000000000000000
(1698931468.383075) can0 386#0000000000000000
(1698931468.383077) can0 490#01001000000000
(1698931468.383298) can0 2B0#34F1000786
(1698931468.383477) can0 450#000020
(1698931468.383825) can0 462#FE3FFF0F00000000
(1698931468.384042) can0 471#440050000024
(1698931468.385253) can0 291#00000000FEAEAE00
(1698931468.385935) can0 200#053A3A3C0B780B41
(1698931468.386037) can0 201#4100000000000041
(1698931468.386318) can0 202#3E00000000D401EB
(1698931468.386568) can0 230#0100010000000080
(1698931468.390347) can0 281#00000100005C0300
(1698931468.390359) can0 100#0C30000000FF3200
(1698931468.390537) can0 111#08C0FFFF00002600
(1698931468.390821) can0 316#783BF8123B0D005C
(1698931468.391075) can0 329#275D0692002F2E00
(1698931468.391327) can0 344#5903000008048B03
(1698931468.391581) can0 380#260B092200008507
(1698931468.391582) can0 382#0000FF3F106F0000
(1698931468.391791) can0 153#200010FF00FFB0DE
(1698931468.391979) can0 220#EFE37F0000DD0F
(1698931468.392229) can0 2A2#0400000000000000
(1698931468.392582) can0 331#0000000000000000
(1698931468.392828) can0 394#00A0000000000600
(1698931468.393075) can0 2B0#34F1000797
(1698931468.395117) can0 291#00000000FEAEAE00
(1698931468.395832) can0 200#053A3A3C0B780D47
(1698931468.396049) can0 201#8100000000000081
(1698931468.396329) can0 202#5E00000000D4018B
(1698931468.396541) can0 230#0100010000000080
(1698931468.400260) can0 281#00000100005C0300
(1698931468.400273) can0 100#0C30000000FF3200
(1698931468.400583) can0 111#08C0FFFF00002600
(1698931468.400808) can0 316#783BEC123B0D005F
(1698931468.401082) can0 329#275D0600002F2E00
(1698931468.401297) can0 344#5903000008048B03
(1698931468.401543) can0 382#0000FF3F106F0000
(1698931468.401545) can0 450#000000
(1698931468.401817) can0 153#200010FF00FFC0EE
(1698931468.402079) can0 220#EDE37F0000DB0F
(1698931468.402291) can0 2A2#0500000000000000
(1698931468.402478) can0 331#0000000000000000
(1698931468.402788) can0 386#0000000000000000
(1698931468.403081) can0 460#25810954000A0000
(1698931468.403296) can0 462#FE3FFF0F00000000
(1698931468.403580) can0 518#00840F0000BEFBC2
(1698931468.403842) can0 2B0#34F1000768
(1698931468.404048) can0 51C#0004000000057000
(1698931468.404049) can0 471#440050000028
(1698931468.404301) can0 51D#0000000000000000
(1698931468.404517) can0 585#0060382903000005
(1698931468.404764) can0 590#070022008B00338E
(1698931468.404977) can0 291#00000000FEAEAE00
(1698931468.405227) can0 592#30C800D3510400D4
(1698931468.405549) can0 59E#0000000000000000
(1698931468.405727) can0 200#053A3A3C0B780F45
(1698931468.406076) can0 201#C1000000000000C1
(1698931468.406293) can0 202#7E00000000D401AB
(1698931468.406557) can0 230#0100010000000080
(1698931468.406779) can0 59F#0000000000080000
(1698931468.410120) can0 281#00000100005C0300
(1698931468.410275) can0 100#0C30000000FF3200
(1698931468.410563) can0 111#08C0FFFF00002600
(1698931468.410827) can0 316#783BEC123B0D005F
(1698931468.411043) can0 329#275D0696002F2E00
(1698931468.411228) can0 344#5803000008048B03
(1698931468.411576) can0 380#260B092200008507
(1698931468.411578) can0 382#0000FF3F106F0000
(1698931468.411798) can0 153#200010FF00FFD0FE
(1698931468.412079) can0 220#EE23800000DD0F
(1698931468.412292) can0 2A2#0400000000000000
(1698931468.412547) can0 331#0000000000000000
(1698931468.412765) can0 394#00C0000000000400
(1698931468.412977) can0 2B0#34F1000779
(1698931468.415120) can0 291#00000000FEAEAE00
(1698931468.415869) can0 200#053A3A3C0B78115B
(1698931468.416043) can0 201#0100000000000001
(1698931468.416326) can0 202#1E00000000D401CB
(1698931468.416576) can0 230#0100010000000080
(1698931468.417583) can0 587#0000000000000001
(1698931468.420116) can0 281#00000100005C0300
(1698931468.420277) can0 100#0C30000000FF3200
(1698931468.420553) can0 111#08C0FFFF00002600
(1698931468.420848) can0 316#783BEC123B0D005F
(1698931468.421046) can0 329#275D0600002F2E00
(1698931468.421297) can0 344#5703000008048B03
(1698931468.421299) can0 382#0000FF3F106F0000
(1698931468.421542) can0 450#000000
(1698931468.421767) can0 153#200010FF00FFE00E
(1698931468.422045) can0 220#F083800000E00F
(1698931468.422263) can0 2A2#0500000000000000
(1698931468.422513) can0 331#0000000000000000
(1698931468.422728) can0 386#0000000000000000
(1698931468.423041) can0 460#25810954000A0000
(1698931468.423292) can0 462#FE3FFF0F00000000
(1698931468.423541) can0 570#004D21081F020000
(1698931468.423797) can0 2B0#33F100073A
(1698931468.424013) can0 471#44004000006C
(1698931468.425017) can0 291#00000000FEAEAE00
(1698931468.425747) can0 200#053A3A3C0B781359
(1698931468.425996) can0 201#4100000000000041
(1698931468.426236) can0 202#3E00000000D401EB
(1698931468.426486) can0 230#0100010000000080
(1698931468.427496) can0 523#6001605072535900
(1698931468.427735) can0 524#5163090128000000
(1698931468.427978) can0 52D#4D51000000000000
(1698931468.428240) can0 540#DE48DA680000F7F5
(1698931468.430041) can0 281#00000100005C0300
(1698931468.430294) can0 100#0C30000000FF3200
(1698931468.430516) can0 111#08C0FFFF00002600
(1698931468.430795) can0 316#783BD4123B0D0056
(1698931468.431030) can0 329#275D0600002F2E00
(1698931468.431294) can0 344#5603000008048B03
(1698931468.431296) can0 380#260B092200008507
(1698931468.431541) can0 382#0000FF3F106F0000
(1698931468.431729) can0 153#200010FF00FF002E
(1698931468.431977) can0 220#F0A3800000E20F
(1698931468.432228) can0 2A2#0400000000000000
(1698931468.432541) can0 331#0000000000000000
(1698931468.432780) can0 394#00E0000000000200
(1698931468.433007) can0 490#01001000000000
(1698931468.433255) can0 538#0000000002000000
(1698931468.433504) can0 2B0#33F100072B
(1698931468.433754) can0 56A#00C80001850388C7
(1698931468.434030) can0 584#0100001519104631
(1698931468.435016) can0 291#00000000FEAEAE00
(1698931468.435771) can0 200#053A3A3C0B78155F
(1698931468.436042) can0 201#8100000000000081
(1698931468.436291) can0 202#5E00000000D4018B
(1698931468.436539) can0 230#0100010000000080
(1698931468.440000) can0 281#00000100005C0300
(1698931468.440237) can0 100#0C30000000FF3200
(1698931468.440495) can0 111#08C0FFFF00002600
(1698931468.440734) can0 316#783BD4123B0D0056
(1698931468.440990) can0 329#275D0694002F2E00
(1698931468.440992) can0 344#5403000008048B03
(1698931468.441236) can0 382#0000FF3F106F0000
(1698931468.441487) can0 460#25810954000A0000
(1698931468.441735) can0 153#200010FF00FF103E
(1698931468.441992) can0 220#F0A3800000E50F
(1698931468.442256) can0 2A2#0500000000000000
(1698931468.442490) can0 331#0000000000000000
(1698931468.442740) can0 386#0000000000000000
(1698931468.443001) can0 450#000020
(1698931468.443275) can0 507#00000001
(1698931468.443278) can0 2B0#34F100072C
(1698931468.443490) can0 549#7381556E1E225500
(1698931468.443740) can0 462#FE3FFF0F00000000
(1698931468.443988) can0 556#716DD41200290000
(1698931468.444291) can0 471#440050000070
(1698931468.444496) can0 557#788200003C130200
(1698931468.444738) can0 50E#0000000000000000
(1698931468.445049) can0 560#D89C20001800019C
(1698931468.445263) can0 291#00000000FEAEAE00
(1698931468.445518) can0 51E#0000000000000000
(1698931468.445760) can0 200#053A3A3C0B78175D
(1698931468.446028) can0 201#C1000000000000C1
(1698931468.446261) can0 202#7E00000000D401AB
(1698931468.446475) can0 230#0100010000000080
(1698931468.446765) can0 520#0000000000000000
(1698931468.447030) can0 561#3B7461608400001C
(1698931468.447280) can0 541#0341408000000000
(1698931468.447527) can0 588#620A000000650000
(1698931468.447802) can0 54E#FF00000000FF0000
(1698931468.447803) can0 5AD#B8B861FF24250000
(1698931468.448028) can0 553#0000000000008000
(1698931468.448230) can0 5AE#380065222D000000
(1698931468.448485) can0 576#FF1F1FFFFFFFFF0F
(1698931468.448728) can0 5F1#CC10620A00000000
(1698931468.448978) can0 577#FFFFFFFFFFFF0F00
(1698931468.449229) can0 670#9411E015C4650100
(1698931468.449484) can0 578#000000000000
(1698931468.449730) can0 57C#07FFFFFFFFFFFFFF
(1698931468.449989) can0 100#0C30000000FF3200
(1698931468.450231) can0 111#08C0FFFF00002600
(1698931468.450485) can0 281#00000100005C0300
(1698931468.450729) can0 316#783B00133B0D0046
(1698931468.450978) can0 329#275D0600002F2E00
(1698931468.451233) can0 344#5303000008048B03
(1698931468.451477) can0 380#270B092100008507
(1698931468.451729) can0 382#0000FF3F106F0000
(1698931468.451978) can0 153#200010FF00FF204E
(1698931468.452227) can0 220#EF83800000E80F
(1698931468.452478) can0 2A2#0400000000000000
(1698931468.452726) can0 331#0000000000000000
(1698931468.452975) can0 394#0000000000000000
(1698931468.453226) can0 57D#F7FFFFFFFFFFFFFF
(1698931468.453478) can0 2B0#32F100075D
(1698931468.453728) can0 57E#F7FFFFFFFF3F0000
(1698931468.453984) can0 58A#7FFF3FFF3F0F0000
(1698931468.454229) can0 5A8#0000000000000000
(1698931468.454480) can0 5AB#0000000000000000
(1698931468.454734) can0 5DF#045A020000000000
(1698931468.454983) can0 5EC#0000000000000000
(1698931468.455234) can0 291#00000000FEAEAE00
(1698931468.455736) can0 200#053A3A3C0B781953
(1698931468.455983) can0 201#0100000000000001
(1698931468.456251) can0 202#1E00000000D401CB
(1698931468.456252) can0 230#0100010000000080
(1698931468.460028) can0 281#00000100005C0300
(1698931468.460268) can0 100#0C30000000FF3200
(1698931468.460518) can0 111#08C0FFFF00002600
(1698931468.460768) can0 316#783B00133B0D0046
(1698931468.461017) can0 329#275D0697002F2E00
(1698931468.461290) can0 344#5303000008048B03
(1698931468.461291) can0 382#0000FF3F106F0000
(1698931468.461505) can0 450#000020
(1698931468.461777) can0 153#200010FF00FF305E
(1698931468.461983) can0 220#EF23800000E60F
(1698931468.462228) can0 2A2#0500000000000000
(1698931468.462478) can0 331#0000000000000000
(1698931468.462734) can0 386#0000000000000000
(1698931468.462984) can0 460#25810954000A0000
(1698931468.463233) can0 462#FE3FFF0F00000000
(1698931468.463484) can0 2B0#33F100077E
(1698931468.463733) can0 471#440050000074
(1698931468.464986) can0 291#00000000FEAEAE00
(1698931468.465824) can0 200#053B3B3C0B781B51
(1698931468.466009) can0 201#4100000000000041
(1698931468.466256) can0 202#3E00000000D801E7
(1698931468.466475) can0 230#0100010000000080
(1698931468.470150) can0 281#00000100005C0300
(1698931468.470245) can0 100#0C30000000FF3200
(1698931468.470631) can0 111#08C0FFFF00002600
(1698931468.470826) can0 316#783B00133B0D0046
(1698931468.471103) can0 329#275D0600002F2E00
(1698931468.471104) can0 344#5403000008048B03
(1698931468.471309) can0 380#270B092200008508
(1698931468.471574) can0 382#0000FF3F106F0000
(1698931468.471845) can0 153#200010FF00FF406E
(1698931468.472057) can0 220#F1E37F0000E30F
(1698931468.472324) can0 2A2#0400000000000000
(1698931468.472522) can0 331#0000000000000000
(1698931468.472771) can0 394#0020000000000E00
(1698931468.473023) can0 56B#366E000000000000
(1698931468.473367) can0 2B0#33F100076F
(1698931468.475113) can0 291#00000000FEAEAE00
(1698931468.475892) can0 200#053A3A3C0B781D57
(1698931468.476081) can0 201#8100000000000081
(1698931468.476082) can0 202#5E00000000D4018B
(1698931468.476303) can0 230#0100010000000080
(1698931468.477389) can0 555#70000000106F8A29
(1698931468.480071) can0 281#00000100005C0300
(1698931468.480297) can0 100#0C30000000FF3200
(1698931468.480558) can0 111#08C0FFFF00002600
(1698931468.480794) can0 316#783B04133B0D004A
(1698931468.481092) can0 329#275D0696002F2E00
(1698931468.481316) can0 344#5403000008048B03
(1698931468.481542) can0 382#0000FF3F106F0000
(1698931468.481844) can0 460#25810954000A0000
(1698931468.482053) can0 153#200010FF00FF507E
(1698931468.482073) can0 220#F3E37F0000E10F
(1698931468.482313) can0 2A2#0500000000000000
(1698931468.482568) can0 331#0000000000000000
(1698931468.482794) can0 386#0000000000000000
(1698931468.483044) can0 490#01001000000000
(1698931468.483295) can0 2B0#33F1000790
(1698931468.483521) can0 450#000000
(1698931468.483861) can0 462#FE3FFF0F00000000
(1698931468.484060) can0 471#440050000078
(1698931468.485152) can0 291#00000000FEAEAE00
(1698931468.485891) can0 200#053A3A3C0B781F55
(1698931468.486081) can0 201#C1000000000000C1
(1698931468.486082) can0 202#7E00000000D401AB
(1698931468.486317) can0 230#0100010000000080
(1698931468.490425) can0 281#00000100005C0300
(1698931468.490435) can0 100#0C30000000FF3200
(1698931468.490563) can0 111#08C0FFFF00002600
(1698931468.490857) can0 316#783B04133B0D004A
(1698931468.491082) can0 329#275D0600002F2E00
(1698931468.491083) can0 344#5403000008048A03
(1698931468.491333) can0 380#260B092200008507
(1698931468.491573) can0 382#0000FF3F106F0000
(1698931468.491850) can0 153#200010FF00FF608E
(1698931468.492070) can0 220#F4E37F0000E40F
(1698931468.492273) can0 2A2#0400000000000000
(1698931468.492543) can0 331#0000000000000000
(1698931468.492799) can0 394#0040000000000C00
(1698931468.493053) can0 2B0#35F10007E1
(1698931468.495081) can0 291#00000000FEAEAE00
(1698931468.495998) can0 200#053A3A3C0B78014B
(1698931468.496009) can0 201#0100000000000001
(1698931468.496011) can0 202#1E00000000D401CB
(1698931468.496343) can0 230#0100010000000080
(1698931468.500358) can0 281#00000100005C0300
(1698931468.500369) can0 100#0C30000000FF3200
(1698931468.500548) can0 111#08C0FFFF00002600
(1698931468.500833) can0 316#783B20133B0D0048
(1698931468.500834) can0 329#275D0600002F2E00
(1698931468.501093) can0 344#5503000008048B03
(1698931468.501342) can0 382#0000FF3F106F0000
(1698931468.501562) can0 450#000000
(1698931468.501840) can0 153#200010FF00FF709E
(1698931468.502093) can0 220#F203800000E60F
(1698931468.502347) can0 2A2#0500000000000000
(1698931468.502555) can0 331#0000000000000000
(1698931468.502872) can0 386#0000000000000000
(1698931468.503056) can0 460#25810954000A0000
(1698931468.503329) can0 462#FE3FFF0F00000000
(1698931468.503596) can0 518#00800F0000BE02C3
(1698931468.503597) can0 2B0#33F10007B2
(1698931468.503845) can0 51C#0000000000057000
(1698931468.504092) can0 471#4400500000BC
(1698931468.504346) can0 51D#0000000000000000
(1698931468.504582) can0 585#0060382903000005
(1698931468.504811) can0 590#070022008C00338E
(1698931468.505037) can0 592#30C800D351040014
(1698931468.505285) can0 291#00000000FEAEAE00
(1698931468.505534) can0 59E#0000000000000000
(1698931468.505876) can0 200#053A3A3C0B780349
(1698931468.506031) can0 201#4100000000000041
(1698931468.506277) can0 202#3E00000000D401EB
(1698931468.506515) can0 230#0100010000000080
(1698931468.506812) can0 59F#0000000000080000
(1698931468.510110) can0 281#00000100005C0300
(1698931468.510286) can0 100#0C30000000FF3200
(1698931468.510559) can0 111#08C0FFFF00002600
(1698931468.510843) can0 316#783B20133B0D0048
(1698931468.511040) can0 329#275D0697002F2E00
(1698931468.511042) can0 344#5603000008048B03
(1698931468.511332) can0 380#260B092200008507
(1698931468.511539) can0 382#0000FF3F106F0000
(1698931468.511793) can0 153#200010FF00FF80AE
(1698931468.512113) can0 220#F383800000E80F
(1698931468.512289) can0 2A2#0400000000000000
(1698931468.512589) can0 331#0000000000000000
(1698931468.512788) can0 394#0060000000000A00
(1698931468.513058) can0 2B0#33F10007A3
(1698931468.515366) can0 291#00000000FEAEAE00
(1698931468.515867) can0 200#053A3A3C0B78054F
(1698931468.516039) can0 201#8100000000000081
(1698931468.516041) can0 202#5E00000000D4018B
(1698931468.516364) can0 230#0100010000000080
(1698931468.518372) can0 570#004D210820020000
(1698931468.520069) can0 111#08C0FFFF00002600
(1698931468.520254) can0 100#0C30000000FF3200
(1698931468.520602) can0 281#00000100005C0300
(1698931468.520819) can0 316#783B24133B0D004C
(1698931468.521104) can0 329#275D0600002F2E00
(1698931468.521318) can0 344#5703000008038B03
(1698931468.521581) can0 382#0000FF3F106F0000
(1698931468.521583) can0 450#000020
(1698931468.521787) can0 153#200010FF00FF90BE
(1698931468.522061) can0 220#F4C3800000E80F
(1698931468.522326) can0 2A2#0500000000000000
(1698931468.522576) can0 331#0000000000000000
(1698931468.522845) can0 386#0000000000000000
(1698931468.523063) can0 460#25810954000A0000
(1698931468.523353) can0 462#FE3FFF0F00000000
(1698931468.523568) can0 2B0#34F10007A4
(1698931468.523851) can0 471#440040000000
(1698931468.525368) can0 291#00000000FEAEAE00
(1698931468.525841) can0 200#053A3A3C0B78074D
(1698931468.526108) can0 201#C1000000000000C1
(1698931468.526110) can0 202#7E00000000D401AB
(1698931468.526249) can0 230#0100010000000080
(1698931468.527764) can0 523#6001605072535900
(1698931468.527778) can0 524#5163090128000000
(1698931468.528099) can0 52D#4D51000000000000
(1698931468.530374) can0 281#00000100005C0300
(1698931468.530387) can0 100#0C30000000FF3200
(1698931468.530566) can0 111#08C0FFFF00002600
(1698931468.530845) can0 316#783B24133B0D004C
(1698931468.531068) can0 329#275D0695002F2E00
(1698931468.531354) can0 344#5803000008038B03
(1698931468.531355) can0 380#270B092100008508
(1698931468.531562) can0 382#0000FF3F106F0000
(1698931468.531854) can0 153#200010FF00FFA0CE
(1698931468.532064) can0 220#F4E3800000EA0F
(1698931468.532356) can0 2A2#0400000000000000
(1698931468.532568) can0 331#0000000000000000
(1698931468.532814) can0 394#0080000000000800
(1698931468.533064) can0 490#01001000000000
(1698931468.533310) can0 538#0000000002000000
(1698931468.533565) can0 2B0#35F10007A5
(1698931468.533843) can0 56A#00C80001850488C0
(1698931468.534063) can0 584#010000151920344B
(1698931468.535541) can0 291#00000000FEAEAE00
(1698931468.535854) can0 200#053A3A3C0B780943
(1698931468.536065) can0 201#0100000000000001
(1698931468.536066) can0 202#1E00000000D401CB
(1698931468.536353) can0 230#0100010000000080
(1698931468.540356) can0 281#00000100005C0300
(1698931468.540370) can0 100#0C30000000FF3200
(1698931468.540554) can0 111#08C0FFFF00002600
(1698931468.540858) can0 316#783A24133A0D004A
(1698931468.541060) can0 329#275D0600002F2E00
(1698931468.541062) can0 344#5903000008038B03
(1698931468.541352) can0 382#0000FF3F106F0000
(1698931468.541557) can0 460#25810954000A0000
(1698931468.541850) can0 153#200010FF00FFB0DE
(1698931468.542054) can0 220#F5E3800000EC0F
(1698931468.542343) can0 2A2#0500000000000000
(1698931468.542557) can0 331#0000000000000000
(1698931468.542847) can0 386#0000000000000000
(1698931468.543052) can0 450#000000
(1698931468.543338) can0 507#00000001
(1698931468.543339) can0 2B0#33F10007F6
(1698931468.543553) can0 549#7381556D1E225500
(1698931468.543838) can0 462#FE3FFF0F00000000
(1698931468.544091) can0 556#706D241300290000
(1698931468.544345) can0 471#440050000004
(1698931468.544553) can0 557#798300003A1E0200
(1698931468.544802) can0 520#0000000000000000
(1698931468.545027) can0 560#189C20001800019C
(1698931468.545278) can0 291#00000000FEAEAE00
(1698931468.545625) can0 51E#0000000000000000
(1698931468.545778) can0 200#053A3A3C0B780B41
(1698931468.546126) can0 201#4100000000000041
(1698931468.546277) can0 202#3E00000000D401EB
(1698931468.546625) can0 230#0100010000000080
(1698931468.546786) can0 541#0341408000000000
(1698931468.547125) can0 561#3B7461B98600001C
(1698931468.547126) can0 578#000000000000
(1698931468.547287) can0 588#640A000000650000
(1698931468.547623) can0 5AD#B8B85AFF24250000
(1698931468.547788) can0 5AE#380065222D000000
(1698931468.548125) can0 5EC#0000000000000000
(1698931468.548277) can0 5F1#CC10640A00000000
(1698931468.548628) can0 670#9411E015C4650100
(1698931468.550116) can0 281#00000100005C0300
(1698931468.550287) can0 100#0C30000000FF3200
(1698931468.550615) can0 111#08C0FFFF00002600
(1698931468.550790) can0 316#783B14133B0D004B
(1698931468.550791) can0 329#275D0600002F2E00
(1698931468.551114) can0 344#5A03000008038B03
(1698931468.551292) can0 380#270B092200008608
(1698931468.551617) can0 382#0000FF3F106F0000
(1698931468.551789) can0 153#200010FF00FFC0EE
(1698931468.552088) can0 220#F4A3800000EA0F
(1698931468.552295) can0 2A2#0400000000000000
(1698931468.552562) can0 331#0000000000000000
(1698931468.552832) can0 394#00A0000000000600
(1698931468.553084) can0 2B0#34F1000797
(1698931468.555369) can0 291#00000000FEAEAE00
(1698931468.555543) can0 200#053A3A3C0B780D47
(1698931468.555836) can0 201#8100000000000081
(1698931468.556084) can0 202#5E00000000D0018F
(1698931468.556331) can0 230#0100010000000080
(1698931468.560117) can0 281#00000100005C0300
(1698931468.560313) can0 100#0C30000000FF3200
(1698931468.560602) can0 111#08C0FFFF00002600
(1698931468.560604) can0 316#783B14133B0D004B
(1698931468.560818) can0 329#275D0695002F2E00
(1698931468.561110) can0 344#5A03000008038B03
(1698931468.561318) can0 382#0000FF3F106F0000
(1698931468.561593) can0 450#000020
(1698931468.561854) can0 460#25810954000A0000
(1698931468.562066) can0 153#200010FF00FFD0FE
(1698931468.562332) can0 220#F223800000E80F
(1698931468.562581) can0 2A2#0500000000000000
(1698931468.562815) can0 331#0000000000000000
(1698931468.563082) can0 386#0000000000000000
(1698931468.563290) can0 462#FE3FFF0F00000000
(1698931468.563566) can0 2B0#35F1000778
(1698931468.563833) can0 471#440050000008
(1698931468.565368) can0 291#00000000FEAEAE00
(1698931468.565540) can0 200#053A3A3C0B780F45
(1698931468.565831) can0 201#C1000000000000C1
(1698931468.566083) can0 202#7E00000000D401AB
(1698931468.566292) can0 230#0100010000000080
(1698931468.570111) can0 281#00000100005C0300
(1698931468.570289) can0 100#0C30000000FF3200
(1698931468.570583) can0 111#08C0FFFF00002600
(1698931468.570791) can0 316#783A14133A0D0049
(1698931468.571077) can0 329#275D0600002F2E00
(1698931468.571327) can0 344#5B03000008038A03
(1698931468.571577) can0 380#260B092200008607
(1698931468.571827) can0 382#0000FF3F106F0000
(1698931468.572075) can0 153#200010FF00FFE00E
(1698931468.572076) can0 220#F1E37F0000E50F
(1698931468.572288) can0 2A2#0400000000000000
(1698931468.572564) can0 331#0000000000000000
(1698931468.572815) can0 394#00C0000000000400
(1698931468.573062) can0 56B#366E000000000000
(1698931468.573308) can0 2B0#33F1000709
(1698931468.575338) can0 291#00000000FEAEAE00
(1698931468.575578) can0 200#053A3A3C0B78115B
(1698931468.576121) can0 201#0100000000000001
(1698931468.576122) can0 202#1E00000000D001CF
(1698931468.576292) can0 230#0100010000000080
(1698931468.577368) can0 555#70000000116F8A29
(1698931468.580338) can0 281#00000100005C0300
(1698931468.580350) can0 100#0C30000000FF3200
(1698931468.580569) can0 111#08C0FFFF00002600
(1698931468.580847) can0 316#783A14133A0D0049
(1698931468.581061) can0 329#275D0694002F2E00
(1698931468.581346) can0 344#5B03000008038B03
(1698931468.581601) can0 382#0000FF3F106F0000
(1698931468.581809) can0 460#25810954000A0000
(1698931468.582085) can0 153#200010FF00FF002E
(1698931468.582086) can0 220#EFE37F0000E40F
(1698931468.582308) can0 2A2#0500000000000000
(1698931468.582559) can0 331#0000000000000000
(1698931468.582842) can0 386#0000000000000000
(1698931468.583094) can0 490#01001000000000
(1698931468.583352) can0 2B0#34F100074A
(1698931468.583560) can0 450#000020
(1698931468.583836) can0 462#FE3FFF0F00000000
(1698931468.584096) can0 471#44005000004C
(1698931468.585587) can0 291#00000000FEAEAE00
(1698931468.585599) can0 200#053A3A3C0B781359
(1698931468.585800) can0 201#4100000000000041
(1698931468.586048) can0 202#3E00000000D401EB
(1698931468.586298) can0 230#0100010000000080
(1698931468.590459) can0 111#08C0FFFF00002600
(1698931468.590474) can0 100#0C30000000FF3200
(1698931468.590585) can0 281#00000100005C0300
(1698931468.590586) can0 316#783A14133A0D0049
(1698931468.590816) can0 329#275D0600002F2D00
(1698931468.591103) can0 344#5B03000008038B03
(1698931468.591318) can0 380#260B092200008507
(1698931468.591602) can0 382#0000FF3F106F0000
(1698931468.591873) can0 153#200010FF00FF103E
(1698931468.592062) can0 220#EFE37F0000E40F
(1698931468.592349) can0 2A2#0400000000000000
(1698931468.592510) can0 331#0000000000000000
(1698931468.592845) can0 394#00E0000000000200
(1698931468.593106) can0 2B0#34F100075B
(1698931468.595529) can0 291#00000000FEAEAE00
(1698931468.595855) can0 200#053A3A3C0B78155F
(1698931468.595857) can0 201#8100000000000081
(1698931468.596064) can0 202#5E00000000D0018F
(1698931468.596345) can0 230#0100010000000080
(1698931468.600356) can0 281#00000100005C0300
(1698931468.600369) can0 100#0C30000000FF3200
(1698931468.600610) can0 111#08C0FFFF00002600
(1698931468.600866) can0 316#783A24133A0D004A
(1698931468.600868) can0 329#275D0600002F2E00
(1698931468.601074) can0 344#5C03000008038B03
(1698931468.601355) can0 382#0000FF3F106F0000
(1698931468.601574) can0 450#000000
(1698931468.601873) can0 153#200010FF00FF204E
(1698931468.602099) can0 220#EF03800000E40F
(1698931468.602347) can0 2A2#0500000000000000
(1698931468.602580) can0 331#0000000000000000
(1698931468.602888) can0 386#0000000000000000
(1698931468.603088) can0 460#25810954000A0000
(1698931468.603355) can0 462#FE3FFF0F00000000
(1698931468.603593) can0 518#00800F00E0FD01C3
(1698931468.603595) can0 2B0#33F100075C
(1698931468.603827) can0 51C#0000000000057000
(1698931468.604074) can0 471#440050000010
(1698931468.604365) can0 51D#0000000000000000
(1698931468.604595) can0 585#0060382903000005
(1698931468.604825) can0 590#070021008B00328E
(1698931468.605097) can0 592#30C800D351040054
(1698931468.605291) can0 291#00000000FEAEAE00
(1698931468.605541) can0 59E#0000000000000000
(1698931468.605812) can0 200#053A3A3C0B78175D
(1698931468.606110) can0 201#C1000000000000C1
(1698931468.606312) can0 202#7E00000000D001AF
(1698931468.606581) can0 230#0100010000000080
(1698931468.606854) can0 59F#0000000000080000
(1698931468.610133) can0 111#08C0FFFF00002600
(1698931468.610352) can0 100#0C30000000FF3200
(1698931468.610601) can0 281#00000100005C0300
(1698931468.610603) can0 316#783A24133A0D004A
(1698931468.610866) can0 329#275D0693002F2E00
(1698931468.611086) can0 344#5D03000008038B03
(1698931468.611374) can0 380#260B092200008507
(1698931468.611566) can0 382#0000FF3F106F0000
(1698931468.611883) can0 153#200010FF00FF305E
(1698931468.612099) can0 220#F263800000E20F
(1698931468.612372) can0 2A2#0400000000000000
(1698931468.612597) can0 331#0000000000000000
(1698931468.612815) can0 394#0000000000000000
(1698931468.613103) can0 2B0#35F100072D
(1698931468.613883) can0 570#004D210820020000
(1698931468.615295) can0 291#00000000FEAEAE00
(1698931468.615609) can0 200#053A3A3C0B781953
(1698931468.615813) can0 201#0100000000000001
(1698931468.616093) can0 202#1E00000000D001CF
(1698931468.616289) can0 230#0100010000000080
(1698931468.617637) can0 587#0000000000000002
(1698931468.620140) can0 281#00000100005C0300
(1698931468.620269) can0 100#0C30000000FF3200
(1698931468.620614) can0 111#08C0FFFF00002600
(1698931468.620837) can0 316#783A2C133A0D0052
(1698931468.620838) can0 329#275D0600002F2D00
(1698931468.621128) can0 344#5E03000008038A03
(1698931468.621337) can0 382#0000FF3F106F0000
(1698931468.621602) can0 450#000000
(1698931468.621851) can0 220#F2A3800000E00F
(1698931468.622124) can0 153#200010FF00FF406E
(1698931468.622341) can0 2A2#0500000000000000
(1698931468.622522) can0 331#0000000000000000
(1698931468.622772) can0 386#0000000000000000
(1698931468.623021) can0 460#25810954000A0000
(1698931468.623362) can0 462#FE3FFF0F00000000
(1698931468.623569) can0 2B0#34F100070E
(1698931468.623876) can0 471#440040000014
(1698931468.625379) can0 291#00000000FEAEAE00
(1698931468.625542) can0 200#053A3A3C0B781B51
(1698931468.625853) can0 201#4100000000000041
(1698931468.626111) can0 202#3E00000000D001EF
(1698931468.626383) can0 230#0100010000000080
(1698931468.627891) can0 523#6001605072535900
(1698931468.628092) can0 524#51630A0128000000
(1698931468.628377) can0 52D#4D51000000000000
(1698931468.628590) can0 540#DE48D5680000F6F4
(1698931468.630162) can0 111#08C0FFFF00002600
(1698931468.630344) can0 100#0C30000000FF3200
(1698931468.630651) can0 281#00000100005C0300
(1698931468.630873) can0 316#783A2C133A0D0052
(1698931468.630874) can0 329#275D0692002F2D00
(1698931468.631092) can0 344#6003000008038B03
(1698931468.631373) can0 380#260B092300008508
(1698931468.631589) can0 382#0000FF3F106F0000
(1698931468.631771) can0 153#200010FF00FF507E
(1698931468.632106) can0 220#F3A3800000DF0F
(1698931468.632376) can0 2A2#0400000000000000
(1698931468.632589) can0 331#0000000000000000
(1698931468.632771) can0 394#0020000000000E00
(1698931468.633022) can0 490#01001000000000
(1698931468.633411) can0 538#0000000002000000
(1698931468.633595) can0 2B0#34F100071F
(1698931468.633873) can0 56A#00C80001850588C1
(1698931468.634087) can0 584#0100001519304146
(1698931468.635559) can0 291#00000000FEAEAE00
(1698931468.635572) can0 200#053A3A3C0B781D57
(1698931468.635839) can0 201#8100000000000081
(1698931468.636128) can0 202#5E00000000D0018F
(1698931468.636340) can0 230#0100010000000080
(1698931468.640409) can0 281#0000010000750300
(1698931468.640423) can0 100#0C30000000FF3200
(1698931468.640592) can0 111#08C0FFFF00002600
(1698931468.640593) can0 316#783A2C133A0D0052
(1698931468.640876) can0 329#275D0600002F2D00
(1698931468.641079) can0 344#6103000008038B03
(1698931468.641272) can0 382#0000FF3F106F0000
(1698931468.641622) can0 460#25810954000A0000
(1698931468.641829) can0 153#200010FF00FF608E
(1698931468.642115) can0 220#F4A3800000E10F
(1698931468.642368) can0 2A2#0500000000000000
(1698931468.642581) can0 331#0000000000000000
(1698931468.642872) can0 386#0000000000000000
(1698931468.643079) can0 450#000020
(1698931468.643080) can0 507#00000001
(1698931468.643273) can0 2B0#34F10007E0
(1698931468.643522) can0 549#7481556D1E225500
(1698931468.643860) can0 462#FE3FFF0F00000000
(1698931468.644085) can0 556#706D2C1300290000
(1698931468.644373) can0 471#440050000018
(1698931468.644588) can0 557#7883000038350200
(1698931468.644863) can0 50E#0000000000000000
(1698931468.645074) can0 560#589C20001800019C
(1698931468.645329) can0 51E#0000000000000000
(1698931468.645574) can0 291#00000000FEAEAE00
(1698931468.645772) can0 200#053A3A3C0B781F55
(1698931468.646021) can0 201#C1000000000000C1
(1698931468.646383) can0 202#7E00000000D001AF
(1698931468.646548) can0 230#0100010000000080
(1698931468.646828) can0 520#0000000000000000
(1698931468.646829) can0 561#3B7461078900001C
(1698931468.647022) can0 541#0341408000000000
(1698931468.647270) can0 588#640A000000650000
(1698931468.647521) can0 54E#FF00000000FF0000
(1698931468.647771) can0 5AD#B8B852FF24250000
(1698931468.648021) can0 553#0000000000008000
(1698931468.648380) can0 5AE#D30065222D000000
(1698931468.648577) can0 576#FF1F1FFFFFFFFF0F
(1698931468.648799) can0 5F1#CC10640A00000000
(1698931468.649021) can0 577#FFFFFFFFFFFF0F00
(1698931468.649271) can0 670#9411E015C4650200
(1698931468.649632) can0 578#000000000000
(1698931468.649862) can0 57C#07FFFFFFFFFFFFFF
(1698931468.650111) can0 281#0000010000820300
(1698931468.650333) can0 100#0C30000000FF3200
(1698931468.650520) can0 111#08C0FFFF00002600
(1698931468.650773) can0 316#783A34133A0D004B
(1698931468.651021) can0 329#275D0600002F2D00
(1698931468.651342) can0 344#6203000008038B03
(1698931468.651581) can0 380#260B092300008507
(1698931468.651881) can0 382#0000FF3F106F0000
(1698931468.652097) can0 153#200010FF00FF709E
(1698931468.652333) can0 220#F223800000E40F
(1698931468.652590) can0 2A2#0400000000000000
(1698931468.652841) can0 331#0000000000000000
(1698931468.653087) can0 394#0040000000000C00
(1698931468.653272) can0 57D#F7FFFFFFFFFFFFFF
(1698931468.653521) can0 2B0#34F10007F1
(1698931468.653771) can0 57E#F7FFFFFFFF3F0000
(1698931468.654087) can0 58A#7FFF3FFF3F0F0000
(1698931468.654409) can0 5A8#0000000000000000
(1698931468.654520) can0 5AB#0000000000000000
(1698931468.654881) can0 5DF#045A020000000000
(1698931468.655119) can0 5EC#0000000000000000
(1698931468.655358) can0 291#00000000FEAEAE00
(1698931468.655607) can0 200#053A3A3C0B78014B
(1698931468.655772) can0 201#0100000000000001
(1698931468.656021) can0 202#1E00000000D001CF
(1698931468.656271) can0 230#0100010000000080
(1698931468.660110) can0 281#0000010000880300
(1698931468.660329) can0 100#0C30000000FF3200
(1698931468.660658) can0 111#08C0FFFF00002600
(1698931468.660660) can0 316#783A34133A0D004B
(1698931468.660835) can0 329#275D0691002F2D00
(1698931468.661160) can0 344#6103000008038B03
(1698931468.661331) can0 382#0000FF3F106F0000
(1698931468.661597) can0 450#000020
(1698931468.661848) can0 460#25810954000A0000
(1698931468.662125) can0 153#200010FF00FF80AE
(1698931468.662373) can0 220#F0E37F0000E70F
(1698931468.662521) can0 2A2#0500000000000000
(1698931468.662772) can0 331#0000000000000000
(1698931468.663093) can0 386#0000000000000000
(1698931468.663341) can0 462#FE3FFF0F00000000
(1698931468.663342) can0 2B0#35F10007D2
(1698931468.663883) can0 471#44005000005C
(1698931468.665387) can0 291#00000000FEAEAE00
(1698931468.665548) can0 200#053A3A3C0B780349
(1698931468.665852) can0 201#4100000000000041
(1698931468.666125) can0 202#3E00000000D001EF
(1698931468.666370) can0 230#0100010000000080
(1698931468.670158) can0 281#00000100008B0300
(1698931468.670330) can0 100#0C30000000FF3200
(1698931468.670606) can0 111#08C0FFFF00002600
(1698931468.670608) can0 316#783A3C133A0D0053
(1698931468.670863) can0 329#275D0600002F2D00
(1698931468.671114) can0 344#6103000008038B03
(1698931468.671367) can0 380#260B092200008507
(1698931468.671576) can0 382#0000FF3F106F0000
(1698931468.671870) can0 153#200010FF00FF90BE
(1698931468.672118) can0 220#EFE37F0000E90F
(1698931468.672367) can0 2A2#0400000000000000
(1698931468.672583) can0 331#0000000000000000
(1698931468.672831) can0 394#0060000000000A00
(1698931468.673080) can0 56B#366E000000000000
(1698931468.673330) can0 2B0#33F10007A3
(1698931468.675549) can0 291#00000000FEAEAE00
(1698931468.675562) can0 200#053A3A3C0B78054F
(1698931468.675883) can0 201#8100000000000081
(1698931468.676091) can0 202#5E00000000D0018F
(1698931468.676377) can0 230#0100010000000080
(1698931468.677306) can0 555#6F000000106F8A29
(1698931468.680381) can0 281#00000100008D0300
(1698931468.680394) can0 100#0C30000000FF3200
(1698931468.680574) can0 111#08C0FFFF00002600
(1698931468.680878) can0 316#783A3C133A0D0053
(1698931468.681075) can0 329#275D0690002F2D00
(1698931468.681384) can0 344#6003000008038B03
(1698931468.681593) can0 382#0000FF3F106F0000
(1698931468.681885) can0 460#25810954000A0000
(1698931468.681888) can0 153#200010FF00FFA0CE
(1698931468.682089) can0 220#EEE37F0000E60F
(1698931468.682379) can0 2A2#0500000000000000
(1698931468.682589) can0 331#0000000000000000
(1698931468.682865) can0 386#0000000000000000
(1698931468.683074) can0 490#01001000000000
(1698931468.683361) can0 2B0#34F10007A4
(1698931468.683575) can0 450#000000
(1698931468.683879) can0 462#FE3FFF0F00000000
(1698931468.684099) can0 471#440050000020
(1698931468.685608) can0 291#00000000FEAEAE00
(1698931468.685622) can0 200#053A3A3C0B78074D
(1698931468.685845) can0 201#C1000000000000C1
(1698931468.686129) can0 202#7E00000000D001AF
(1698931468.686335) can0 230#0100010000000080
(1698931468.690462) can0 281#00000100008E0300
(1698931468.690476) can0 100#0C30000000FF3200
(1698931468.690669) can0 111#08C0FFFF00002600
(1698931468.690671) can0 316#783A3C133A0D0053
(1698931468.690834) can0 329#275D0600002F2D00
(1698931468.691127) can0 344#6003000008038B03
(1698931468.691336) can0 380#270B092200008508
(1698931468.691624) can0 382#0000FF3F106F0000
(1698931468.691836) can0 153#200010FF00FFB0DE
(1698931468.692124) can0 220#F0E37F0000E40F
(1698931468.692335) can0 2A2#0400000000000000
(1698931468.692584) can0 331#0000000000000000
(1698931468.692784) can0 394#0080000000000800
(1698931468.693491) can0 2B0#34F10007B5
(1698931468.695574) can0 291#00000000FEAEAE00
(1698931468.695589) can0 200#053A3A3C0B780943
(1698931468.695855) can0 201#0100000000000001
(1698931468.696093) can0 202#1E00000000D001CF
(1698931468.696349) can0 230#0100010000000080
(1698931468.700380) can0 281#00000100008E0300
(1698931468.700394) can0 100#0C30000000FF3200
(1698931468.700620) can0 111#08C0FFFF00002600
(1698931468.700622) can0 316#783A44133A0D004C
(1698931468.700885) can0 329#275D068F002F2D00
(1698931468.701098) can0 344#6203000008038B03
(1698931468.701355) can0 382#0000FF3F106F0000
(1698931468.701598) can0 450#000020
(1698931468.701846) can0 460#25810954000A0000
(1698931468.702097) can0 153#200010FF00FFC0EE
(1698931468.702346) can0 220#F1E37F0000E10F
(1698931468.702595) can0 2A2#0500000000000000
(1698931468.702846) can0 331#0000000000000000
(1698931468.703126) can0 386#0000000000000000
(1698931468.703349) can0 462#FE3FFF0F00000000
(1698931468.703655) can0 518#00780F00E0FD00C3
(1698931468.703657) can0 2B0#34F1000786
(1698931468.703853) can0 51C#0001000000057000
(1698931468.704119) can0 471#440050000024
(1698931468.704345) can0 51D#0000000000000000
(1698931468.704596) can0 528#130F61007D037006
(1698931468.704888) can0 585#0060382903000005
(1698931468.705100) can0 590#070024008C00368E
(1698931468.705314) can0 592#30C800D351040094
(1698931468.705641) can0 291#00000000FEAEAE00
(1698931468.705813) can0 200#053A3A3C0B780B41
(1698931468.706139) can0 201#4100000000000041
(1698931468.706313) can0 202#3E00000000D001EF
(1698931468.706636) can0 230#0100010000000080
(1698931468.706817) can0 59E#0000000000000000
(1698931468.707142) can0 59F#0000000000080000
(1698931468.709409) can0 570#004D21081F010000
(1698931468.710237) can0 281#00000100008E0300
(1698931468.710314) can0 100#0C30000000FF3200
(1698931468.710316) can0 111#08C0FFFF00002600
(1698931468.710608) can0 316#783A44133A0D004C
(1698931468.710868) can0 329#275D0600002F2D00
(1698931468.711097) can0 344#6403000008038A03
(1698931468.711346) can0 380#270B092200008508
(1698931468.711595) can0 382#0000FF3F106F0000
(1698931468.711890) can0 153#200010FF00FFD0FE
(1698931468.712095) can0 220#F263800000DE0F
(1698931468.712380) can0 2A2#0400000000000000
(1698931468.712565) can0 331#0000000000000000
(1698931468.712862) can0 394#00A0000000000600
(1698931468.713067) can0 2B0#35F1000787
(1698931468.713640) can0 5A0#000000002500A502
(1698931468.715385) can0 291#00000000FEAEAE00
(1698931468.715592) can0 200#053A3A3C0B780D47
(1698931468.715849) can0 201#8100000000000081
(1698931468.716095) can0 202#5E00000000D0018F
(1698931468.716389) can0 230#0100010000000080
(1698931468.720079) can0 281#00000100008E0300
(1698931468.720384) can0 100#0C30000000FF3200
(1698931468.720386) can0 111#08C0FFFF00002600
(1698931468.720528) can0 316#783A38133A0D004F
(1698931468.720841) can0 329#275D0600002F2D00
(1698931468.721127) can0 344#6803000008038B03
(1698931468.721340) can0 382#0000FF3F106F0000
(1698931468.721612) can0 450#000000
(1698931468.721877) can0 460#25810954000A0000
(1698931468.722085) can0 153#200010FF00FFE00E
(1698931468.722375) can0 220#F2A3800000DE0F
(1698931468.722591) can0 2A2#0500000000000000
(1698931468.722774) can0 331#0000000000000000
(1698931468.723022) can0 386#0000000000000000
(1698931468.723294) can0 462#FE3FFF0F00000000
(1698931468.723295) can0 2B0#34F1000768
(1698931468.723602) can0 471#440040000028
(1698931468.725676) can0 291#00000000FEAEAE00
(1698931468.725691) can0 200#053A3A3C0B780F45
(1698931468.725864) can0 201#C1000000000000C1
(1698931468.726119) can0 202#7E00000000D001AF
(1698931468.726334) can0 230#0100010000000080
(1698931468.728145) can0 523#6001605072535900
(1698931468.728159) can0 524#51630A0128000000
(1698931468.728357) can0 52D#4D51000000000000
(1698931468.730454) can0 281#00000100008E0300
(1698931468.730467) can0 100#0C30000000FF3200
(1698931468.730634) can0 111#08C0FFFF00002600
(1698931468.730636) can0 316#783A38133A0D004F
(1698931468.730887) can0 329#275D068F002F2D00
(1698931468.731116) can0 344#6C03000008038A03
(1698931468.731342) can0 380#260B092200008507
(1698931468.731622) can0 382#0000FF3F106F0000
(1698931468.731793) can0 153#200010FF00FF002E
(1698931468.732041) can0 220#F1A3800000E10F
(1698931468.732382) can0 2A2#0400000000000000
(1698931468.732649) can0 331#0000000000000000
(1698931468.732791) can0 044#0000108779000000
(1698931468.733020) can0 394#00C0000000000400
(1698931468.733366) can0 490#01001000000000
(1698931468.733589) can0 538#0000000002000000
(1698931468.733895) can0 2B0#33F1000709
(1698931468.734106) can0 56A#00C80001850688C2
(1698931468.734398) can0 584#0100001519404D33
(1698931468.734542) can0 5C3#0000000080000000
(1698931468.734889) can0 5C4#00FF00FF00000000
(1698931468.735365) can0 291#00000000FEAEAE00
(1698931468.735606) can0 200#053A3A3C0B78115B
(1698931468.735900) can0 201#0100000000000001
(1698931468.736113) can0 202#1E00000000D001CF
(1698931468.736394) can0 230#0100010000000080
(1698931468.740402) can0 281#00000100008E0300
(1698931468.740416) can0 100#0C30000000FF3200
(1698931468.740607) can0 111#08C0FFFF00002600
(1698931468.740902) can0 316#783A34133A0D004B
(1698931468.741110) can0 329#275D0600002F2D00
(1698931468.741397) can0 344#7003000008038B03
(1698931468.741399) can0 382#0000FF3F106F0000
(1698931468.741609) can0 450#000000
(1698931468.741891) can0 153#200010FF00FF103E
(1698931468.742106) can0 220#F183800000E40F
(1698931468.742393) can0 2A2#0500000000000000
(1698931468.742610) can0 331#0000000000000000
(1698931468.742879) can0 386#0000000000000000
(1698931468.743108) can0 460#25810854000A0000
(1698931468.743396) can0 462#FE3FFF0F00000000
(1698931468.743608) can0 507#00000001
(1698931468.743609) can0 2B0#34F100074A
(1698931468.743898) can0 549#7781556E1E225500
(1698931468.744110) can0 471#44005000006C
(1698931468.744386) can0 556#706D341300290000
(1698931468.744607) can0 520#0000000000000000
(1698931468.744859) can0 557#7783000037430200
(1698931468.745083) can0 541#0341408000000000
(1698931468.745329) can0 51E#0000000000000000
(1698931468.745652) can0 291#00000000FEAEAE00
(1698931468.745831) can0 200#053A3A3C0B781359
(1698931468.746097) can0 201#4100000000000041
(1698931468.746377) can0 202#3E00000000D001EF
(1698931468.746584) can0 230#0100010000000080
(1698931468.746896) can0 560#989C20001800019C
(1698931468.747088) can0 561#3B7461468B00001C
(1698931468.747089) can0 578#000000000000
(1698931468.747373) can0 588#640A000000650000
(1698931468.747630) can0 5AD#B8B848FF24250000
(1698931468.747875) can0 5AE#D30065222D000000
(1698931468.748124) can0 5EC#0000000000000000
(1698931468.748328) can0 5F1#CC10640A00000000
(1698931468.748582) can0 670#9411E015C4650200
(1698931468.750111) can0 281#00000100008E0300
(1698931468.750333) can0 100#0C30000000FF3200
(1698931468.750334) can0 111#08C0FFFF00002600
(1698931468.750655) can0 316#783A34133A0D004B
(1698931468.750832) can0 329#275D068D002F2D00
(1698931468.751097) can0 344#7403000008038B03
(1698931468.751377) can0 380#260B092200008407
(1698931468.751582) can0 382#0000FF3F106F0000
(1698931468.751846) can0 153#200010FF00FF204E
(1698931468.752111) can0 220#EF23800000E60F
(1698931468.752375) can0 2A2#0400000000000000
(1698931468.752623) can0 331#0000000000000000
(1698931468.752874) can0 394#00E0000000000200
(1698931468.753082) can0 2B0#35F100074B
(1698931468.755356) can0 291#00000000FEAEAE00
(1698931468.755569) can0 200#053A3A3C0B78155F
(1698931468.755880) can0 201#8100000000000081
(1698931468.756129) can0 202#5E00000000D0018F
(1698931468.756330) can0 230#0100010000000080
(1698931468.760144) can0 111#08C0FFFF00002600
(1698931468.760145) can0 100#0C30000000FF3200
(1698931468.760364) can0 281#00000100008E0300
(1698931468.760646) can0 316#783A34133A0D004B
(1698931468.760853) can0 329#275D0600002F2D00
(1698931468.761154) can0 344#7703000008038B03
(1698931468.761357) can0 382#0000FF3F106F0000
(1698931468.761628) can0 450#000020
(1698931468.761896) can0 460#25810854000A0000
(1698931468.762105) can0 153#200010FF00FF305E
(1698931468.762397) can0 220#EFE37F0000E90F
(1698931468.762603) can0 2A2#0500000000000000
(1698931468.762882) can0 331#0000000000000000
(1698931468.763082) can0 386#0000000000000000
(1698931468.763353) can0 462#FE3FFF0F00000000
(1698931468.763355) can0 2B0#34F100072C
(1698931468.763620) can0 471#440050000070
(1698931468.765353) can0 291#00000000FEAEAE00
(1698931468.765637) can0 200#053A3A3C0B78175D
(1698931468.765855) can0 201#C1000000000000C1
(1698931468.766151) can0 202#7E00000000D001AF
(1698931468.766358) can0 230#0100010000000080
(1698931468.770469) can0 281#00000100008E0300
(1698931468.770482) can0 100#0C30000000FF3200
(1698931468.770484) can0 111#08C0FFFF00002600
(1698931468.770598) can0 316#783A30133A0D0047
(1698931468.770894) can0 329#275D0600002F2D00
(1698931468.771110) can0 344#7B03000008038B03
(1698931468.771398) can0 380#270B092200008507
(1698931468.771603) can0 382#0000FF3F106F0000
(1698931468.771895) can0 153#200010FF00FF406E
(1698931468.772106) can0 220#EFE37F0000EC0F
(1698931468.772403) can0 2A2#0400000000000000
(1698931468.772607) can0 331#0000000000000000
(1698931468.772857) can0 394#0000000000000000
(1698931468.773108) can0 56B#366E000000000000
(1698931468.773352) can0 2B0#34F100073D
(1698931468.775581) can0 291#00000000FEAEAE00
(1698931468.775594) can0 200#053A3A3C0B781953
(1698931468.775857) can0 201#0100000000000001
(1698931468.776144) can0 202#1E00000000D001CF
(1698931468.776360) can0 230#0100010000000080
(1698931468.777331) can0 555#71000000106F8A29
(1698931468.780412) can0 281#00000100008E0300
(1698931468.780427) can0 100#0C30000000FF3200
(1698931468.780594) can0 111#08C0FFFF00002600
(1698931468.780907) can0 316#783A30133A0D0047
(1698931468.781096) can0 329#275D068D002F2D00
(1698931468.781399) can0 344#7E03000008038B03
(1698931468.781596) can0 382#0000FF3F106F0000
(1698931468.781598) can0 460#25810854000A0000
(1698931468.781893) can0 153#200010FF00FF507E
(1698931468.782112) can0 220#F0E37F0000EA0F
(1698931468.782399) can0 2A2#0500000000000000
(1698931468.782607) can0 331#0000000000000000
(1698931468.782882) can0 386#0000000000000000
(1698931468.783106) can0 490#01001000000000
(1698931468.783393) can0 2B0#35F100071E
(1698931468.783606) can0 450#000020
(1698931468.783894) can0 462#FE3FFF0F00000000
(1698931468.784115) can0 471#440050000074
(1698931468.785628) can0 291#00000000FEAEAE00
(1698931468.785641) can0 200#053A3A3C0B781B51
(1698931468.785874) can0 201#4100000000000041
(1698931468.786118) can0 202#3E00000000D001EF
(1698931468.786366) can0 230#0100010000000080
(1698931468.790463) can0 281#00000100008E0300
(1698931468.790476) can0 100#0C30000000FF3200
(1698931468.790676) can0 111#08C0FFFF00002600
(1698931468.790678) can0 316#783A2C133A0D0052
(1698931468.790868) can0 329#275D0600002F2D00
(1698931468.791114) can0 344#8203000008038B03
(1698931468.791411) can0 380#260B092200008507
(1698931468.791617) can0 382#0000FF3F106F0000
(1698931468.791867) can0 153#200010FF00FF608E
(1698931468.792159) can0 220#EFE37F0000E70F
(1698931468.792366) can0 2A2#0400000000000000
(1698931468.792617) can0 331#0000000000000000
(1698931468.792862) can0 394#0020000000000E00
(1698931468.793059) can0 2B0#32F100077F
(1698931468.795588) can0 291#00000000FEAEAE00
(1698931468.795603) can0 200#053A3A3C0B781D57
(1698931468.795858) can0 201#8100000000000081
(1698931468.796160) can0 202#5E00000000D0018F
(1698931468.796368) can0 230#0100010000000080
(1698931468.800133) can0 281#00000100008E0300
(1698931468.800147) can0 100#0C30000000FF3200
(1698931468.800356) can0 111#08C0FFFF00002600
(1698931468.800643) can0 316#783A2C133A0D0052
(1698931468.800867) can0 329#275D068B002F2D00
(1698931468.801148) can0 344#8503000008038B03
(1698931468.801366) can0 382#0000FF3F106F0000
(1698931468.801615) can0 450#000000
(1698931468.801905) can0 460#25810854000A0000
(1698931468.802117) can0 153#200010FF00FF709E
(1698931468.802366) can0 220#F003800000E40F
(1698931468.802616) can0 2A2#0500000000000000
(1698931468.802890) can0 331#0000000000000000
(1698931468.803120) can0 386#0000000000000000
(1698931468.803370) can0 462#FE3FFF0F00000000
(1698931468.803613) can0 518#007C0F00E03DF7C2
(1698931468.803615) can0 2B0#33F1000790
(1698931468.803901) can0 51C#0006000000057000
(1698931468.804116) can0 471#440050000078
(1698931468.804406) can0 51D#0000000000000000
(1698931468.804616) can0 585#0060382903000005
(1698931468.804905) can0 590#070022008C00348E
(1698931468.805087) can0 570#004D21081F010000
(1698931468.805330) can0 592#30C800D3510400D4
(1698931468.805661) can0 291#00000000FEAEAE00
(1698931468.805835) can0 200#053A3A3C0B781F55
(1698931468.806161) can0 201#C1000000000000C1
(1698931468.806334) can0 202#7E00000000D001AF
(1698931468.806561) can0 230#0100010000000080
(1698931468.806851) can0 59E#0000000000000000
(1698931468.807123) can0 59F#0000000000080000
(1698931468.809932) can0 111#08C0FFFF00002600
(1698931468.810086) can0 100#0C30000000FF3200
(1698931468.810371) can0 281#00000100008E0300
(1698931468.810589) can0 316#783A2C133A0D0052
(1698931468.810886) can0 329#275D0600002F2D00
(1698931468.811081) can0 344#8803000008038B03
(1698931468.811349) can0 380#260B092200008507
(1698931468.811610) can0 382#0000FF3F106F0000
(1698931468.811874) can0 220#F143800000E10F
(1698931468.812124) can0 153#200010FF00FF80AE
(1698931468.812329) can0 2A2#0400000000000000
(1698931468.812582) can0 331#0000000000000000
(1698931468.812830) can0 394#0040000000000C00
(1698931468.813080) can0 2B0#32F1000791
(1698931468.815688) can0 291#00000000FEAEAE00
(1698931468.815690) can0 200#053A3A3C0B78014B
(1698931468.815838) can0 201#0100000000000001
(1698931468.816155) can0 202#1E00000000D001CF
(1698931468.816333) can0 230#0100010000000080
(1698931468.817405) can0 587#0000000000000003
(1698931468.820397) can0 111#08C0FFFF00002600
(1698931468.820411) can0 100#0C30000000FF3200
(1698931468.820611) can0 281#00000100008E0300
(1698931468.820840) can0 316#783A20133A0D0046
(1698931468.821102) can0 329#275D0600002F2D00
(1698931468.821394) can0 344#8A03000008038A03
(1698931468.821665) can0 382#0000FF3F106F0000
(1698931468.821667) can0 450#000000
(1698931468.821882) can0 153#200010FF00FF90BE
(1698931468.822146) can0 220#F263800000DF0F
(1698931468.822361) can0 2A2#0500000000000000
(1698931468.822610) can0 331#0000000000000000
(1698931468.822858) can0 386#0000000000000000
(1698931468.823103) can0 460#25810954000A0000
(1698931468.823292) can0 462#FE3FFF0F00000000
(1698931468.823541) can0 2B0#32F10007A2
(1698931468.823884) can0 471#4400400000BC
(1698931468.825947) can0 291#00000000FEAEAE00
(1698931468.825949) can0 200#053A3A3C0B780349
(1698931468.825962) can0 201#4100000000000041
(1698931468.826138) can0 202#3E00000000D001EF
(1698931468.826401) can0 230#0100010000000080
(1698931468.828189) can0 523#6001605072535900
(1698931468.828203) can0 524#51640A0128000000
(1698931468.828381) can0 52D#4D51000000000000
(1698931468.828633) can0 540#DE48DA680000F6F4
(1698931468.830425) can0 281#00000100008E0300
(1698931468.830427) can0 100#0C30000000FF3200
(1698931468.830441) can0 111#08C0FFFF00002600
(1698931468.830571) can0 316#783A20133A0D0046
(1698931468.830886) can0 329#275D068A002F2D00
(1698931468.831107) can0 344#8C03000008038B03
(1698931468.831388) can0 380#260B092200008507
(1698931468.831606) can0 382#0000FF3F106F0000
(1698931468.831928) can0 153#200010FF00FFA0CE
(1698931468.832128) can0 220#F483800000E10F
(1698931468.832393) can0 2A2#0400000000000000
(1698931468.832618) can0 331#0000000000000000
(1698931468.832880) can0 394#0060000000000A00
(1698931468.833148) can0 490#01001000000000
(1698931468.833293) can0 538#0000000002000000
(1698931468.833542) can0 2B0#32F10007B3
(1698931468.833793) can0 56A#00C80001850788C3
(1698931468.834043) can0 584#0100001519503030
(1698931468.835865) can0 291#00000000FEAEAE00
(1698931468.835880) can0 200#053A3A3C0B78054F
(1698931468.836132) can0 201#8100000000000081
(1698931468.836134) can0 202#5E00000000D0018F
(1698931468.836361) can0 230#0100010000000080
(1698931468.840129) can0 281#00000100008E0300
(1698931468.840143) can0 100#0C30000000FF3200
(1698931468.840377) can0 111#08C0FFFF00002600
(1698931468.840649) can0 316#783A10133A0D0045
(1698931468.840865) can0 329#275D0600002F2D00
(1698931468.841161) can0 344#8D03000008038A03
(1698931468.841298) can0 382#0000FF3F106F0000
(1698931468.841543) can0 460#25810854000A0000
(1698931468.841918) can0 153#200010FF00FFB0DE
(1698931468.842104) can0 220#F263800000E30F
(1698931468.842450) can0 2A2#0500000000000000
(1698931468.842556) can0 331#0000000000000000
(1698931468.842902) can0 386#0000000000000000
(1698931468.843129) can0 450#000020
(1698931468.843130) can0 507#00000001
(1698931468.843361) can0 2B0#32F10007C4
(1698931468.843644) can0 549#7B8155721E225500
(1698931468.843915) can0 462#FE3FFF0F00000000
(1698931468.844131) can0 556#706D101300290000
(1698931468.844400) can0 471#440050000000
(1698931468.844612) can0 557#7683000036340200
(1698931468.844815) can0 50E#0000000000000000
(1698931468.845043) can0 560#D89C20001800019C
(1698931468.845314) can0 51E#0000000000000000
(1698931468.845660) can0 520#0000000000000000
(1698931468.845662) can0 200#053A3A3C0B78074D
(1698931468.845881) can0 201#C1000000000000C1
(1698931468.846150) can0 202#7E00000000D401AB
(1698931468.846333) can0 230#0100010000000080
(1698931468.846629) can0 291#00000000FEAEAE00
(1698931468.846909) can0 541#0341408000000000
(1698931468.847110) can0 561#3B7461758D00001C
(1698931468.847394) can0 54E#FF00000000FF0000
(1698931468.847606) can0 588#650A000000650000
(1698931468.847901) can0 553#0000000000008000
(1698931468.848167) can0 5AD#B8B946FF24250000
(1698931468.848378) can0 576#FF1F1FFFFFFFFF0F
(1698931468.848643) can0 5AE#380065222D000000
(1698931468.848813) can0 577#FFFFFFFFFFFF0F00
(1698931468.849041) can0 5F1#CC10650A00000000
(1698931468.849329) can0 578#000000000000
(1698931468.849674) can0 670#9411E015C4650200
(1698931468.849892) can0 57C#07FFFFFFFFFFFFFF
(1698931468.850142) can0 100#0C30000000FF3200
(1698931468.850337) can0 111#08C0FFFF00002600
(1698931468.850562) can0 281#00000100008E0300
(1698931468.850918) can0 316#783A10133A0D0045
(1698931468.851103) can0 329#275D0688002F2D00
(1698931468.851434) can0 344#8E03000009038B03
(1698931468.851605) can0 380#270B092200008507
(1698931468.851606) can0 382#0000FF3F106F0000
(1698931468.851924) can0 153#200010FF00FFC0EE
(1698931468.852102) can0 220#EF63800000E30F
(1698931468.852428) can0 2A2#0400000000000000
(1698931468.852605) can0 331#0000000000000000
(1698931468.852929) can0 394#0080000000000800
(1698931468.853104) can0 57D#F7FFFFFFFFFFFFFF
(1698931468.853313) can0 2B0#34F10007B5
(1698931468.853562) can0 57E#F7FFFFFFFF3F0000
(1698931468.854052) can0 58A#7FFF3FFF3F0F0000
(1698931468.854374) can0 5A8#0000000000000000
(1698931468.854563) can0 5AB#0000000000000000
(1698931468.854928) can0 5DF#045A020000000000
(1698931468.855103) can0 5EC#0000000000000000
(1698931468.855661) can0 291#00000000FEAEAE00
(1698931468.855854) can0 200#053A3A3C0B780943
(1698931468.856125) can0 201#0100000000000001
(1698931468.856394) can0 202#1E00000000D401CB
(1698931468.856643) can0 230#0100010000000080
(1698931468.860157) can0 281#00000100008E0300
(1698931468.860170) can0 100#0C30000000FF3200
(1698931468.860371) can0 111#08C0FFFF00002600
(1698931468.860664) can0 316#783B10133B0D0047
(1698931468.860871) can0 329#275D0600002F2D00
(1698931468.861122) can0 344#8F03000009048B03
(1698931468.861370) can0 382#0000FF3F106F0000
(1698931468.861705) can0 450#000000
(1698931468.861867) can0 460#25810854000A0000
(1698931468.862183) can0 153#200010FF00FFD0FE
(1698931468.862340) can0 220#EE43800000E30F
(1698931468.862724) can0 2A2#0500000000000000
(1698931468.862841) can0 331#0000000000000000
(1698931468.863063) can0 386#0000000000000000
(1698931468.863405) can0 462#FE3FFF0F00000000
(1698931468.863406) can0 2B0#33F10007F6
(1698931468.863596) can0 471#440050000004
(1698931468.865707) can0 291#00000000FEAEAE00
(1698931468.865879) can0 200#053A3A3C0B780B41
(1698931468.866206) can0 201#4100000000000041
(1698931468.866364) can0 202#3E00000000D401EB
(1698931468.866563) can0 230#0100010000000080
(1698931468.869952) can0 281#00000100008E0300
(1698931468.870134) can0 100#0C30000000FF3200
(1698931468.870396) can0 111#08C0FFFF00002600
(1698931468.870546) can0 316#783B04133B0D004A
(1698931468.870910) can0 329#275D0600002F2E00
(1698931468.871128) can0 344#9003000009038B03
(1698931468.871415) can0 380#260B092200008507
(1698931468.871632) can0 382#0000FF3F106F0000
(1698931468.871813) can0 153#200010FF00FFE00E
(1698931468.872153) can0 220#EC23800000E30F
(1698931468.872420) can0 2A2#0400000000000000
(1698931468.872627) can0 331#0000000000000000
(1698931468.872813) can0 394#00A0000000000600
(1698931468.873100) can0 56B#366F000000000000
(1698931468.873425) can0 2B0#32F10007F7
(1698931468.875841) can0 291#00000000FEAEAE00
(1698931468.875854) can0 200#053A3A3C0B780D47
(1698931468.876173) can0 201#8100000000000081
(1698931468.876383) can0 202#5E00000000D4018B
(1698931468.876666) can0 230#0100010000000080
(1698931468.876882) can0 555#71000000106F8A29
(1698931468.880422) can0 281#00000100008E0300
(1698931468.880436) can0 100#0C30000000FF3200
(1698931468.880634) can0 111#08C0FFFF00002600
(1698931468.880922) can0 316#783B04133B0D004A
(1698931468.881138) can0 329#275D0688002F2E00
(1698931468.881139) can0 344#9103000009048B03
(1698931468.881408) can0 382#0000FF3F106F0000
(1698931468.881627) can0 460#25810854000A0000
(1698931468.881814) can0 153#200010FF00FF002E
(1698931468.882190) can0 220#ED03800000E30F
(1698931468.882371) can0 2A2#0500000000000000
(1698931468.882564) can0 331#0000000000000000
(1698931468.883091) can0 386#0000000000000000
(1698931468.883105) can0 490#01001000000000
(1698931468.883420) can0 2B0#32F1000708
(1698931468.883632) can0 450#000020
(1698931468.883915) can0 462#FE3FFF0F00000000
(1698931468.884133) can0 471#440050000008
(1698931468.885923) can0 291#00000000FEAEAE00
(1698931468.885937) can0 200#053A3A3C0B780F45
(1698931468.886120) can0 201#C1000000000000C1
(1698931468.886454) can0 202#7E00000000D401AB
(1698931468.886590) can0 230#0100010000000080
(1698931468.890502) can0 281#00000100008E0300
(1698931468.890504) can0 100#0C30000000FF3200
(1698931468.890516) can0 111#08C0FFFF00002600
(1698931468.890570) can0 316#783BF8123B0D005C
(1698931468.890905) can0 329#275D0600002F2E00
(1698931468.891128) can0 344#9103000009048B03
(1698931468.891422) can0 380#260B092200008507
(1698931468.891630) can0 382#0000FF3F106F0000
(1698931468.891915) can0 153#200010FF00FF103E
(1698931468.892128) can0 220#EF03800000E30F
(1698931468.892415) can0 2A2#0400000000000000
(1698931468.892563) can0 331#0000000000000000
(1698931468.892813) can0 394#00C0000000000400
(1698931468.893063) can0 2B0#34F1000779
(1698931468.895878) can0 291#00000000FEAEAE00
(1698931468.895892) can0 200#053A3A3C0B78115B
(1698931468.896121) can0 201#0100000000000001
(1698931468.896409) can0 202#1E00000000D401CB
(1698931468.896617) can0 230#0100010000000080
(1698931468.899833) can0 281#00000100008E0300
(1698931468.900154) can0 100#0C30000000FF3200
(1698931468.900417) can0 111#08C0FFFF00002600
(1698931468.900636) can0 316#783BF8123B0D005C
(1698931468.900814) can0 329#275D0687002F2E00
(1698931468.901152) can0 344#9003000009048B03
(1698931468.901420) can0 382#0000FF3F106F0000
(1698931468.901602) can0 450#000020
(1698931468.901833) can0 460#25810854000A0000
(1698931468.902155) can0 153#200010FF00FF204E
(1698931468.902358) can0 220#F103800000E60F
(1698931468.902565) can0 2A2#0500000000000000
(1698931468.902932) can0 331#0000000000000000
(1698931468.903130) can0 386#0000000000000000
(1698931468.903377) can0 462#FE3FFF0F00000000
(1698931468.903379) can0 518#00840F00E03DEAC2
(1698931468.903627) can0 2B0#32F100072A
(1698931468.903815) can0 51C#0002000000057000
(1698931468.904065) can0 471#44005000004C
(1698931468.904381) can0 51D#0000000000000000
(1698931468.904593) can0 570#004D210820020000
(1698931468.904845) can0 585#0060382903000005
(1698931468.905102) can0 590#070022008B00338D
(1698931468.905352) can0 592#30C800D351040014
(1698931468.905564) can0 59E#0000000000000000
(1698931468.905813) can0 200#053A3A3C0B781359
(1698931468.906159) can0 201#4100000000000041
(1698931468.906352) can0 202#3E00000000D401EB
(1698931468.906563) can0 230#0100010000000080
(1698931468.906922) can0 291#00000000FEAEAE00
(1698931468.907134) can0 59F#0000000000080000
(1698931468.909940) can0 281#00000100008E0300
(1698931468.910133) can0 100#0C30000000FF3200
(1698931468.910356) can0 111#08C0FFFF00002600
(1698931468.910563) can0 316#783BF8123B0D005C
(1698931468.910930) can0 329#275D0600002F2E00
(1698931468.911129) can0 344#8E03000008048B03
(1698931468.911419) can0 380#260B092200008507
(1698931468.911627) can0 382#0000FF3F106F0000
(1698931468.911917) can0 153#200010FF00FF305E
(1698931468.912131) can0 220#F323800000E60F
(1698931468.912415) can0 2A2#0400000000000000
(1698931468.912605) can0 331#0000000000000000
(1698931468.912848) can0 394#00E0000000000200
(1698931468.913373) can0 2B0#35F100074B
(1698931468.915596) can0 291#00000000FEAEAE00
(1698931468.915828) can0 200#053A3A3C0B78155F
(1698931468.916083) can0 201#8100000000000081
(1698931468.916333) can0 202#5E00000000D4018B
(1698931468.916583) can0 230#0100010000000080
(1698931468.919975) can0 281#00000100008E0300
(1698931468.920075) can0 100#0C30000000FF3200
(1698931468.920467) can0 111#08C0FFFF00002600
(1698931468.920564) can0 316#783BF4123B0D0058
(1698931468.920857) can0 329#275D0600002F2E00
(1698931468.921075) can0 344#8E03000008048B03
(1698931468.921376) can0 382#0000FF3F106F0000
(1698931468.921631) can0 450#000000
(1698931468.921879) can0 460#25810854000A0000
(1698931468.922167) can0 153#200010FF00FF406E
(1698931468.922326) can0 220#F323800000E00F
(1698931468.922565) can0 2A2#0500000000000000
(1698931468.922887) can0 331#0000000000000000
(1698931468.923139) can0 386#0000000000000000
(1698931468.923140) can0 462#FE3FFF0F00000000
(1698931468.923320) can0 2B0#35F100073C
(1698931468.923572) can0 471#440040000010
(1698931468.925626) can0 291#00000000FEAEAE00
(1698931468.925922) can0 200#053A3A3C0B78175D
(1698931468.926134) can0 201#C1000000000000C1
(1698931468.926421) can0 202#7E00000000D401AB
(1698931468.926572) can0 230#0100010000000080
(1698931468.928127) can0 523#6001605072535900
(1698931468.928383) can0 524#51640A0128000000
(1698931468.928633) can0 52D#4D51000000000000
(1698931468.930077) can0 281#00000100008E0300
(1698931468.930092) can0 100#0C30000000FF3200
(1698931468.930410) can0 111#08C0FFFF00002600
(1698931468.930627) can0 316#783BF4123B0D0058
(1698931468.930906) can0 329#275D0686002F2E00
(1698931468.931130) can0 344#8F03000008048B03
(1698931468.931411) can0 380#270B092200008507
(1698931468.931629) can0 382#0000FF3F106F0000
(1698931468.931934) can0 153#200010FF00FF507E
(1698931468.932128) can0 220#F363800000E00F
(1698931468.932407) can0 2A2#0400000000000000
(1698931468.932622) can0 331#0000000000000000
(1698931468.932879) can0 394#0000000000000000
(1698931468.933123) can0 490#01001000000000
(1698931468.933373) can0 538#0000000002000000
(1698931468.933623) can0 2B0#33F100074D
(1698931468.933919) can0 56A#00C80001850888CC
(1698931468.933920) can0 584#0100001519603033
(1698931468.935614) can0 200#053B3B3C0B781953
(1698931468.935814) can0 201#0100000000000001
(1698931468.936151) can0 202#1E00000000D801C7
(1698931468.936419) can0 230#0100010000000080
(1698931468.936627) can0 291#00000000FEAEAE00
(1698931468.940157) can0 281#00000100008E0300
(1698931468.940171) can0 100#0C30000000FF3200
(1698931468.940382) can0 111#08C0FFFF00002600
(1698931468.940588) can0 316#783BEC123B0D005F
(1698931468.940922) can0 329#275D0600002F2E00
(1698931468.941136) can0 344#9003000009048B03
(1698931468.941414) can0 382#0000FF3F106F0000
(1698931468.941632) can0 460#25810854000A0000
(1698931468.941867) can0 153#200010FF00FF608E
(1698931468.942184) can0 220#F343800000E00F
(1698931468.942372) can0 2A2#0500000000000000
(1698931468.942621) can0 331#0000000000000000
(1698931468.942907) can0 386#0000000000000000
(1698931468.943187) can0 450#000000
(1698931468.943188) can0 507#00000001
(1698931468.943384) can0 462#FE3FFF0F00000000
(1698931468.943660) can0 549#7D8155761E225500
(1698931468.943877) can0 2B0#34F100070E
(1698931468.944167) can0 556#716DEC1200290000
(1698931468.944377) can0 471#440050000014
(1698931468.944667) can0 557#7582000035290200
(1698931468.944879) can0 520#0000000000000000
(1698931468.945149) can0 560#189C20001800019C
(1698931468.945151) can0 51E#0000000000000000
(1698931468.945354) can0 541#0341408000000000
(1698931468.945603) can0 200#053A3A3C0B781B51
(1698931468.945852) can0 201#4100000000000041
(1698931468.946101) can0 202#3E00000000D401EB
(1698931468.946355) can0 230#0100010000000080
(1698931468.946686) can0 291#00000000FEAEAE00
(1698931468.946880) can0 561#3B7461928F00001C
(1698931468.947063) can0 578#000000000000
(1698931468.947313) can0 588#650A000000650000
(1698931468.947638) can0 5AD#B8B948FF24250000
(1698931468.947904) can0 5AE#380065222D000000
(1698931468.948167) can0 5EC#0000000000000000
(1698931468.948350) can0 5F1#CC10650A00000000
(1698931468.948606) can0 670#9411E015C4650200
(1698931468.949874) can0 281#00000100008E0300
(1698931468.950177) can0 100#0C30000000FF3200
(1698931468.950356) can0 111#08C0FFFF00002600
(1698931468.950712) can0 316#783BEC123B0D005F
(1698931468.950852) can0 329#275D0685002F2E00
(1698931468.951124) can0 344#9003000009048B03
(1698931468.951394) can0 380#260B092200008507
(1698931468.951602) can0 382#0000FF3F106F0000
(1698931468.951913) can0 153#200010FF00FF709E
(1698931468.952105) can0 220#F223800000E00F
(1698931468.952377) can0 2A2#0400000000000000
(1698931468.952604) can0 331#0000000000000000
(1698931468.952852) can0 394#0020000000000E00
(1698931468.953105) can0 2B0#33F100076F
(1698931468.955666) can0 200#053B3B3C0B781D57
(1698931468.955854) can0 201#8100000000000081
(1698931468.956147) can0 202#5E00000000D80187
(1698931468.956352) can0 230#0100010000000080
(1698931468.956617) can0 291#00000000FEAEAE00
(1698931468.959944) can0 281#00000100008E0300
(1698931468.960128) can0 100#0C30000000FF3200
(1698931468.960407) can0 111#08C0FFFF00002600
(1698931468.960630) can0 316#783BEC123B0D005F
(1698931468.960913) can0 329#275D0600002F2E00
(1698931468.961189) can0 344#8F03000009048B03
(1698931468.961378) can0 382#0000FF3F106F0000
(1698931468.961665) can0 450#000020
(1698931468.961953) can0 460#25810954000A0000
(1698931468.962154) can0 153#200010FF00FF80AE
(1698931468.962355) can0 220#F1E37F0000E00F
(1698931468.962669) can0 2A2#0500000000000000
(1698931468.962671) can0 331#0000000000000000
(1698931468.963179) can0 386#0000000000000000
(1698931468.963180) can0 462#FE3FFF0F00000000
(1698931468.963353) can0 2B0#35F10007F0
(1698931468.963656) can0 471#440050000018
(1698931468.965671) can0 200#053A3A3C0B781F55
(1698931468.965938) can0 201#C1000000000000C1
(1698931468.966133) can0 202#7E00000000D401AB
(1698931468.966417) can0 230#0100010000000080
(1698931468.966602) can0 291#00000000FEAEAE00
(1698931468.969947) can0 281#00000100008E0300
(1698931468.970151) can0 100#0C30000000FF3200
(1698931468.970440) can0 111#08C0FFFF00002600
(1698931468.970590) can0 316#783BEC123B0D005F
(1698931468.970932) can0 329#275D0600002F2E00
(1698931468.971149) can0 344#8F03000009048B03
(1698931468.971444) can0 380#260B092200008507
(1698931468.971625) can0 382#0000FF3F106F0000
(1698931468.971929) can0 153#200010FF00FF90BE
(1698931468.972190) can0 220#F1E37F0000E00F
(1698931468.972384) can0 2A2#0400000000000000
(1698931468.972691) can0 331#0000000000000000
(1698931468.972903) can0 394#0040000000000C00
(1698931468.973194) can0 56B#366E000000000000
(1698931468.973400) can0 2B0#32F1000791
(1698931468.975897) can0 200#053B3B3C0B78014B
(1698931468.975911) can0 201#0100000000000001
(1698931468.976156) can0 202#1E00000000D801C7
(1698931468.976443) can0 230#0100010000000080
(1698931468.976653) can0 291#00000000FEAEAE00
(1698931468.976939) can0 555#71000000106F8A29
(1698931468.980157) can0 111#08C0FFFF00002600
(1698931468.980171) can0 100#0C30000000FF3200
(1698931468.980406) can0 281#00000100008E0300
(1698931468.980650) can0 316#783BEC123B0D005F
(1698931468.980904) can0 329#275D0684002F2E00
(1698931468.981128) can0 344#9003000009048B03
(1698931468.981602) can0 382#0000FF3F106F0000
(1698931468.981616) can0 460#25810954000A0000
(1698931468.981939) can0 153#200010FF00FFA0CE
(1698931468.982154) can0 220#F3E37F0000E00F
(1698931468.982437) can0 2A2#0500000000000000
(1698931468.982654) can0 331#0000000000000000
(1698931468.982935) can0 386#0000000000000000
(1698931468.983152) can0 490#01001000000000
(1698931468.983442) can0 2B0#35F10007D2
(1698931468.983444) can0 450#000020
(1698931468.984116) can0 462#FE3FFF0F00000000
(1698931468.984117) can0 471#44005000005C
(1698931468.985962) can0 200#053B3B3C0B780349
(1698931468.985975) can0 201#4100000000000041
(1698931468.986161) can0 202#3E00000000D801E7
(1698931468.986444) can0 230#0100010000000080
(1698931468.986650) can0 291#00000000FEAEAE00
(1698931468.990253) can0 281#00000100008E0300
(1698931468.990267) can0 100#0C30000000FF3200
(1698931468.990426) can0 111#08C0FFFF00002600
(1698931468.990696) can0 316#783BE4123B0D0057
(1698931468.990910) can0 329#275D0600002F2E00
(1698931468.991154) can0 344#9003000009048B03
(1698931468.991438) can0 380#260B092200008607
(1698931468.991653) can0 382#0000FF3F106F0000
(1698931468.991939) can0 153#200010FF00FFB0DE
(1698931468.992151) can0 220#F3E37F0000E20F
(1698931468.992400) can0 2A2#0400000000000000
(1698931468.992649) can0 331#0000000000000000
(1698931468.992898) can0 394#0060000000000A00
(1698931468.993149) can0 2B0#35F10007C3
(1698931468.995896) can0 200#053A3A3C0B78054F
(1698931468.995910) can0 201#8100000000000081
(1698931468.996157) can0 202#5E00000000D4018B
(1698931468.996438) can0 230#0100010000000080
(1698931468.996654) can0 291#00000000FEAEAE00
(1698931468.996911) can0 570#004D210820010000
(1698931469.000187) can0 281#00000100008E0300
(1698931469.000202) can0 100#0C30000000FF3200
(1698931469.000410) can0 111#08C0FFFF00002600
(1698931469.000691) can0 316#783BE4123B0D0057
(1698931469.000907) can0 329#275D0684002F2E00
(1698931469.001184) can0 344#8F03000009048B03
(1698931469.001410) can0 382#0000FF3F106F0000
(1698931469.001659) can0 450#000000
(1698931469.001909) can0 460#25810954000A0000
(1698931469.002110) can0 153#200010FF00FFC0EE
(1698931469.002450) can0 220#F223800000E20F
(1698931469.002600) can0 2A2#0500000000000000
(1698931469.002838) can0 331#0000000000000000
(1698931469.002839) can0 386#0000000000000000
(1698931469.003157) can0 462#FE3FFF0F00000000
(1698931469.003375) can0 518#00840F0000BEE3C2
(1698931469.003625) can0 2B0#34F10007A4
(1698931469.003949) can0 51C#0000000000057000
(1698931469.004127) can0 471#440050000020
(1698931469.004336) can0 51D#0000000000000000
(1698931469.004586) can0 585#0060382903000005
(1698931469.004948) can0 590#070022008B00338E
(1698931469.005126) can0 592#30C800D351040054
(1698931469.005445) can0 59E#0000000000000000
(1698931469.005602) can0 59F#0000000000080000
(1698931469.005945) can0 200#053B3B3C0B78074D
(1698931469.006161) can0 201#C1000000000000C1
(1698931469.006413) can0 202#7E00000000D801A7
(1698931469.006626) can0 230#0100010000000080
(1698931469.006942) can0 291#00000000FEAEAE00
(1698931469.009849) can0 281#00000100008E0300
(1698931469.010186) can0 100#0C30000000FF3200
(1698931469.010388) can0 111#08C0FFFF00002600
(1698931469.010656) can0 316#783BE4123B0D0057
(1698931469.010918) can0 329#275D0600002F2E00
(1698931469.011175) can0 344#8E03000009048B03
(1698931469.011429) can0 380#270B092200008508
(1698931469.011679) can0 382#0000FF3F106F0000
(1698931469.011893) can0 220#F263800000E20F
(1698931469.012086) can0 153#200010FF00FFD0FE
(1698931469.012335) can0 2A2#0400000000000000
(1698931469.012727) can0 331#0000000000000000
(1698931469.012893) can0 394#0080000000000800
(1698931469.013207) can0 2B0#34F10007B5
(1698931469.015913) can0 200#053A3A3C0B780943
(1698931469.015926) can0 201#0100000000000001
(1698931469.016144) can0 202#1E00000000D401CB
(1698931469.016426) can0 230#0100010000000080
(1698931469.016683) can0 291#00000000FEAEAE00
(1698931469.017484) can0 587#0000000000000004
(1698931469.019977) can0 281#00000100008E0300
(1698931469.020150) can0 100#0C30000000FF3200
(1698931469.020439) can0 111#08C0FFFF00002600
(1698931469.020642) can0 316#783BD8123B0D005A
(1698931469.020928) can0 329#275D0684002F2E00
(1698931469.021114) can0 344#8C03000009048B03
(1698931469.021351) can0 382#0000FF3F106F0000
(1698931469.021687) can0 450#000020
(1698931469.021925) can0 460#25810954000A0000
(1698931469.022161) can0 153#200010FF00FFE00E
(1698931469.022164) can0 220#F283800000E20F
(1698931469.022412) can0 2A2#0500000000000000
(1698931469.022659) can0 331#0000000000000000
(1698931469.022965) can0 386#0000000000000000
(1698931469.023149) can0 462#FE3FFF0F00000000
(1698931469.023443) can0 2B0#35F1000796
(1698931469.023650) can0 471#440040000024
(1698931469.026006) can0 200#053B3B3C0B780B41
(1698931469.026019) can0 201#4100000000000041
(1698931469.026189) can0 202#3E00000000D801E7
(1698931469.026428) can0 230#0100010000000080
(1698931469.026649) can0 291#00000000FEAEAE00
(1698931469.028365) can0 523#6001605072535900
(1698931469.028585) can0 524#51630A0128000000
(1698931469.028943) can0 52D#4D51000000000000
(1698931469.029142) can0 540#D448D8680000F7F5
(1698931469.029980) can0 281#00000100008E0300
(1698931469.030145) can0 100#0C30000000FF3200
(1698931469.030468) can0 111#08C0FFFF00002600
(1698931469.030591) can0 316#783BD8123B0D005A
(1698931469.030925) can0 329#275D0600002F2E00
(1698931469.031179) can0 344#8C03000008048B03
(1698931469.031430) can0 380#260B092200008508
(1698931469.031638) can0 382#0000FF3F106F0000
(1698931469.031923) can0 153#200010FF00FF002E
(1698931469.032177) can0 220#F283800000E20F
(1698931469.032430) can0 2A2#0400000000000000
(1698931469.032638) can0 331#0000000000000000
(1698931469.032888) can0 394#00A0000000000600
(1698931469.033139) can0 490#01001000000000
(1698931469.033387) can0 538#0000000002000000
(1698931469.033638) can0 2B0#34F1000797
(1698931469.033640) can0 56A#00C80001850988CD
(1698931469.033935) can0 584#010000151900484C
(1698931469.035732) can0 200#053B3B3C0B780D47
(1698931469.035887) can0 201#8100000000000081
(1698931469.036172) can0 202#5E00000000D80187
(1698931469.036426) can0 230#0100010000000080
(1698931469.036638) can0 291#00000000FEAEAE00
(1698931469.040173) can0 281#00000100008E0300
(1698931469.040186) can0 100#0C30000000FF3200
(1698931469.040389) can0 111#08C0FFFF00002600
(1698931469.040695) can0 316#783BD0123B0D0052
(1698931469.040895) can0 329#275D0600002F2E00
(1698931469.041196) can0 344#8C03000008048A03
(1698931469.041389) can0 382#0000FF3F106F0000
(1698931469.041694) can0 460#25810854000A0000
(1698931469.041893) can0 220#F063800000E20F
(1698931469.042229) can0 153#200010FF00FF103E
(1698931469.042390) can0 2A2#0500000000000000
(1698931469.042745) can0 331#0000000000000000
(1698931469.042910) can0 386#0000000000000000
(1698931469.042912) can0 450#000000
(1698931469.043140) can0 507#00000001
(1698931469.043428) can0 2B0#33F1000718
(1698931469.043686) can0 549#7E81557D1E225500
(1698931469.043890) can0 462#FE3FFF0F00000000
(1698931469.044179) can0 556#716DD01200290000
(1698931469.044181) can0 471#440050000028
(1698931469.044388) can0 557#74820000351A0200
(1698931469.044638) can0 50E#0000000000000000
(1698931469.044863) can0 560#589C20001800019C
(1698931469.045112) can0 51E#0000000000000000
(1698931469.045362) can0 520#0000000000000000
(1698931469.045702) can0 200#053B3B3C0B780F45
(1698931469.045864) can0 201#C1000000000000C1
(1698931469.046205) can0 202#7E00000000D801A7
(1698931469.046366) can0 230#0100010000000080
(1698931469.046713) can0 291#00000000FEAEAE00
(1698931469.046863) can0 541#0341408000000000
(1698931469.047170) can0 561#3B7461A39100001C
(1698931469.047403) can0 54E#FF00000000FF0000
(1698931469.047655) can0 588#650A000000650000
(1698931469.047910) can0 553#0000000000008000
(1698931469.048154) can0 5AD#B8B94FFF24250000
(1698931469.048402) can0 576#FF1F1FFFFFFFFF0F
(1698931469.048585) can0 5AE#D30065222D000000
(1698931469.048863) can0 577#FFFFFFFFFFFF0F00
(1698931469.049111) can0 5F1#CC10650A00000000
(1698931469.049362) can0 578#000000000000
(1698931469.049698) can0 670#9411E015C4650200
(1698931469.049862) can0 57C#07FFFFFFFFFFFFFF
(1698931469.050201) can0 100#0C30000000FF3200
(1698931469.050363) can0 111#08C0FFFF00002600
(1698931469.050658) can0 281#00000100008E0300
(1698931469.050915) can0 316#783BD0123B0D0052
(1698931469.050917) can0 329#275D0683002F2E00
(1698931469.051113) can0 344#8C03000008048B03
(1698931469.051411) can0 380#260B092200008507
(1698931469.051656) can0 382#0000FF3F106F0000
(1698931469.051834) can0 153#200010FF00FF204E
(1698931469.052169) can0 220#EF23800000E20F
(1698931469.052409) can0 2A2#0400000000000000
(1698931469.052655) can0 331#0000000000000000
(1698931469.052835) can0 394#00C0000000000400
(1698931469.053115) can0 57D#F7FFFFFFFFFFFFFF
(1698931469.053363) can0 2B0#34F1000779
(1698931469.053701) can0 57E#F7FFFFFFFF3F0000
(1698931469.054195) can0 58A#7FFF3FFF3F0F0000
(1698931469.054364) can0 5A8#0000000000000000
(1698931469.054641) can0 5AB#0000000000000000
(1698931469.054913) can0 5DF#045A020000000000
(1698931469.055159) can0 5EC#0000000000000000
(1698931469.055703) can0 200#053B3B3C0B78115B
(1698931469.055866) can0 201#0100000000000001
(1698931469.056193) can0 202#1E00000000D801C7
(1698931469.056364) can0 230#0100010000000080
(1698931469.056705) can0 291#00000000FEAEAE00
(1698931469.059932) can0 281#00000100008E0300
(1698931469.060117) can0 100#0C30000000FF3200
(1698931469.060413) can0 111#08C0FFFF00002600
(1698931469.060657) can0 316#783BD0123B0D0052
(1698931469.060903) can0 329#275D0600002F2E00
(1698931469.061154) can0 344#8B03000009048B03
(1698931469.061409) can0 382#0000FF3F106F0000
(1698931469.061585) can0 450#000000
(1698931469.061834) can0 460#25810854000A0000
(1698931469.062107) can0 153#200010FF00FF305E
(1698931469.062108) can0 220#EFE37F0000E20F
(1698931469.062363) can0 2A2#0500000000000000
(1698931469.062732) can0 331#0000000000000000
(1698931469.062907) can0 386#0000000000000000
(1698931469.063155) can0 462#FE3FFF0F00000000
(1698931469.063403) can0 2B0#33F100073A
(1698931469.063656) can0 471#44005000006C
(1698931469.065704) can0 200#053B3B3C0B781359
(1698931469.065873) can0 201#4100000000000041
(1698931469.066148) can0 202#3E00000000DC01E3
(1698931469.066406) can0 230#0100010000000080
(1698931469.066615) can0 291#00000000FEAEAE00
(1698931469.069918) can0 281#00000100008E0300
(1698931469.070140) can0 100#0C30000000FF3200
(1698931469.070471) can0 111#08C0FFFF00002600
(1698931469.070602) can0 316#783BCC123B0D005D
(1698931469.070944) can0 329#275D0682002F2E00
(1698931469.071145) can0 344#8B03000009048A03
(1698931469.071414) can0 380#260B092200008507
(1698931469.071669) can0 382#0000FF3F106F0000
(1698931469.071941) can0 153#200010FF00FF406E
(1698931469.072164) can0 220#F0E37F0000E20F
(1698931469.072421) can0 2A2#0400000000000000
(1698931469.072661) can0 331#0000000000000000
(1698931469.072893) can0 394#00E0000000000200
(1698931469.073122) can0 56B#366E000000000000
(1698931469.073370) can0 2B0#32F100073B
(1698931469.075747) can0 200#053B3B3C0B78155F
(1698931469.075929) can0 201#8100000000000081
(1698931469.076185) can0 202#5E00000000DC0183
(1698931469.076403) can0 230#0100010000000080
(1698931469.076688) can0 291#00000000FEAEAE00
(1698931469.076904) can0 555#71000000106E8A29
(1698931469.080421) can0 281#00000100008E0300
(1698931469.080434) can0 100#0C30000000FF3200
(1698931469.080668) can0 111#08C0FFFF00002600
(1698931469.080669) can0 316#783BCC123B0D005D
(1698931469.080893) can0 329#275D0600002F2E00
(1698931469.081086) can0 344#8A03000009048A03
(1698931469.081393) can0 382#0000FF3F106F0000
(1698931469.081693) can0 460#25810954000A0000
(1698931469.081915) can0 153#200010FF00FF507E
(1698931469.082174) can0 220#F1E37F0000E20F
(1698931469.082336) can0 2A2#0500000000000000
(1698931469.082586) can0 331#0000000000000000
(1698931469.083109) can0 386#0000000000000000
(1698931469.083123) can0 490#01001000000000
(1698931469.083427) can0 2B0#34F100072C
(1698931469.083643) can0 450#000020
(1698931469.083952) can0 462#FE3FFF0F00000000
(1698931469.083953) can0 471#440050000070
(1698931469.085977) can0 200#053B3B3C0B78175D
(1698931469.085990) can0 201#C1000000000000C1
(1698931469.086151) can0 202#7E00000000DC01A3
(1698931469.086437) can0 230#0100010000000080
(1698931469.086592) can0 291#00000000FEAEAE00
(1698931469.090274) can0 281#00000100008E0300
(1698931469.090287) can0 100#0C30000000FF3200
(1698931469.090389) can0 111#08C0FFFF00002600
(1698931469.090670) can0 316#783CD4123C0D0058
(1698931469.090936) can0 329#275D0600002F2F00
(1698931469.091185) can0 344#8B03000009048A03
(1698931469.091434) can0 380#270B092200008508
(1698931469.091684) can0 382#0000FF3F106F0000
(1698931469.091962) can0 570#004D210820020000
(1698931469.092145) can0 153#200010FF00FF608E
(1698931469.092395) can0 220#F1E37F0000E20F
(1698931469.092644) can0 2A2#0400000000000000
(1698931469.092915) can0 331#0000000000000000
(1698931469.093147) can0 394#0000000000000000
(1698931469.093425) can0 2B0#32F100075D
(1698931469.095859) can0 200#053B3B3C0B781953
(1698931469.095872) can0 201#0100000000000001
(1698931469.096191) can0 202#1E00000000DC01C3
(1698931469.096463) can0 230#0100010000000080
(1698931469.096678) can0 291#00000000FEAEAE00
(1698931469.100197) can0 281#00000100008E0300
(1698931469.100210) can0 100#0C30000000FF3200
(1698931469.100421) can0 111#08C0FFFF00002600
(1698931469.100716) can0 316#783CD4123C0D0058
(1698931469.100921) can0 329#275D0682002F2E00
(1698931469.101214) can0 344#8B03000009048A03
(1698931469.101419) can0 382#0000FF3F106F0000
(1698931469.101701) can0 450#000020
(1698931469.101911) can0 460#25810954000A0000
(1698931469.102190) can0 153#200010FF00FF709E
(1698931469.102193) can0 220#F123800000E20F
(1698931469.102407) can0 2A2#0500000000000000
(1698931469.102635) can0 331#0000000000000000
(1698931469.102857) can0 386#0000000000000000
(1698931469.103106) can0 462#FE3FFF0F00000000
(1698931469.103455) can0 518#00880F00207EE1C2
(1698931469.103667) can0 2B0#33F100077E
(1698931469.103933) can0 51C#0001000000057000
(1698931469.104206) can0 471#440050000074
(1698931469.104416) can0 51D#0000000000000000
(1698931469.104705) can0 585#0060382903000005
(1698931469.104923) can0 590#070022008B00348E
(1698931469.105107) can0 592#30C800D351040094
(1698931469.105356) can0 59E#0000000000000000
(1698931469.105606) can0 59F#0000000000080000
(1698931469.105959) can0 200#053B3B3C0B781B51
(1698931469.106151) can0 201#4100000000000041
(1698931469.106439) can0 202#3E00000000DC01E3
(1698931469.106612) can0 230#0100010000000080
(1698931469.106989) can0 291#00000000FEAEAE00
(1698931469.109991) can0 111#08C0FFFF00002600
(1698931469.110169) can0 100#0C30000000FF3200
(1698931469.110489) can0 281#00000100008E0300
(1698931469.110620) can0 316#783CD4123C0D0058
(1698931469.111004) can0 329#275D0600002F2F00
(1698931469.111174) can0 344#8A03000009048A03
(1698931469.111492) can0 380#260B092200008507
(1698931469.111649) can0 382#0000FF3F106F0000
(1698931469.111972) can0 153#200010FF00FF80AE
(1698931469.112148) can0 220#F163800000E20F
(1698931469.112477) can0 2A2#0400000000000000
(1698931469.112649) can0 331#0000000000000000
(1698931469.112856) can0 394#0020000000000E00
(1698931469.113106) can0 2B0#34F100071F
(1698931469.115747) can0 200#053B3B3C0B781D57
(1698931469.115911) can0 201#8100000000000081
(1698931469.116225) can0 202#5E00000000DC0183
(1698931469.116414) can0 230#0100010000000080
(1698931469.116673) can0 291#00000000FEAEAE00
(1698931469.120011) can0 281#00000100008E0300
(1698931469.120179) can0 100#0C30000000FF3200
(1698931469.120420) can0 111#08C0FFFF00002600
(1698931469.120695) can0 316#783CD4123C0D0058
(1698931469.120950) can0 329#275D0682002F2F00
(1698931469.121198) can0 344#8A03000009038A03
(1698931469.121359) can0 382#0000FF3F106F0000
(1698931469.121687) can0 450#000000
(1698931469.121960) can0 460#25810954000A0000
(1698931469.122109) can0 153#200010FF00FF90BE
(1698931469.122111) can0 220#F1A3800000E20F
(1698931469.122357) can0 2A2#0500000000000000
(1698931469.122606) can0 331#0000000000000000
(1698931469.122962) can0 386#0000000000000000
(1698931469.123187) can0 462#FE3FFF0F00000000
(1698931469.123450) can0 2B0#32F1000780
(1698931469.123693) can0 471#440040000078
(1698931469.125748) can0 200#053B3B3C0B781F55
(1698931469.125909) can0 201#C1000000000000C1
(1698931469.126214) can0 202#7E00000000DC01A3
(1698931469.126430) can0 230#0100010000000080
(1698931469.126607) can0 291#00000000FEAEAE00
(1698931469.128752) can0 523#6001605072535900
(1698931469.128912) can0 524#51630A0128000000
(1698931469.129207) can0 52D#4D51000000000000
(1698931469.129990) can0 281#00000100008E0300
(1698931469.130163) can0 100#0C30000000FF3200
(1698931469.130474) can0 111#08C0FFFF00002600
(1698931469.130607) can0 316#783CD4123C0D0058
(1698931469.131007) can0 329#275D0600002F2F00
(1698931469.131169) can0 344#8A03000009048A03
(1698931469.131497) can0 380#260B092200008507
(1698931469.131657) can0 382#0000FF3F106F0000
(1698931469.132002) can0 490#01001000000000
(1698931469.132210) can0 153#200010FF00FFA0CE
(1698931469.132442) can0 220#F1A3800000E40F
(1698931469.132691) can0 2A2#0400000000000000
(1698931469.132931) can0 331#0000000000000000
(1698931469.133220) can0 394#0040000000000C00
(1698931469.133440) can0 538#0000000002000000
(1698931469.133442) can0 2B0#35F10007E1
(1698931469.133607) can0 56A#00C80001850A88CE
(1698931469.133857) can0 584#0100001519104631
(1698931469.135636) can0 200#053B3B3C0B78014B
(1698931469.135994) can0 201#0100000000000001
(1698931469.136202) can0 202#1E00000000DC01C3
(1698931469.136442) can0 230#0100010000000080
(1698931469.136711) can0 291#00000000FEAEAE00
(1698931469.140221) can0 281#00000100008E0300
(1698931469.140234) can0 100#0C30000000FF3200
(1698931469.140364) can0 111#08C0FFFF00002600
(1698931469.140743) can0 316#783CBC123C0D005E
(1698931469.140955) can0 329#275D0600002F2F00
(1698931469.141186) can0 344#8A03000008048A03
(1698931469.141474) can0 382#0000FF3F106F0000
(1698931469.141689) can0 460#25810854000A0000
(1698931469.141963) can0 450#000000
(1698931469.141964) can0 153#200010FF00FFB0DE
(1698931469.142196) can0 220#F183800000E60F
(1698931469.142357) can0 2A2#0500000000000000
(1698931469.142606) can0 331#0000000000000000
(1698931469.142857) can0 386#0000000000000000
(1698931469.143106) can0 462#FE3FFF0F00000000
(1698931469.143470) can0 507#00000001
(1698931469.143693) can0 2B0#33F10007B2
(1698931469.143938) can0 549#7D81557E1E225500
(1698931469.143939) can0 471#4400500000BC
(1698931469.144195) can0 556#736DBC1200290000
(1698931469.144472) can0 520#0000000000000000
(1698931469.144698) can0 557#7482000035170200
(1698931469.144946) can0 541#0341408000000000
(1698931469.145106) can0 51E#0000000000000000
(1698931469.145356) can0 560#989C20001800019C
(1698931469.145606) can0 561#3B7461AC9300001C
(1698931469.145855) can0 200#053B3B3C0B780349
(1698931469.146220) can0 201#4100000000000041
(1698931469.146439) can0 202#3E00000000DC01E3
(1698931469.146607) can0 230#0100010000000080
(1698931469.146857) can0 291#00000000FEAEAE00
(1698931469.147106) can0 578#000000000000
(1698931469.147356) can0 588#650A000000650000
(1698931469.147605) can0 5AD#B8B957FF24250000
(1698931469.147855) can0 5AE#D30065222D000000
(1698931469.148105) can0 5EC#0000000000000000
(1698931469.148355) can0 5F1#CC10650A00000000
(1698931469.148605) can0 670#9411E015C4650200
(1698931469.149868) can0 281#00000100008E0300
(1698931469.150106) can0 100#0C30000000FF3200
(1698931469.150372) can0 111#08C0FFFF00002600
(1698931469.150605) can0 316#783CBC123C0D005E
(1698931469.150953) can0 329#275D0681002F2F00
(1698931469.151207) can0 344#8A03000008048A03
(1698931469.151416) can0 380#260B092200008507
(1698931469.151716) can0 382#0000FF3F106F0000
(1698931469.151916) can0 220#F143800000E80F
(1698931469.152166) can0 153#200010FF00FFC0EE
(1698931469.152415) can0 2A2#0400000000000000
(1698931469.152645) can0 331#0000000000000000
(1698931469.152889) can0 394#0060000000000A00
(1698931469.153144) can0 2B0#34F10007D3
(1698931469.155742) can0 200#053C3C3C0B78054F
(1698931469.155919) can0 201#8100000000000081
(1698931469.156206) can0 202#5E00000000E001BF
(1698931469.156413) can0 230#0100010000000080
(1698931469.156708) can0 291#00000000FEAEAE00
(1698931469.160197) can0 111#08C0FFFF00002600
(1698931469.160211) can0 100#0C30000000FF3200
(1698931469.160436) can0 281#00000100008E0300
(1698931469.160747) can0 316#783CBC123C0D005E
(1698931469.160905) can0 329#275D0600002F2F00
(1698931469.161265) can0 344#8A03000009048A03
(1698931469.161424) can0 382#0000FF3F106F0000
(1698931469.161717) can0 450#000020
(1698931469.161959) can0 460#25810954000A0000
(1698931469.162208) can0 153#200010FF00FFD0FE
(1698931469.162209) can0 220#F203800000E80F
(1698931469.162393) can0 2A2#0500000000000000
(1698931469.162606) can0 331#0000000000000000
(1698931469.162970) can0 386#0000000000000000
(1698931469.163144) can0 462#FE3FFF0F00000000
(1698931469.163433) can0 2B0#34F10007A4
(1698931469.163685) can0 471#440050000000
(1698931469.165723) can0 200#053B3B3C0B78074D
(1698931469.165940) can0 201#C1000000000000C1
(1698931469.166228) can0 202#7E00000000DC01A3
(1698931469.166417) can0 230#0100010000000080
(1698931469.166657) can0 291#00000000FEAEAE00
(1698931469.170288) can0 281#00000100008E0300
(1698931469.170301) can0 100#0C30000000FF3200
(1698931469.170418) can0 111#08C0FFFF00002600
(1698931469.170698) can0 316#783CA8123C0D0059
(1698931469.170938) can0 329#275D0681002F2F00
(1698931469.171210) can0 344#8A03000009048A03
(1698931469.171422) can0 380#260B092200008507
(1698931469.171711) can0 382#0000FF3F106F0000
(1698931469.171925) can0 56B#366E000000000000
(1698931469.172172) can0 153#200010FF00FFE00E
(1698931469.172417) can0 220#F3E37F0000E80F
(1698931469.172672) can0 2A2#0400000000000000
(1698931469.172926) can0 331#0000000000000000
(1698931469.173191) can0 394#0080000000000800
(1698931469.173193) can0 2B0#35F10007A5
(1698931469.175942) can0 200#053C3C3C0B780943
(1698931469.175956) can0 201#0100000000000001
(1698931469.176178) can0 202#1E00000000E001FF
(1698931469.176453) can0 230#0100010000000080
(1698931469.176675) can0 291#00000000FEAEAE00
(1698931469.176958) can0 555#70000000106E8A29
(1698931469.180201) can0 111#08C0FFFF00002600
(1698931469.180215) can0 100#0C30000000FF3200
(1698931469.180422) can0 281#00000100008E0300
(1698931469.180708) can0 316#783CA8123C0D0059
(1698931469.180926) can0 329#275D0600002F2F00
(1698931469.181170) can0 344#8903000009048A03
(1698931469.181461) can0 382#0000FF3F106F0000
(1698931469.181676) can0 460#25810854000A0000
(1698931469.181961) can0 490#01001000000000
(1698931469.182171) can0 153#200010FF00FF002E
(1698931469.182460) can0 220#F2E37F0000E80F
(1698931469.182677) can0 2A2#0500000000000000
(1698931469.182925) can0 331#0000000000000000
(1698931469.183169) can0 386#0000000000000000
(1698931469.183170) can0 450#000000
(1698931469.183452) can0 2B0#35F1000796
(1698931469.183964) can0 462#FE3FFF0F00000000
(1698931469.183966) can0 471#440050000004
(1698931469.186002) can0 200#053C3C3C0B780B41
(1698931469.186016) can0 201#4100000000000041
(1698931469.186185) can0 202#3E00000000E001DF
(1698931469.186464) can0 230#0100010000000080
(1698931469.186680) can0 291#00000000FEAEAE00
(1698931469.186951) can0 570#004D210820010000
(1698931469.190299) can0 281#00000100008E0300
(1698931469.190312) can0 100#0C30000000FF3200
(1698931469.190420) can0 111#08C0FFFF00002600
(1698931469.190672) can0 316#783C90123C0D0050
(1698931469.190960) can0 329#275D0600002F2F00
(1698931469.191176) can0 344#8A03000009048A03
(1698931469.191460) can0 380#260B092200008507
(1698931469.191676) can0 382#0000FF3F106F0000
(1698931469.191974) can0 220#F123800000E80F
(1698931469.192179) can0 153#200010FF00FF103E
(1698931469.192459) can0 2A2#0400000000000000
(1698931469.192678) can0 331#0000000000000000
(1698931469.192921) can0 394#00A0000000000600
(1698931469.193173) can0 2B0#34F1000797
(1698931469.195698) can0 200#053C3C3C0B780D47
(1698931469.195965) can0 201#8100000000000081
(1698931469.196119) can0 202#5E00000000E001BF
(1698931469.196445) can0 230#0100010000000080
(1698931469.196710) can0 291#00000000FEAEAE00
(1698931469.200197) can0 111#08C0FFFF00002600
(1698931469.200210) can0 100#0C30000000FF3200
(1698931469.200427) can0 281#00000100008E0300
(1698931469.200743) can0 316#783C90123C0D0050
(1698931469.200923) can0 329#275D0681002F2F00
(1698931469.201218) can0 344#8A03000009048A03
(1698931469.201421) can0 382#0000FF3F106F0000
(1698931469.201716) can0 450#000020
(1698931469.201951) can0 460#25810854000A0000
(1698931469.202233) can0 153#200010FF00FF204E
(1698931469.202234) can0 220#F163800000E80F
(1698931469.202424) can0 2A2#0500000000000000
(1698931469.202704) can0 331#0000000000000000
(1698931469.202928) can0 386#0000000000000000
(1698931469.203211) can0 462#FE3FFF0F00000000
(1698931469.203421) can0 518#008C0F0020BED5C2
(1698931469.203708) can0 2B0#35F1000778
(1698931469.203921) can0 51C#0004000000057000
(1698931469.204172) can0 471#440050000008
(1698931469.204428) can0 51D#0000000000000000
(1698931469.204672) can0 585#0060382903000005
(1698931469.204895) can0 590#070022008B00338E
(1698931469.205225) can0 592#30C800D3510400D4
(1698931469.205398) can0 59E#0000000000000000
(1698931469.205723) can0 59F#0000000000080000
(1698931469.205897) can0 200#053C3C3C0B780F45
(1698931469.206218) can0 201#C1000000000000C1
(1698931469.206400) can0 202#7E00000000E4019B
(1698931469.206669) can0 230#0100010000000080
(1698931469.206973) can0 291#00000000FEAEAE00
(1698931469.210002) can0 281#00000100008E0300
(1698931469.210195) can0 100#0C30000000FF3200
(1698931469.210424) can0 111#08C0FFFF00002600
