(1699183061.932935) can0 577#FFFFFFFFFFFF0F00
(1699183061.933182) can0 2B0#47FF000726
(1699183061.933436) can0 200#0000002D08780954
(1699183061.933684) can0 201#0100000000000001
(1699183061.933925) can0 202#1E0000000000001E
(1699183061.934203) can0 230#0100010000000080
(1699183061.934444) can0 111#08C0FFFF00001D00
(1699183061.934684) can0 100#0C30000000FF3200
(1699183061.934685) can0 578#000000000000
(1699183061.935176) can0 57C#07FFFFFFFFFFFFFF
(1699183061.935506) can0 57D#F7FFFFFFFFFFFFFF
(1699183061.935738) can0 57E#F7FFFFFFFF3F0000
(1699183061.935923) can0 58A#7FFF3FFF3F0F0000
(1699183061.936175) can0 5A8#0000000000000000
(1699183061.936418) can0 5AB#0000000000000000
(1699183061.936814) can0 5DF#045A020000000000
(1699183061.936990) can0 5EC#0000000000000000
(1699183061.937319) can0 460#258A0654000A0000
(1699183061.937787) can0 220#FFE37F0000DD0F
(1699183061.937984) can0 153#200010FF00FFA0CE
(1699183061.938278) can0 2A2#0500000000000000
(1699183061.938487) can0 331#0000000000000000
(1699183061.938754) can0 344#0000000000009403
(1699183061.938922) can0 281#0000010000000000
(1699183061.939168) can0 316#78000000000D0026
(1699183061.939418) can0 329#205B0600002F0000
(1699183061.939766) can0 382#0000FF3F106F0000
(1699183061.939954) can0 394#0040000000000C00
(1699183061.940172) can0 490#01001000000000
(1699183061.940478) can0 291#00000000FEAEAE00
(1699183061.941984) can0 570#004C21081D010000
(1699183061.942703) can0 2B0#47FF000737
(1699183061.943426) can0 200#0000002D08780B56
(1699183061.943678) can0 201#4100000000000041
(1699183061.943929) can0 202#3E0000000000003E
(1699183061.944196) can0 230#0100010000000080
(1699183061.944425) can0 111#08C0FFFF00001D00
(1699183061.944684) can0 100#0C30000000FF3200
(1699183061.947313) can0 380#1D0B091C00008506
(1699183061.947828) can0 220#FFE37F0000DD0F
(1699183061.947973) can0 153#200010FF00FFB0DE
(1699183061.948174) can0 2A2#0400000000000000
(1699183061.948511) can0 331#0000000000000000
(1699183061.948771) can0 344#0000000000009403
(1699183061.949016) can0 281#0000010000000000
(1699183061.949270) can0 316#78000000000D0026
(1699183061.949519) can0 329#205B0600002F0000
(1699183061.949675) can0 382#0000FF3F106F0000
(1699183061.949916) can0 386#0000000000000000
(1699183061.950172) can0 291#00000000FEAEAE00
(1699183061.950415) can0 450#000000
(1699183061.950712) can0 462#FE3FFF0F00000000
(1699183061.950915) can0 538#0000000002000000
(1699183061.951180) can0 044#0000108679000000
(1699183061.951418) can0 471#440050000024
(1699183061.951677) can0 56A#00C80001840C88C9
(1699183061.951919) can0 5C3#0000000080000000
(1699183061.952176) can0 5C4#00FF00FF00000000
(1699183061.952678) can0 523#6001604F61505800
(1699183061.952923) can0 524#5050080128000000
(1699183061.953243) can0 52D#4C50000000000000
(1699183061.953433) can0 200#0000002D08780D50
(1699183061.953683) can0 201#8100000000000081
(1699183061.954005) can0 202#5E0000000000005E
(1699183061.954260) can0 230#0100010000000080
(1699183061.954262) can0 2B0#49FF000728
(1699183061.954456) can0 100#0C30000000FF3200
(1699183061.954730) can0 111#08C0FFFF00001D00
(1699183061.954996) can0 540#DF48DB4800000000
(1699183061.957252) can0 460#258A0754000A0000
(1699183061.957723) can0 220#FFE37F0000DD0F
(1699183061.957953) can0 153#200010FF00FFC0EE
(1699183061.958172) can0 2A2#0500000000000000
(1699183061.958415) can0 331#0000000000000000
(1699183061.958673) can0 281#0000010000000000
(1699183061.958940) can0 316#78000000000D0026
(1699183061.959172) can0 329#205B0600002F0000
(1699183061.959415) can0 344#0000000000009403
(1699183061.959673) can0 382#0000FF3F106F0000
(1699183061.959940) can0 394#0060000000000A00
(1699183061.960172) can0 291#00000000FEAEAE00
(1699183061.962684) can0 2B0#47FF0007D9
(1699183061.963487) can0 200#0000002D08780F52
(1699183061.963784) can0 201#C1000000000000C1
(1699183061.963980) can0 202#7E0000000000007E
(1699183061.964171) can0 230#0100010000000080
(1699183061.964428) can0 111#08C0FFFF00001D00
(1699183061.964689) can0 100#0C30000000FF3200
(1699183061.965978) can0 584#010000151920344B
(1699183061.967251) can0 380#1D0B091C00008506
(1699183061.967754) can0 220#FFE37F0000E00F
(1699183061.967951) can0 153#200010FF00FFD0FE
(1699183061.968183) can0 2A2#0400000000000000
(1699183061.968509) can0 331#0000000000000000
(1699183061.968747) can0 281#0000010000000000
(1699183061.968980) can0 316#78000000000D0026
(1699183061.969270) can0 329#205B0600002F0000
(1699183061.969458) can0 344#0000000000009403
(1699183061.969747) can0 382#0000FF3F106F0000
(1699183061.969979) can0 386#0000000000000000
(1699183061.970246) can0 507#00000001
(1699183061.970248) can0 291#00000000FEAEAE00
(1699183061.970455) can0 450#000020
(1699183061.970665) can0 462#FE3FFF0F00000000
(1699183061.970946) can0 471#440050000028
(1699183061.973268) can0 2B0#49FF00070A
(1699183061.973530) can0 200#0000002D0878114C
(1699183061.973774) can0 201#0100000000000001
(1699183061.974028) can0 202#1E0000000000001E
(1699183061.974269) can0 230#0100010000000080
(1699183061.974524) can0 111#08C0FFFF00001D00
(1699183061.974769) can0 100#0C30000000FF3200
(1699183061.977258) can0 460#258A0754000A0000
(1699183061.977710) can0 220#FFE37F0000E00F
(1699183061.977998) can0 153#200010FF00FFE00E
(1699183061.978248) can0 2A2#0500000000000000
(1699183061.978506) can0 331#0000000000000000
(1699183061.978763) can0 344#0000000000009403
(1699183061.978958) can0 281#0000010000000000
(1699183061.979251) can0 316#78000000000D0026
(1699183061.979486) can0 329#205B0600002F0000
(1699183061.979713) can0 382#0000FF3F106F0000
(1699183061.979945) can0 394#0080000000000800
(1699183061.980213) can0 291#00000000FEAEAE00
(1699183061.982807) can0 2B0#47FF0007FB
(1699183061.983660) can0 200#0000002D0878134E
(1699183061.983737) can0 201#4100000000000041
(1699183061.984044) can0 202#3E0000000000003E
(1699183061.984198) can0 230#0100010000000080
(1699183061.984707) can0 111#08C0FFFF00001D00
(1699183061.984720) can0 100#0C30000000FF3200
(1699183061.987526) can0 380#1E0B091C00008406
(1699183061.987736) can0 220#FFE37F0000E00F
(1699183061.988063) can0 153#200010FF00FF002E
(1699183061.988194) can0 2A2#0400000000000000
(1699183061.988699) can0 331#0000000000000000
(1699183061.988712) can0 281#0000010000000000
(1699183061.989017) can0 316#78000000000D0026
(1699183061.989291) can0 329#205B0600002F0000
(1699183061.989547) can0 344#0000000000009403
(1699183061.989749) can0 382#0000FF3F106F0000
(1699183061.990023) can0 386#0000000000000000
(1699183061.990290) can0 490#01001000000000
(1699183061.990451) can0 291#00000000FEAEAE00
(1699183061.990452) can0 450#000020
(1699183061.990972) can0 462#FE3FFF0F00000000
(1699183061.990973) can0 471#44005000006C
(1699183061.993203) can0 2B0#47FF00078C
(1699183061.993534) can0 200#0000002D08781548
(1699183061.993778) can0 201#8100000000000081
(1699183061.994036) can0 202#5E0000000000005E
(1699183061.994277) can0 230#0100010000000080
(1699183061.994536) can0 111#08C0FFFF00001D00
(1699183061.994778) can0 100#0C30000000FF3200
(1699183061.997257) can0 460#258A0654000A0000
(1699183061.997725) can0 220#FFE37F0000E00F
(1699183061.998079) can0 153#200010FF00FF103E
(1699183061.998246) can0 2A2#0500000000000000
(1699183061.998533) can0 331#0000000000000000
(1699183061.998778) can0 281#0000010000000000
(1699183061.999014) can0 316#78000000000D0026
(1699183061.999278) can0 329#205B0600002F0000
(1699183061.999538) can0 344#0000000000009403
(1699183061.999777) can0 382#0000FF3F106F0000
(1699183061.999923) can0 394#00A0000000000600
(1699183062.000191) can0 549#3B805410E2205400
(1699183062.000555) can0 291#00000000FEAEAE00
(1699183062.000759) can0 556#0074000000290000
(1699183062.000941) can0 557#808000005A950000
(1699183062.001199) can0 560#D8A62025180B019C
(1699183062.001200) can0 561#40636073431F003D
(1699183062.002795) can0 2B0#47FF00079D
(1699183062.003669) can0 200#0000002D0878174A
(1699183062.003707) can0 201#C1000000000000C1
(1699183062.004039) can0 202#7E0000000000007E
(1699183062.004241) can0 230#0100010000000080
(1699183062.004554) can0 111#08C0FFFF00001D00
(1699183062.004741) can0 100#0C30000000FF3200
(1699183062.005220) can0 56B#365E000000000000
(1699183062.007558) can0 380#1D0B091C00008405
(1699183062.007750) can0 220#FFE37F0000E00F
(1699183062.007999) can0 153#200010FF00FF204E
(1699183062.008280) can0 2A2#0400000000000000
(1699183062.008544) can0 331#0000000000000000
(1699183062.008753) can0 281#0000010000000000
(1699183062.009048) can0 316#78000000000D0026
(1699183062.009253) can0 329#205B0600002F0000
(1699183062.009553) can0 344#0000000000009403
(1699183062.009752) can0 382#0000FF3F106F0000
(1699183062.010032) can0 386#0000000000000000
(1699183062.010290) can0 450#000000
(1699183062.010510) can0 291#00000000FEAEAE00
(1699183062.010750) can0 462#FE3FFF0F00000000
(1699183062.011008) can0 471#440050000070
(1699183062.013454) can0 2B0#49FF00074E
(1699183062.013467) can0 200#0000002D08781944
(1699183062.013792) can0 201#0100000000000001
(1699183062.014047) can0 202#1E0000000000001E
(1699183062.014252) can0 230#0100010000000080
(1699183062.014549) can0 111#08C0FFFF00001D00
(1699183062.014749) can0 100#0C30000000FF3200
(1699183062.015040) can0 587#0000000000000006
(1699183062.015292) can0 51E#0000000000000000
(1699183062.015510) can0 588#5A0A000000670000
(1699183062.015750) can0 5AD#B7B810001E1F0000
(1699183062.016008) can0 5AE#3800671D2E000000
(1699183062.016335) can0 5F1#CC105A0A00000000
(1699183062.016549) can0 670#9411E015C4670200
(1699183062.017464) can0 460#258A0654000A0000
(1699183062.017785) can0 220#FFE37F0000E10F
(1699183062.018042) can0 153#200010FF00FF305E
(1699183062.018299) can0 2A2#0500000000000000
(1699183062.018511) can0 331#0000000000000000
(1699183062.018791) can0 281#0000010000000000
(1699183062.019046) can0 316#78000000000D0026
(1699183062.019252) can0 329#205B0600002F0000
(1699183062.019508) can0 344#0000000000009403
(1699183062.019730) can0 382#0000FF3F106F0000
(1699183062.019986) can0 394#00C0000000000400
(1699183062.020322) can0 291#00000000FEAEAE00
(1699183062.021076) can0 592#30C890D351040084
(1699183062.021236) can0 518#00000000000000C0
(1699183062.021488) can0 51C#0000000000007000
(1699183062.021727) can0 51D#0000000000000000
(1699183062.021987) can0 585#0060332C05000005
(1699183062.022230) can0 590#070016009500248D
(1699183062.022517) can0 59E#0000000000000000
(1699183062.022769) can0 59F#0000000000080000
(1699183062.023028) can0 2B0#46FF0007AF
(1699183062.023520) can0 200#0000002D08781B46
(1699183062.023732) can0 201#4100000000000041
(1699183062.023988) can0 202#3E0000000000003E
(1699183062.024297) can0 230#0100010000000080
(1699183062.024518) can0 111#08C0FFFF00001D00
(1699183062.024770) can0 100#0C30000000FF3200
(1699183062.027325) can0 380#1E0B091C00008405
(1699183062.027788) can0 220#FFE37F0000E40F
(1699183062.028022) can0 153#200010FF00FF406E
(1699183062.028235) can0 2A2#0400000000000000
(1699183062.028521) can0 331#0000000000000000
(1699183062.028773) can0 281#0000010000000000
(1699183062.029029) can0 316#78000000000D0026
(1699183062.029274) can0 329#205B0600002F0000
(1699183062.029529) can0 344#0000000000009403
(1699183062.029769) can0 382#0000FF3F106F0000
(1699183062.029988) can0 386#0000000000000000
(1699183062.030230) can0 291#00000000FEAEAE00
(1699183062.030488) can0 450#000000
(1699183062.030726) can0 462#FE3FFF0F00000000
(1699183062.030983) can0 471#440040000074
(1699183062.031320) can0 520#0000000000000000
(1699183062.031488) can0 541#0340400000000000
(1699183062.031757) can0 578#000000000000
(1699183062.032018) can0 5EC#0000000000000000
(1699183062.033078) can0 2B0#48FF0007B0
(1699183062.033527) can0 200#0000002D08781D40
(1699183062.033778) can0 201#8100000000000081
(1699183062.034026) can0 202#5E0000000000005E
(1699183062.034272) can0 230#0100010000000080
(1699183062.034458) can0 111#08C0FFFF00001D00
(1699183062.034706) can0 100#0C30000000FF3200
(1699183062.037221) can0 460#258A0654000A0000
(1699183062.037454) can0 570#004B21081D010000
(1699183062.037705) can0 153#200010FF00FF507E
(1699183062.037968) can0 220#FFE37F0000E60F
(1699183062.038204) can0 2A2#0500000000000000
(1699183062.038461) can0 331#0000000000000000
(1699183062.038700) can0 344#0000000000009403
(1699183062.038949) can0 281#0000010000000000
(1699183062.039202) can0 316#78000000000D0026
(1699183062.039463) can0 329#205B0600002F0000
(1699183062.039706) can0 382#0000FF3F106F0000
(1699183062.039952) can0 394#00E0000000000200
(1699183062.040192) can0 490#01001000000000
(1699183062.040509) can0 291#00000000FEAEAE00
(1699183062.042760) can0 2B0#48FF0007A1
(1699183062.043507) can0 200#0000002D08781F42
(1699183062.043750) can0 201#C1000000000000C1
(1699183062.044008) can0 202#7E0000000000007E
(1699183062.044198) can0 230#0100010000000080
(1699183062.044508) can0 111#08C0FFFF00001D00
(1699183062.044750) can0 100#0C30000000FF3200
(1699183062.047261) can0 380#1D0B091C00008405
(1699183062.047759) can0 220#FFE37F0000E80F
(1699183062.047953) can0 153#200010FF00FF608E
(1699183062.048210) can0 2A2#0400000000000000
(1699183062.048479) can0 331#0000000000000000
(1699183062.048705) can0 281#0000010000000000
(1699183062.049010) can0 316#78000000000D0026
(1699183062.049252) can0 329#205B0600002F0000
(1699183062.049461) can0 344#0000000000009403
(1699183062.049722) can0 382#0000FF3F106F0000
(1699183062.049963) can0 386#0000000000000000
(1699183062.050248) can0 450#000020
(1699183062.050480) can0 291#00000000FEAEAE00
(1699183062.050760) can0 462#FE3FFF0F00000000
(1699183062.050963) can0 538#0000000002000000
(1699183062.051206) can0 471#440050000078
(1699183062.051508) can0 56A#00C80001840D88C8
(1699183062.052759) can0 523#6001604F61505800
(1699183062.053004) can0 524#5050080128000000
(1699183062.053210) can0 52D#4C50000000000000
(1699183062.053473) can0 200#0000002D0878015C
(1699183062.053753) can0 201#0100000000000001
(1699183062.054008) can0 202#1E0000000000001E
(1699183062.054251) can0 230#0100010000000080
(1699183062.054508) can0 111#08C0FFFF00001D00
(1699183062.054750) can0 100#0C30000000FF3200
(1699183062.055007) can0 2B0#46FF000772
(1699183062.057258) can0 460#258A0754000A0000
(1699183062.057701) can0 220#FFE37F0000E80F
(1699183062.058001) can0 153#200010FF00FF709E
(1699183062.058211) can0 2A2#0500000000000000
(1699183062.058462) can0 331#0000000000000000
(1699183062.058697) can0 281#0000010000000000
(1699183062.058952) can0 316#78000000000D0026
(1699183062.059197) can0 329#205B0600002F0000
(1699183062.059456) can0 344#0000000000009403
(1699183062.059694) can0 382#0000FF3F106F0000
(1699183062.059951) can0 394#0000000000000000
(1699183062.060459) can0 291#00000000FEAEAE00
(1699183062.062713) can0 2B0#46FF000763
(1699183062.063462) can0 200#0000002D0878035E
(1699183062.063707) can0 201#4100000000000041
(1699183062.063954) can0 202#3E0000000000003E
(1699183062.064192) can0 230#0100010000000080
(1699183062.064459) can0 111#08C0FFFF00001D00
(1699183062.064701) can0 100#0C30000000FF3200
(1699183062.065957) can0 584#0100001519304146
(1699183062.067208) can0 380#1E0B091C00008506
(1699183062.067708) can0 220#FFE37F0000E50F
(1699183062.067950) can0 153#200010FF00FF80AE
(1699183062.068206) can0 2A2#0400000000000000
(1699183062.068450) can0 331#0000000000000000
(1699183062.068698) can0 281#0000010000000000
(1699183062.068956) can0 316#78000000000D0026
(1699183062.069197) can0 329#205B0600002F0000
(1699183062.069450) can0 344#0000000000009403
(1699183062.069734) can0 382#0000FF3F106F0000
(1699183062.069977) can0 386#0000000000000000
(1699183062.069978) can0 507#00000001
(1699183062.070485) can0 291#00000000FEAEAE00
(1699183062.070485) can0 450#000020
(1699183062.070721) can0 462#FE3FFF0F00000000
(1699183062.070978) can0 471#4400500000BC
(1699183062.073237) can0 2B0#49FF0007E4
(1699183062.073495) can0 200#0000002D08780558
(1699183062.073738) can0 201#8100000000000081
(1699183062.074001) can0 202#5E0000000000005E
(1699183062.074237) can0 230#0100010000000080
(1699183062.074495) can0 100#0C30000000FF3200
(1699183062.074739) can0 111#08C0FFFF00001D00
(1699183062.077214) can0 460#258A0754000A0000
(1699183062.077708) can0 220#FFE37F0000E50F
(1699183062.077947) can0 153#200010FF00FF90BE
(1699183062.078207) can0 2A2#0500000000000000
(1699183062.078458) can0 331#0000000000000000
(1699183062.078699) can0 281#0000010000000000
(1699183062.078950) can0 316#78000000000D0026
(1699183062.079193) can0 329#205B0600002F0000
(1699183062.079451) can0 344#0000000000009403
(1699183062.079701) can0 382#0000FF3F106F0000
(1699183062.079953) can0 394#0020000000000E00
(1699183062.080457) can0 291#00000000FEAEAE00
(1699183062.082703) can0 2B0#48FF0007E5
(1699183062.083463) can0 200#0000002D0878075A
(1699183062.083464) can0 201#C1000000000000C1
(1699183062.083743) can0 202#7E0000000000007E
(1699183062.083982) can0 230#0100010000000080
(1699183062.084503) can0 111#08C0FFFF00001D00
(1699183062.084737) can0 100#0C30000000FF3200
(1699183062.087297) can0 380#1E0B091C00008506
(1699183062.087795) can0 220#FFE37F0000E50F
(1699183062.088016) can0 153#200010FF00FFA0CE
(1699183062.088195) can0 2A2#0400000000000000
(1699183062.088499) can0 331#0000000000000000
(1699183062.088760) can0 281#0000010000000000
(1699183062.089028) can0 316#78000000000D0026
(1699183062.089287) can0 329#205B0600002F0000
(1699183062.089535) can0 344#0000000000009403
(1699183062.089773) can0 382#0000FF3F106F0000
(1699183062.090029) can0 386#0000000000000000
(1699183062.090277) can0 490#01001000000000
(1699183062.090493) can0 291#00000000FEAEAE00
(1699183062.090494) can0 450#000000
(1699183062.090741) can0 462#FE3FFF0F00000000
(1699183062.090993) can0 471#440050000000
(1699183062.093317) can0 2B0#46FF000736
(1699183062.093516) can0 200#0000002D08780954
(1699183062.093775) can0 201#0100000000000001
(1699183062.094025) can0 202#1E0000000000001E
(1699183062.094286) can0 230#0100010000000080
(1699183062.094518) can0 100#0C30000000FF3200
(1699183062.094755) can0 111#08C0FFFF00001D00
(1699183062.097312) can0 460#258A0654000A0000
(1699183062.097699) can0 220#FEE37F0000E50F
(1699183062.097989) can0 153#200010FF00FFB0DE
(1699183062.098273) can0 2A2#0500000000000000
(1699183062.098538) can0 331#0000000000000000
(1699183062.098807) can0 281#0000010000000000
(1699183062.099017) can0 316#78000000000D0026
(1699183062.099265) can0 329#205B0600002F0000
(1699183062.099564) can0 344#0000000000009403
(1699183062.099782) can0 382#0000FF3F106F0000
(1699183062.099982) can0 394#0040000000000C00
(1699183062.100188) can0 549#3B805414E2205400
(1699183062.100555) can0 291#00000000FEAEAE00
(1699183062.100783) can0 556#0074000000290000
(1699183062.101047) can0 557#808000005A930000
(1699183062.101288) can0 560#18A62025180B019C
(1699183062.101548) can0 561#40636073431F003D
(1699183062.101549) can0 5A0#000000002500A502
(1699183062.102750) can0 2B0#46FF000727
(1699183062.103239) can0 200#0000002D08780B56
(1699183062.103523) can0 201#4100000000000041
(1699183062.103736) can0 202#3E0000000000003E
(1699183062.103991) can0 230#0100010000000080
(1699183062.104543) can0 111#08C0FFFF00001D00
(1699183062.104784) can0 100#0C30000000FF3200
(1699183062.105033) can0 56B#365E000000000000
(1699183062.107321) can0 380#1D0B091C00008505
(1699183062.107826) can0 220#FFE37F0000E50F
(1699183062.108041) can0 153#200010FF00FFC0EE
(1699183062.108195) can0 2A2#0400000000000000
(1699183062.108551) can0 331#0000000000000000
(1699183062.108787) can0 281#0000010000000000
(1699183062.109026) can0 316#78000000000D0026
(1699183062.109269) can0 329#205B0600002F0000
(1699183062.109532) can0 344#0000000000009403
(1699183062.109770) can0 382#0000FF3F106F0000
(1699183062.110026) can0 386#0000000000000000
(1699183062.110246) can0 450#000020
(1699183062.110482) can0 291#00000000FEAEAE00
(1699183062.110720) can0 462#FE3FFF0F00000000
(1699183062.110978) can0 471#440050000004
(1699183062.113320) can0 2B0#48FF000738
(1699183062.113542) can0 200#0000002D08780D50
(1699183062.113785) can0 201#8100000000000081
(1699183062.114025) can0 202#5E0000000000005E
(1699183062.114278) can0 230#0100010000000080
(1699183062.114517) can0 111#08C0FFFF00001D00
(1699183062.114774) can0 100#0C30000000FF3200
(1699183062.114945) can0 670#9411E015C4670200
(1699183062.115229) can0 51E#0000000000000000
(1699183062.115482) can0 588#5A0A000000670000
(1699183062.115749) can0 5AD#B7B810001E1F0000
(1699183062.116099) can0 5AE#3800671D2E000000
(1699183062.116214) can0 5F1#CC105A0A00000000
(1699183062.117496) can0 460#258A0654000A0000
(1699183062.117772) can0 220#FFE37F0000E50F
(1699183062.118067) can0 153#200010FF00FFD0FE
(1699183062.118287) can0 2A2#0500000000000000
(1699183062.118502) can0 331#0000000000000000
(1699183062.118816) can0 281#0000010000000000
(1699183062.119005) can0 316#78000000000D0026
(1699183062.119315) can0 329#205B0600002F0000
(1699183062.119485) can0 344#0000000000009403
(1699183062.119792) can0 382#0000FF3F106F0000
(1699183062.120013) can0 394#0060000000000A00
(1699183062.120533) can0 291#00000000FEAEAE00
(1699183062.121120) can0 592#30C890D3510400C4
(1699183062.121255) can0 518#00000000000000C0
(1699183062.121461) can0 51C#0000000000007000
(1699183062.121805) can0 51D#0000000000000000
(1699183062.121990) can0 585#0060332C05000005
(1699183062.122314) can0 590#070016009400248D
(1699183062.122495) can0 59E#0000000000000000
(1699183062.122809) can0 59F#0000000000080000
(1699183062.122972) can0 2B0#48FF000729
(1699183062.123318) can0 200#0000002D08780F52
(1699183062.123474) can0 201#C1000000000000C1
(1699183062.123784) can0 202#7E0000000000007E
(1699183062.124013) can0 230#0100010000000080
(1699183062.124520) can0 111#08C0FFFF00001D00
(1699183062.124765) can0 100#0C30000000FF3200
(1699183062.127279) can0 380#1E0B091C00008405
(1699183062.127909) can0 220#FFE37F0000E50F
(1699183062.128025) can0 153#200010FF00FFE00E
(1699183062.128327) can0 2A2#0400000000000000
(1699183062.128499) can0 331#0000000000000000
(1699183062.128800) can0 281#0000010000000000
(1699183062.128997) can0 316#78000000000D0026
(1699183062.129317) can0 329#205B0600002F0000
(1699183062.129498) can0 344#0000000000009403
(1699183062.129808) can0 382#0000FF3F106F0000
(1699183062.129998) can0 386#0000000000000000
(1699183062.130537) can0 291#00000000FEAEAE00
(1699183062.130538) can0 450#000000
(1699183062.130805) can0 462#FE3FFF0F00000000
(1699183062.130983) can0 471#440040000008
(1699183062.131279) can0 50E#0000000000000000
(1699183062.131528) can0 520#0000000000000000
(1699183062.132080) can0 541#0340400000000000
(1699183062.132221) can0 54E#FF00000000FF0000
(1699183062.132536) can0 553#0000000000008000
(1699183062.132778) can0 576#FF1F1FFFFFFFFF0F
(1699183062.133010) can0 577#FFFFFFFFFFFF0F00
(1699183062.133281) can0 570#004C21081D010000
(1699183062.133518) can0 200#0000002D0878114C
(1699183062.133715) can0 201#0100000000000001
(1699183062.133947) can0 202#1E0000000000001E
(1699183062.134329) can0 230#0100010000000080
(1699183062.134330) can0 2B0#48FF00071A
(1699183062.134475) can0 100#0C30000000FF3200
(1699183062.134715) can0 111#08C0FFFF00001D00
(1699183062.134947) can0 578#000000000000
(1699183062.135215) can0 57C#07FFFFFFFFFFFFFF
(1699183062.135815) can0 57D#F7FFFFFFFFFFFFFF
(1699183062.136028) can0 57E#F7FFFFFFFF3F0000
(1699183062.136197) can0 58A#7FFF3FFF3F0F0000
(1699183062.136525) can0 5A8#0000000000000000
(1699183062.136799) can0 5AB#0000000000000000
(1699183062.137036) can0 5DF#045A020000000000
(1699183062.137305) can0 460#258A0654000A0000
(1699183062.137528) can0 5EC#0000000000000000
(1699183062.137803) can0 220#FFE37F0000E50F
(1699183062.138035) can0 153#200010FF00FF002E
(1699183062.138268) can0 2A2#0500000000000000
(1699183062.138477) can0 331#0000000000000000
(1699183062.138835) can0 344#0000000000009403
(1699183062.138997) can0 281#0000010000000000
(1699183062.139333) can0 316#78000000000D0026
(1699183062.139515) can0 329#205B0600002F0000
(1699183062.139818) can0 382#0000FF3F106F0000
(1699183062.140029) can0 394#0080000000000800
(1699183062.140287) can0 490#01001000000000
(1699183062.140520) can0 291#00000000FEAEAE00
(1699183062.140805) can0 5E3#0000000000000000
(1699183062.142813) can0 2B0#49FF00071B
(1699183062.143325) can0 200#0000002D0878134E
(1699183062.143506) can0 201#4100000000000041
(1699183062.143803) can0 202#3E0000000000003E
(1699183062.144044) can0 230#0100010000000080
(1699183062.144520) can0 111#08C0FFFF00001D00
(1699183062.144818) can0 100#0C30000000FF3200
(1699183062.147337) can0 380#1D0B091C00008405
(1699183062.147827) can0 220#FFE37F0000E50F
(1699183062.148031) can0 153#200010FF00FF103E
(1699183062.148243) can0 2A2#0400000000000000
(1699183062.148523) can0 331#0000000000000000
(1699183062.148787) can0 281#0000010000000000
(1699183062.149030) can0 316#78000000000D0026
(1699183062.149293) can0 329#205B0600002F0000
(1699183062.149509) can0 344#0000000000009403
(1699183062.149813) can0 382#0000FF3F106F0000
(1699183062.150025) can0 386#0000000000000000
(1699183062.150264) can0 450#000000
(1699183062.150487) can0 291#00000000FEAEAE00
(1699183062.150753) can0 462#FE3FFF0F00000000
(1699183062.151009) can0 538#0000000002000000
(1699183062.151339) can0 471#44005000004C
(1699183062.151340) can0 56A#00C80001840E88CB
(1699183062.152820) can0 523#6001604F61505800
(1699183062.153029) can0 524#5050080128000000
(1699183062.153307) can0 2B0#48FF00077C
(1699183062.153499) can0 200#0000002D08781548
(1699183062.153843) can0 201#8100000000000081
(1699183062.154041) can0 202#5E0000000000005E
(1699183062.154276) can0 230#0100010000000080
(1699183062.154513) can0 100#0C30000000FF3200
(1699183062.154715) can0 111#08C0FFFF00001D00
(1699183062.154972) can0 52D#4C50000000000000
(1699183062.155328) can0 540#CD48DA4800000000
(1699183062.157340) can0 460#258A0754000A0000
(1699183062.157816) can0 220#FEE37F0000E50F
(1699183062.158022) can0 153#200010FF00FF204E
(1699183062.158302) can0 2A2#0500000000000000
(1699183062.158541) can0 331#0000000000000000
(1699183062.158778) can0 281#0000010000000000
(1699183062.159040) can0 316#78000000000D0026
(1699183062.159287) can0 329#205B0600002F0000
(1699183062.159473) can0 344#0000000000009403
(1699183062.159715) can0 382#0000FF3F106F0000
(1699183062.159972) can0 394#00A0000000000600
(1699183062.160520) can0 291#00000000FEAEAE00
(1699183062.162852) can0 2B0#48FF00076D
(1699183062.163342) can0 200#0000002D0878174A
(1699183062.163513) can0 201#C1000000000000C1
(1699183062.163785) can0 202#7E0000000000007E
(1699183062.164038) can0 230#0100010000000080
(1699183062.164569) can0 111#08C0FFFF00001D00
(1699183062.164755) can0 100#0C30000000FF3200
(1699183062.166100) can0 584#0100001519404D33
(1699183062.167350) can0 380#1E0B091C00008406
(1699183062.167849) can0 220#FDE37F0000E50F
(1699183062.168007) can0 153#200010FF00FF305E
(1699183062.168368) can0 2A2#0400000000000000
(1699183062.168520) can0 331#0000000000000000
(1699183062.168842) can0 281#0000010000000000
(1699183062.169004) can0 316#78000000000D0026
(1699183062.169344) can0 329#205B0600002F0000
(1699183062.169513) can0 344#0000000000009403
(1699183062.169837) can0 382#0000FF3F106F0000
(1699183062.170005) can0 386#0000000000000000
(1699183062.170347) can0 507#00000001
(1699183062.170348) can0 450#000020
(1699183062.170515) can0 291#00000000FEAEAE00
(1699183062.170841) can0 462#FE3FFF0F00000000
(1699183062.171005) can0 471#440050000010
(1699183062.173350) can0 2B0#49FF00074E
(1699183062.173513) can0 200#0000002D08781944
(1699183062.173840) can0 201#0100000000000001
(1699183062.174003) can0 202#1E0000000000001E
(1699183062.174342) can0 230#0100010000000080
(1699183062.174515) can0 100#0C30000000FF3200
(1699183062.174786) can0 111#08C0FFFF00001D00
(1699183062.177352) can0 460#258A0754000A0000
(1699183062.177852) can0 220#FEE37F0000E50F
(1699183062.178005) can0 153#200010FF00FF406E
(1699183062.178346) can0 2A2#0500000000000000
(1699183062.178513) can0 331#0000000000000000
(1699183062.178846) can0 281#0000010000000000
(1699183062.179006) can0 316#78000000000D0026
(1699183062.179351) can0 329#205B0600002F0000
(1699183062.179513) can0 344#0000000000009403
(1699183062.179832) can0 382#0000FF3F106F0000
(1699183062.180000) can0 394#00C0000000000400
(1699183062.180578) can0 291#00000000FEAEAE00
(1699183062.182837) can0 2B0#48FF00074F
(1699183062.183330) can0 200#0000002D08781B46
(1699183062.183502) can0 201#4100000000000041
(1699183062.183781) can0 202#3E0000000000003E
(1699183062.184044) can0 230#0100010000000080
(1699183062.184573) can0 111#08C0FFFF00001D00
(1699183062.184758) can0 100#0C30000000FF3200
(1699183062.187341) can0 380#1E0B091C00008506
(1699183062.187860) can0 220#FFE37F0000E50F
(1699183062.188011) can0 153#200010FF00FF507E
(1699183062.188357) can0 2A2#0400000000000000
(1699183062.188521) can0 331#0000000000000000
(1699183062.188806) can0 281#0000010000000000
(1699183062.189052) can0 316#78000000000D0026
(1699183062.189293) can0 329#205B0600002F0000
(1699183062.189514) can0 344#0000000000009403
(1699183062.189842) can0 382#0000FF3F106F0000
(1699183062.190002) can0 386#0000000000000000
(1699183062.190348) can0 490#01001000000000
(1699183062.190517) can0 291#00000000FEAEAE00
(1699183062.190518) can0 450#000020
(1699183062.190780) can0 462#FE3FFF0F00000000
(1699183062.191040) can0 471#440050000014
(1699183062.193337) can0 2B0#46FF000750
(1699183062.193502) can0 200#0000002D08781D40
(1699183062.193796) can0 201#8100000000000081
(1699183062.194044) can0 202#5E0000000000005E
(1699183062.194301) can0 230#0100010000000080
(1699183062.194552) can0 111#08C0FFFF00001D00
(1699183062.194794) can0 100#0C30000000FF3200
(1699183062.197298) can0 460#258A0754000A0000
(1699183062.197826) can0 220#FFE37F0000E50F
(1699183062.198016) can0 153#200010FF00FF608E
(1699183062.198327) can0 2A2#0500000000000000
(1699183062.198525) can0 331#0000000000000000
(1699183062.198816) can0 281#0000010000000000
(1699183062.199020) can0 316#78000000000D0026
(1699183062.199307) can0 329#205B0600002F0000
(1699183062.199568) can0 344#0000000000009403
(1699183062.199806) can0 382#0000FF3F106F0000
(1699183062.200076) can0 394#00E0000000000200
(1699183062.200270) can0 549#3A805417E2205400
(1699183062.200572) can0 556#0074000000290000
(1699183062.200765) can0 291#00000000FEAEAE00
(1699183062.201068) can0 557#808000005A950000
(1699183062.201304) can0 560#58A62025180B019C
(1699183062.201564) can0 561#40636073431F003D
(1699183062.203070) can0 2B0#47FF000751
(1699183062.203266) can0 200#0000002D08781F42
(1699183062.203563) can0 201#C1000000000000C1
(1699183062.203803) can0 202#7E0000000000007E
(1699183062.204026) can0 230#0100010000000080
(1699183062.204523) can0 111#08C0FFFF00001D00
(1699183062.204807) can0 100#0C30000000FF3200
(1699183062.205070) can0 56B#365E000000000000
(1699183062.207381) can0 380#1D0B091C00008505
(1699183062.207889) can0 220#FFE37F0000E50F
(1699183062.208051) can0 153#200010FF00FF709E
(1699183062.208297) can0 2A2#0400000000000000
(1699183062.208485) can0 331#0000000000000000
(1699183062.208810) can0 281#0000010000000000
(1699183062.209022) can0 316#78000000000D0026
(1699183062.209306) can0 329#205B0600002F0000
(1699183062.209566) can0 344#0000000000009403
(1699183062.209805) can0 382#0000FF3F106F0000
(1699183062.210072) can0 386#0000000000000000
(1699183062.210275) can0 450#000000
(1699183062.210534) can0 291#00000000FEAEAE00
(1699183062.210775) can0 462#FE3FFF0F00000000
(1699183062.211033) can0 471#440050000018
(1699183062.213541) can0 2B0#47FF000762
(1699183062.213554) can0 200#0000002D0878015C
(1699183062.213766) can0 201#0100000000000001
(1699183062.214074) can0 202#1E0000000000001E
(1699183062.214266) can0 230#0100010000000080
(1699183062.214744) can0 587#0000000000000007
(1699183062.214759) can0 100#0C30000000FF3200
(1699183062.215059) can0 111#08C0FFFF00001D00
(1699183062.215317) can0 51E#0000000000000000
(1699183062.215566) can0 588#5A0A000000670000
(1699183062.215813) can0 5AD#B7B810001E1F0000
(1699183062.216070) can0 5AE#D300671D2E000000
(1699183062.216278) can0 5F1#CC105A0A00000000
(1699183062.216279) can0 670#9411E015C4670200
(1699183062.217317) can0 460#258A0654000A0000
(1699183062.217815) can0 220#FFE37F0000E50F
(1699183062.218050) can0 153#200010FF00FF80AE
(1699183062.218323) can0 2A2#0500000000000000
(1699183062.218574) can0 331#0000000000000000
(1699183062.218775) can0 281#0000010000000000
(1699183062.219058) can0 316#78000000000D0026
(1699183062.219313) can0 329#205B0600002F0000
(1699183062.219571) can0 344#0000000000009403
(1699183062.219776) can0 382#0000FF3F106F0000
(1699183062.220031) can0 394#0000000000000000
(1699183062.220532) can0 291#00000000FEAEAE00
(1699183062.221172) can0 592#30C890D351040004
(1699183062.221236) can0 518#00000000000000C0
(1699183062.221578) can0 51C#0000000000007000
(1699183062.221780) can0 51D#0000000000000000
(1699183062.222073) can0 528#130F61007D037004
(1699183062.222276) can0 585#0060332C05000005
(1699183062.222576) can0 590#070016009400238D
(1699183062.222777) can0 59E#0000000000000000
(1699183062.222779) can0 2B0#48FF000783
(1699183062.223041) can0 59F#0000000000080000
(1699183062.223308) can0 200#0000002D0878035E
(1699183062.223552) can0 201#4100000000000041
(1699183062.223791) can0 202#3E0000000000003E
(1699183062.224043) can0 230#0100010000000080
(1699183062.224569) can0 111#08C0FFFF00001D00
(1699183062.224754) can0 100#0C30000000FF3200
(1699183062.227086) can0 380#1D0B091C00008505
(1699183062.227838) can0 220#FFC37F0000E50F
(1699183062.227995) can0 153#200010FF00FF90BE
(1699183062.228347) can0 2A2#0400000000000000
(1699183062.228530) can0 331#0000000000000000
(1699183062.228785) can0 281#0000010000000000
(1699183062.229031) can0 316#78000000000D0026
(1699183062.229277) can0 329#205B0600002F0000
(1699183062.229539) can0 344#0000000000009403
(1699183062.229776) can0 382#0000FF3F106F0000
(1699183062.230004) can0 386#0000000000000000
(1699183062.230266) can0 570#004C21081D010000
(1699183062.230511) can0 291#00000000FEAEAE00
(1699183062.230754) can0 450#000000
(1699183062.231010) can0 462#FE3FFF0F00000000
(1699183062.231337) can0 471#44004000005C
(1699183062.231512) can0 520#0000000000000000
(1699183062.231782) can0 541#0340400000000000
(1699183062.232027) can0 578#000000000000
(1699183062.232243) can0 5EC#0000000000000000
(1699183062.232984) can0 2B0#46FF000714
(1699183062.233293) can0 200#0000002D08780558
(1699183062.233538) can0 201#8100000000000081
(1699183062.233778) can0 202#5E0000000000005E
(1699183062.233999) can0 230#0100010000000080
(1699183062.234531) can0 111#08C0FFFF00001D00
(1699183062.234815) can0 100#0C30000000FF3200
(1699183062.237334) can0 460#258A0654000A0000
(1699183062.237844) can0 220#FFE37F0000E50F
(1699183062.237995) can0 153#200010FF00FFA0CE
(1699183062.238347) can0 2A2#0500000000000000
(1699183062.238501) can0 331#0000000000000000
(1699183062.238808) can0 281#0000010000000000
(1699183062.239041) can0 316#78000000000D0026
(1699183062.239281) can0 329#205B0600002F0000
(1699183062.239535) can0 344#0000000000009403
(1699183062.239778) can0 382#0000FF3F106F0000
(1699183062.240026) can0 394#0020000000000E00
(1699183062.240251) can0 490#01001000000000
(1699183062.240473) can0 291#00000000FEAEAE00
(1699183062.242733) can0 2B0#48FF0007E5
(1699183062.243225) can0 200#0000002D0878075A
(1699183062.243544) can0 201#C1000000000000C1
(1699183062.243786) can0 202#7E0000000000007E
(1699183062.244035) can0 230#0100010000000080
(1699183062.244561) can0 111#08C0FFFF00001D00
(1699183062.244744) can0 100#0C30000000FF3200
(1699183062.247346) can0 380#1D0B091C00008405
(1699183062.247853) can0 220#FEE37F0000E50F
(1699183062.247994) can0 153#200010FF00FFB0DE
(1699183062.248351) can0 2A2#0400000000000000
(1699183062.248538) can0 331#0000000000000000
(1699183062.248787) can0 281#0000010000000000
(1699183062.249033) can0 316#78000000000D0026
(1699183062.249281) can0 329#205B0600002F0000
(1699183062.249535) can0 344#0000000000009403
(1699183062.249777) can0 382#0000FF3F106F0000
(1699183062.250006) can0 386#0000000000000000
(1699183062.250244) can0 450#000020
(1699183062.250500) can0 462#FE3FFF0F00000000
(1699183062.250742) can0 291#00000000FEAEAE00
(1699183062.251099) can0 471#440050000020
(1699183062.251243) can0 538#0000000002000000
(1699183062.251570) can0 56A#00C80001840F88CA
(1699183062.252840) can0 523#6001604F61505800
(1699183062.252994) can0 524#5050080128000000
(1699183062.253331) can0 2B0#49FF0007C6
(1699183062.253502) can0 200#0000002D08780954
(1699183062.253781) can0 201#0100000000000001
(1699183062.254033) can0 202#1E0000000000001E
(1699183062.254277) can0 230#0100010000000080
(1699183062.254555) can0 100#0C30000000FF3200
(1699183062.254784) can0 111#08C0FFFF00001D00
(1699183062.255026) can0 52D#4C50000000000000
(1699183062.257307) can0 460#258A0654000A0000
(1699183062.257783) can0 220#FEE37F0000E50F
(1699183062.258110) can0 153#200010FF00FFC0EE
(1699183062.258264) can0 2A2#0500000000000000
(1699183062.258569) can0 331#0000000000000000
(1699183062.258743) can0 281#0000010000000000
(1699183062.259038) can0 316#78000000000D0026
(1699183062.259278) can0 329#205B0600002F0000
(1699183062.259533) can0 344#0000000000009403
(1699183062.259776) can0 382#0000FF3F106F0000
(1699183062.260018) can0 394#0040000000000C00
(1699183062.260580) can0 291#00000000FEAEAE00
(1699183062.262856) can0 2B0#48FF0007C7
(1699183062.263349) can0 200#0000002D08780B56
(1699183062.263504) can0 201#4100000000000041
(1699183062.263807) can0 202#3E0000000000003E
(1699183062.264040) can0 230#0100010000000080
(1699183062.264566) can0 111#08C0FFFF00001D00
(1699183062.264744) can0 100#0C30000000FF3200
(1699183062.266099) can0 584#0100001519503030
(1699183062.267319) can0 380#1E0B091C00008306
(1699183062.267873) can0 220#FFE37F0000E50F
(1699183062.268040) can0 153#200010FF00FFD0FE
(1699183062.268259) can0 2A2#0400000000000000
(1699183062.268535) can0 331#0000000000000000
(1699183062.268803) can0 281#0000010000000000
(1699183062.269038) can0 316#78000000000D0026
(1699183062.269302) can0 329#205B0600002F0000
(1699183062.269500) can0 344#0000000000009403
(1699183062.269765) can0 382#0000FF3F106F0000
(1699183062.269997) can0 386#0000000000000000
(1699183062.270267) can0 507#00000001
(1699183062.270268) can0 450#000000
(1699183062.270564) can0 291#00000000FEAEAE00
(1699183062.270804) can0 462#FE3FFF0F00000000
(1699183062.271038) can0 471#440050000024
(1699183062.273533) can0 2B0#46FF0007D8
(1699183062.273547) can0 200#0000002D08780D50
(1699183062.273791) can0 201#8100000000000081
(1699183062.274068) can0 202#5E0000000000005E
(1699183062.274334) can0 230#0100010000000080
(1699183062.274523) can0 100#0C30000000FF3200
(1699183062.274835) can0 111#08C0FFFF00001D00
(1699183062.277562) can0 460#258A0754000A0000
(1699183062.277784) can0 220#FFE37F0000E30F
(1699183062.278080) can0 153#200010FF00FFE00E
(1699183062.278272) can0 2A2#0500000000000000
(1699183062.278556) can0 331#0000000000000000
(1699183062.278826) can0 281#0000010000000000
(1699183062.279067) can0 316#78000000000D0026
(1699183062.279290) can0 329#205B0600002F0000
(1699183062.279520) can0 344#0000000000009403
(1699183062.279788) can0 382#0000FF3F106F0000
(1699183062.280020) can0 394#0060000000000A00
(1699183062.280559) can0 291#00000000FEAEAE00
(1699183062.283135) can0 2B0#48FF000729
(1699183062.283305) can0 200#0000002D08780F52
(1699183062.283571) can0 201#C1000000000000C1
(1699183062.283789) can0 202#7E0000000000007E
(1699183062.284064) can0 230#0100010000000080
(1699183062.284713) can0 111#08C0FFFF00001D00
(1699183062.284750) can0 100#0C30000000FF3200
(1699183062.287667) can0 380#1E0B091C00008506
(1699183062.287786) can0 220#FFE37F0000E00F
(1699183062.288092) can0 153#200010FF00FF002E
(1699183062.288273) can0 2A2#0400000000000000
(1699183062.288571) can0 331#0000000000000000
(1699183062.288790) can0 281#0000010000000000
(1699183062.289061) can0 316#78000000000D0026
(1699183062.289334) can0 329#205B0600002F0000
(1699183062.289523) can0 344#0000000000009403
(1699183062.289843) can0 382#0000FF3F106F0000
(1699183062.290022) can0 386#0000000000000000
(1699183062.290333) can0 490#01001000000000
(1699183062.290334) can0 450#000020
(1699183062.290524) can0 291#00000000FEAEAE00
(1699183062.290829) can0 462#FE3FFF0F00000000
(1699183062.291067) can0 471#440050000028
(1699183062.293532) can0 2B0#48FF00071A
(1699183062.293545) can0 200#0000002D0878114C
(1699183062.293828) can0 201#0100000000000001
(1699183062.294022) can0 202#1E0000000000001E
(1699183062.294328) can0 230#0100010000000080
(1699183062.294565) can0 100#0C30000000FF3200
(1699183062.294829) can0 111#08C0FFFF00001D00
(1699183062.297574) can0 460#258A0754000A0000
(1699183062.297798) can0 220#FFE37F0000E00F
(1699183062.298075) can0 153#200010FF00FF103E
(1699183062.298327) can0 2A2#0500000000000000
(1699183062.298524) can0 331#0000000000000000
(1699183062.298999) can0 281#0000010000000000
(1699183062.299012) can0 316#78000000000D0026
(1699183062.299329) can0 329#205B0600002F0000
(1699183062.299523) can0 344#0000000000009403
(1699183062.299837) can0 382#0000FF3F106F0000
(1699183062.300084) can0 394#0080000000000800
(1699183062.300251) can0 549#38805418E2205400
(1699183062.300571) can0 556#0074000000290000
(1699183062.300807) can0 291#00000000FEAEAE00
(1699183062.301058) can0 557#808000005A930000
(1699183062.301268) can0 560#98A62025180B019C
(1699183062.301564) can0 561#40636073431F003D
(1699183062.302879) can0 2B0#48FF00070B
(1699183062.303391) can0 200#0000002D0878134E
(1699183062.303560) can0 201#4100000000000041
(1699183062.303846) can0 202#3E0000000000003E
(1699183062.304099) can0 230#0100010000000080
(1699183062.304721) can0 111#08C0FFFF00001D00
(1699183062.304757) can0 100#0C30000000FF3200
(1699183062.305093) can0 56B#365E000000000000
(1699183062.307395) can0 380#1D0B091C00008406
(1699183062.307894) can0 220#FFE37F0000E00F
(1699183062.308050) can0 153#200010FF00FF204E
(1699183062.308259) can0 2A2#0400000000000000
(1699183062.308560) can0 331#0000000000000000
(1699183062.308755) can0 281#0000010000000000
(1699183062.309114) can0 316#78000000000D0026
(1699183062.309310) can0 329#205B0600002F0000
(1699183062.309598) can0 344#0000000000009403
(1699183062.309801) can0 382#0000FF3F106F0000
(1699183062.310097) can0 386#0000000000000000
(1699183062.310303) can0 450#000020
(1699183062.310571) can0 462#FE3FFF0F00000000
(1699183062.310838) can0 291#00000000FEAEAE00
(1699183062.310840) can0 471#44005000006C
(1699183062.313279) can0 2B0#49FF00076C
(1699183062.313498) can0 200#0000002D08781548
(1699183062.313825) can0 201#8100000000000081
(1699183062.314086) can0 202#5E0000000000005E
(1699183062.314326) can0 230#0100010000000080
(1699183062.314524) can0 111#08C0FFFF00001D00
(1699183062.314835) can0 100#0C30000000FF3200
(1699183062.315084) can0 670#9411E015C4670200
(1699183062.315326) can0 51E#0000000000000000
(1699183062.315497) can0 588#5A0A000000670000
(1699183062.315740) can0 5AD#B7B810001E1F0000
(1699183062.315996) can0 5AE#D300671D2E000000
(1699183062.316239) can0 5F1#CC105A0A00000000
(1699183062.317566) can0 460#258A0654000A0000
(1699183062.317842) can0 220#FFE37F0000E00F
(1699183062.318080) can0 153#200010FF00FF305E
(1699183062.318346) can0 2A2#0500000000000000
(1699183062.318585) can0 331#0000000000000000
(1699183062.318836) can0 281#0000010000000000
(1699183062.319094) can0 316#78000000000D0026
(1699183062.319240) can0 329#205B0600002F0000
(1699183062.319498) can0 344#0000000000009403
(1699183062.319740) can0 382#0000FF3F106F0000
(1699183062.319996) can0 394#00A0000000000600
(1699183062.320633) can0 291#00000000FEAEAE00
(1699183062.321136) can0 592#30C890D351040044
(1699183062.321297) can0 518#00000000000000C0
(1699183062.321583) can0 51C#0000000000007000
(1699183062.321826) can0 51D#0000000000000000
(1699183062.322085) can0 585#0060332C05000005
(1699183062.322326) can0 590#070016009400238D
(1699183062.322584) can0 59E#0000000000000000
(1699183062.322741) can0 59F#0000000000080000
(1699183062.322742) can0 2B0#49FF00077D
(1699183062.323258) can0 200#0000002D0878174A
(1699183062.323497) can0 201#C1000000000000C1
(1699183062.323740) can0 202#7E0000000000007E
(1699183062.324149) can0 230#0100010000000080
(1699183062.324256) can0 570#004C21081D010000
(1699183062.324589) can0 100#0C30000000FF3200
(1699183062.324829) can0 111#08C0FFFF00001D00
(1699183062.327625) can0 380#1D0B091C00008405
(1699183062.327809) can0 220#FFE37F0000E00F
(1699183062.328111) can0 153#200010FF00FF406E
(1699183062.328242) can0 2A2#0400000000000000
(1699183062.328755) can0 331#0000000000000000
(1699183062.328767) can0 281#0000010000000000
(1699183062.329098) can0 316#78000000000D0026
(1699183062.329301) can0 329#205B0600002F0000
(1699183062.329598) can0 344#0000000000009403
(1699183062.329803) can0 382#0000FF3F106F0000
(1699183062.330094) can0 386#0000000000000000
(1699183062.330647) can0 450#000000
(1699183062.330817) can0 291#00000000FEAEAE00
(1699183062.331154) can0 462#FE3FFF0F00000000
(1699183062.331325) can0 471#400040000070
(1699183062.331654) can0 50E#0000000000000000
(1699183062.331811) can0 520#0000000000000000
(1699183062.332143) can0 541#0340400000000000
(1699183062.332236) can0 54E#FF00000000FF0000
(1699183062.332653) can0 553#0000000000008000
(1699183062.332806) can0 576#FF1F1FFFFFFFFF0F
(1699183062.333143) can0 2B0#48FF00075E
(1699183062.333302) can0 577#FFFFFFFFFFFF0F00
(1699183062.333616) can0 200#0000002D08781944
(1699183062.333800) can0 201#0100000000000001
(1699183062.334037) can0 202#1E0000000000001E
(1699183062.334367) can0 230#0100010000000080
(1699183062.334537) can0 100#0C30000000FF3200
(1699183062.334797) can0 111#08C0FFFF00001D00
(1699183062.335054) can0 578#000000000000
(1699183062.335308) can0 57C#07FFFFFFFFFFFFFF
(1699183062.335577) can0 57D#F7FFFFFFFFFFFFFF
(1699183062.335746) can0 57E#F7FFFFFFFF3F0000
(1699183062.336036) can0 58A#7FFF3FFF3F0F0000
(1699183062.336535) can0 5A8#0000000000000000
(1699183062.336867) can0 5AB#0000000000000000
(1699183062.337050) can0 5DF#045A020000000000
(1699183062.337321) can0 460#258A0654000A0000
(1699183062.337576) can0 5EC#0000000000000000
(1699183062.337818) can0 220#FFE37F0000E00F
(1699183062.338073) can0 153#200010FF00FF507E
(1699183062.338318) can0 2A2#0500000000000000
(1699183062.338539) can0 331#0000000000000000
(1699183062.338780) can0 281#0000010000000000
(1699183062.339037) can0 316#78000000000D0026
(1699183062.339277) can0 329#205B0600002F0000
(1699183062.339624) can0 344#0000000000009403
(1699183062.339778) can0 382#0000FF3F106F0000
(1699183062.340109) can0 394#00C0000000000400
(1699183062.340242) can0 490#01001000000000
(1699183062.340606) can0 291#00000000FEAEAE00
(1699183062.342866) can0 2B0#49FF00075F
(1699183062.343352) can0 200#0000002D08781B46
(1699183062.343526) can0 201#4100000000000041
(1699183062.343805) can0 202#3E0000000000003E
(1699183062.344056) can0 230#0100010000000080
(1699183062.344615) can0 111#08C0FFFF00001D00
(1699183062.344779) can0 100#0C30000000FF3200
(1699183062.347122) can0 380#1D0B091C00008505
(1699183062.347875) can0 220#FFE37F0000E20F
(1699183062.348031) can0 153#200010FF00FF608E
(1699183062.348320) can0 2A2#0400000000000000
(1699183062.348600) can0 331#0000000000000000
(1699183062.348778) can0 281#0000010000000000
(1699183062.349074) can0 316#78000000000D0026
(1699183062.349315) can0 329#205B0600002F0000
(1699183062.349570) can0 344#0000000000009403
(1699183062.349818) can0 382#0000FF3F106F0000
(1699183062.350067) can0 386#0000000000000000
(1699183062.350318) can0 450#000000
(1699183062.350536) can0 462#FE3FFF0F00000000
(1699183062.350779) can0 291#00000000FEAEAE00
(1699183062.351035) can0 471#440050000074
(1699183062.351281) can0 538#0000000002000000
(1699183062.351282) can0 56A#00C80001840088C5
(1699183062.353121) can0 523#6001604F61505800
(1699183062.353280) can0 524#5050080128000000
(1699183062.353592) can0 200#0000002D08781D40
(1699183062.353778) can0 201#8100000000000081
(1699183062.354059) can0 202#5E0000000000005E
(1699183062.354320) can0 230#0100010000000080
(1699183062.354321) can0 2B0#46FF000750
(1699183062.354575) can0 100#0C30000000FF3200
(1699183062.354820) can0 111#08C0FFFF00001D00
(1699183062.355077) can0 52D#4C50000000000000
(1699183062.355278) can0 540#DC48DA4800000000
(1699183062.357309) can0 460#258A0754000A0000
(1699183062.357808) can0 220#FFE37F0000E50F
(1699183062.358116) can0 153#200010FF00FF709E
(1699183062.358274) can0 2A2#0500000000000000
(1699183062.358624) can0 331#0000000000000000
(1699183062.358778) can0 281#0000010000000000
(1699183062.359110) can0 316#78000000000D0026
(1699183062.359275) can0 329#205B0600002F0000
(1699183062.359613) can0 344#0000000000009403
(1699183062.359773) can0 382#0000FF3F106F0000
(1699183062.360111) can0 394#00E0000000000200
(1699183062.360615) can0 291#00000000FEAEAE00
(1699183062.362876) can0 2B0#48FF0007A1
(1699183062.363368) can0 200#0000002D08781F42
(1699183062.363538) can0 201#C1000000000000C1
(1699183062.363807) can0 202#7E0000000000007E
(1699183062.364060) can0 230#0100010000000080
(1699183062.364628) can0 111#08C0FFFF00001D00
(1699183062.364783) can0 100#0C30000000FF3200
(1699183062.366115) can0 584#0100001519603033
(1699183062.367113) can0 380#1E0B091C00008506
(1699183062.367873) can0 220#FFE37F0000E80F
(1699183062.368028) can0 153#200010FF00FF80AE
(1699183062.368319) can0 2A2#0400000000000000
(1699183062.368596) can0 331#0000000000000000
(1699183062.368797) can0 281#0000010000000000
(1699183062.369078) can0 316#78000000000D0026
(1699183062.369337) can0 329#205B0600002F0000
(1699183062.369597) can0 344#0000000000009403
(1699183062.369801) can0 382#0000FF3F106F0000
(1699183062.370126) can0 386#0000000000000000
(1699183062.370281) can0 507#00000001
(1699183062.370282) can0 450#000020
(1699183062.370627) can0 291#00000000FEAEAE00
(1699183062.370779) can0 462#FE3FFF0F00000000
(1699183062.371107) can0 471#440050000078
(1699183062.373373) can0 2B0#48FF000792
(1699183062.373536) can0 200#0000002D0878015C
(1699183062.373831) can0 201#0100000000000001
(1699183062.374080) can0 202#1E0000000000001E
(1699183062.374321) can0 230#0100010000000080
(1699183062.374573) can0 111#08C0FFFF00001D00
(1699183062.374819) can0 100#0C30000000FF3200
(1699183062.377374) can0 460#258A0754000A0000
(1699183062.377834) can0 220#FFE37F0000EB0F
(1699183062.378089) can0 153#200010FF00FF90BE
(1699183062.378347) can0 2A2#0500000000000000
(1699183062.378599) can0 331#0000000000000000
(1699183062.378800) can0 281#0000010000000000
(1699183062.379082) can0 316#78000000000D0026
(1699183062.379340) can0 329#205B0600002F0000
(1699183062.379559) can0 344#0000000000009403
(1699183062.379799) can0 382#0000FF3F106F0000
(1699183062.380033) can0 394#0000000000000000
(1699183062.380593) can0 291#00000000FEAEAE00
(1699183062.382862) can0 2B0#48FF000783
(1699183062.383358) can0 200#0000002D0878035E
(1699183062.383539) can0 201#4100000000000041
(1699183062.383806) can0 202#3E0000000000003E
(1699183062.384054) can0 230#0100010000000080
(1699183062.384622) can0 111#08C0FFFF00001D00
(1699183062.384776) can0 100#0C30000000FF3200
(1699183062.387369) can0 380#1E0B091C00008506
(1699183062.387870) can0 220#FFE37F0000EC0F
(1699183062.388049) can0 153#200010FF00FFA0CE
(1699183062.388285) can0 2A2#0400000000000000
(1699183062.388566) can0 331#0000000000000000
(1699183062.388818) can0 281#0000010000000000
(1699183062.389075) can0 316#78000000000D0026
(1699183062.389325) can0 329#205B0600002F0000
(1699183062.389538) can0 344#0000000000009403
(1699183062.389778) can0 382#0000FF3F106F0000
(1699183062.390034) can0 386#0000000000000000
(1699183062.390304) can0 490#01001000000000
(1699183062.390305) can0 450#000020
(1699183062.390614) can0 291#00000000FEAEAE00
(1699183062.390801) can0 462#FE3FFF0F00000000
(1699183062.391063) can0 471#4400500000BC
(1699183062.393377) can0 2B0#46FF000714
(1699183062.393537) can0 200#0000002D08780558
(1699183062.393867) can0 201#8100000000000081
(1699183062.394049) can0 202#5E0000000000005E
(1699183062.394321) can0 230#0100010000000080
(1699183062.394576) can0 100#0C30000000FF3200
(1699183062.394822) can0 111#08C0FFFF00001D00
(1699183062.397535) can0 460#258A0654000A0000
(1699183062.397851) can0 220#FFE37F0000EC0F
(1699183062.398115) can0 153#200010FF00FFB0DE
(1699183062.398324) can0 2A2#0500000000000000
(1699183062.398559) can0 331#0000000000000000
(1699183062.398847) can0 281#0000010000000000
(1699183062.399078) can0 316#78000000000D0026
(1699183062.399340) can0 329#205B0600002F0000
(1699183062.399601) can0 344#0000000000009403
(1699183062.399801) can0 382#0000FF3F106F0000
(1699183062.400145) can0 394#0020000000000E00
(1699183062.400316) can0 549#35805417E2205400
(1699183062.400499) can0 556#0074000000290000
(1699183062.400741) can0 291#00000000FEAEAE00
(1699183062.400997) can0 557#808000005A930000
(1699183062.401311) can0 560#D8A62025180B019C
(1699183062.401565) can0 561#40636073431F003D
(1699183062.402873) can0 2B0#48FF0007E5
(1699183062.403401) can0 200#0000002D0878075A
(1699183062.403568) can0 201#C1000000000000C1
(1699183062.403849) can0 202#7E0000000000007E
(1699183062.404051) can0 230#0100010000000080
(1699183062.404706) can0 111#08C0FFFF00001D00
(1699183062.404748) can0 100#0C30000000FF3200
(1699183062.405086) can0 56B#365E000000000000
(1699183062.407656) can0 380#1E0B091C00008505
(1699183062.407836) can0 220#FFE37F0000EC0F
(1699183062.408162) can0 153#200010FF00FFC0EE
(1699183062.408272) can0 2A2#0400000000000000
(1699183062.408762) can0 331#0000000000000000
(1699183062.408792) can0 281#0000010000000000
(1699183062.409005) can0 316#78000000000D0026
(1699183062.409353) can0 329#205B0600002F0000
(1699183062.409548) can0 344#0000000000009403
(1699183062.409834) can0 382#0000FF3F106F0000
(1699183062.410115) can0 386#0000000000000000
(1699183062.410365) can0 450#000000
(1699183062.410559) can0 462#FE3FFF0F00000000
(1699183062.410823) can0 291#00000000FEAEAE00
(1699183062.411076) can0 471#440050000000
(1699183062.413569) can0 2B0#46FF000736
(1699183062.413582) can0 200#0000002D08780954
(1699183062.413825) can0 201#0100000000000001
(1699183062.414116) can0 202#1E0000000000001E
(1699183062.414322) can0 230#0100010000000080
(1699183062.414598) can0 100#0C30000000FF3200
(1699183062.414863) can0 111#08C0FFFF00001D00
(1699183062.415052) can0 51E#0000000000000000
(1699183062.415347) can0 587#0000000000000008
(1699183062.415596) can0 588#5A0A000000670000
(1699183062.415765) can0 5AD#B7B810001E1F0000
(1699183062.416139) can0 5AE#3800671D2E000000
(1699183062.416280) can0 5F1#CC105A0A00000000
(1699183062.416641) can0 670#9411E015C4670200
(1699183062.417151) can0 460#258A0654000A0000
(1699183062.417887) can0 220#FFE37F0000EC0F
(1699183062.418071) can0 153#200010FF00FFD0FE
(1699183062.418354) can0 2A2#0500000000000000
(1699183062.418558) can0 331#0000000000000000
(1699183062.418848) can0 281#0000010000000000
(1699183062.419113) can0 316#78000000000D0026
(1699183062.419363) can0 329#205B0600002F0000
(1699183062.419535) can0 344#0000000000009403
(1699183062.419829) can0 382#0000FF3F106F0000
(1699183062.420081) can0 394#0040000000000C00
(1699183062.420265) can0 570#004C21081D010000
(1699183062.420497) can0 291#00000000FEAEAE00
(1699183062.421025) can0 592#30C890D351040084
(1699183062.421350) can0 518#00000000000000C0
(1699183062.421599) can0 51C#0000000000007000
(1699183062.421841) can0 51D#0000000000000000
(1699183062.422016) can0 585#0060332C05000005
(1699183062.422353) can0 590#070016009400248D
(1699183062.422555) can0 59E#0000000000000000
(1699183062.422848) can0 59F#0000000000080000
(1699183062.422849) can0 2B0#48FF0007C7
(1699183062.423276) can0 200#0000002D08780B56
(1699183062.423497) can0 201#4100000000000041
(1699183062.423764) can0 202#3E0000000000003E
(1699183062.424166) can0 230#0100010000000080
(1699183062.424643) can0 111#08C0FFFF00001D00
(1699183062.424866) can0 100#0C30000000FF3200
(1699183062.427391) can0 380#1D0B091C00008505
(1699183062.427895) can0 220#FFE37F0000EC0F
(1699183062.428077) can0 153#200010FF00FFE00E
(1699183062.428275) can0 2A2#0400000000000000
(1699183062.428578) can0 331#0000000000000000
(1699183062.428855) can0 281#0000010000000000
(1699183062.429112) can0 316#78000000000D0026
(1699183062.429363) can0 329#205B0600002F0000
(1699183062.429555) can0 344#0000000000009403
(1699183062.429847) can0 382#0000FF3F106F0000
(1699183062.430115) can0 386#0000000000000000
(1699183062.430497) can0 450#000020
(1699183062.430765) can0 291#00000000FEAEAE00
(1699183062.431074) can0 462#FE3FFF0F00000000
(1699183062.431404) can0 471#440040000004
(1699183062.431576) can0 520#0000000000000000
(1699183062.431865) can0 541#0340400000000000
(1699183062.432072) can0 578#000000000000
(1699183062.432282) can0 5EC#0000000000000000
(1699183062.433118) can0 2B0#48FF000738
(1699183062.433325) can0 200#0000002D08780D50
(1699183062.433556) can0 201#8100000000000081
(1699183062.433857) can0 202#5E0000000000005E
(1699183062.434088) can0 230#0100010000000080
(1699183062.434267) can0 100#0C30000000FF3200
(1699183062.434497) can0 111#08C0FFFF00001D00
(1699183062.437316) can0 460#258A0654000A0000
(1699183062.438031) can0 220#FFE37F0000EC0F
(1699183062.438044) can0 153#200010FF00FF002E
(1699183062.438359) can0 2A2#0500000000000000
(1699183062.438548) can0 331#0000000000000000
(1699183062.438869) can0 281#0000010000000000
(1699183062.439106) can0 316#78000000000D0026
(1699183062.439359) can0 329#205B0600002F0000
(1699183062.439548) can0 344#0000000000009403
(1699183062.439850) can0 382#0000FF3F106F0000
(1699183062.440102) can0 394#0060000000000A00
(1699183062.440315) can0 490#01001000000000
(1699183062.440778) can0 291#00000000FEAEAE00
(1699183062.442777) can0 2B0#49FF000739
(1699183062.443275) can0 200#0000002D08780F52
(1699183062.443593) can0 201#C1000000000000C1
(1699183062.443853) can0 202#7E0000000000007E
(1699183062.444072) can0 230#0100010000000080
(1699183062.444588) can0 111#08C0FFFF00001D00
(1699183062.444855) can0 100#0C30000000FF3200
(1699183062.447646) can0 380#1E0B091C00008505
(1699183062.447823) can0 220#FFE37F0000EC0F
(1699183062.448166) can0 153#200010FF00FF103E
(1699183062.448328) can0 2A2#0400000000000000
(1699183062.448584) can0 331#0000000000000000
(1699183062.448860) can0 281#0000010000000000
(1699183062.449103) can0 316#78000000000D0026
(1699183062.449266) can0 329#205B0600002F0000
(1699183062.449591) can0 344#0000000000009403
(1699183062.449852) can0 382#0000FF3F106F0000
(1699183062.450016) can0 386#0000000000000000
(1699183062.450265) can0 450#000000
(1699183062.450598) can0 462#FE3FFF0F00000000
(1699183062.450832) can0 291#00000000FEAEAE00
(1699183062.451042) can0 471#440050000008
(1699183062.451291) can0 538#0000000002000000
(1699183062.451292) can0 56A#00C80001840188C4
(1699183062.453334) can0 523#6001604F61505800
(1699183062.453347) can0 524#5050080128000000
(1699183062.453548) can0 200#0000002D0878114C
(1699183062.453850) can0 201#0100000000000001
(1699183062.454104) can0 202#1E0000000000001E
(1699183062.454352) can0 230#0100010000000080
(1699183062.454547) can0 100#0C30000000FF3200
(1699183062.454850) can0 111#08C0FFFF00001D00
(1699183062.455101) can0 2B0#48FF00071A
(1699183062.455351) can0 52D#4C50000000000000
(1699183062.457366) can0 460#258A0754000A0000
(1699183062.457864) can0 220#FFE37F0000EA0F
(1699183062.458100) can0 153#200010FF00FF204E
(1699183062.458363) can0 2A2#0500000000000000
(1699183062.458622) can0 331#0000000000000000
(1699183062.458814) can0 281#0000010000000000
(1699183062.459099) can0 316#78000000000D0026
(1699183062.459350) can0 329#205B0600002F0000
(1699183062.459611) can0 344#0000000000009403
(1699183062.459814) can0 382#0000FF3F106F0000
(1699183062.460063) can0 394#0080000000000800
(1699183062.460866) can0 291#00000000FEAEAE00
(1699183062.463182) can0 2B0#49FF00071B
(1699183062.463360) can0 200#0000002D0878134E
(1699183062.463616) can0 201#4100000000000041
(1699183062.463826) can0 202#3E0000000000003E
(1699183062.464117) can0 230#0100010000000080
(1699183062.464533) can0 111#08C0FFFF00001D00
(1699183062.464850) can0 100#0C30000000FF3200
(1699183062.466159) can0 584#010000151900484C
(1699183062.467390) can0 380#1E0B091C00008406
(1699183062.467922) can0 220#FFE37F0000E80F
(1699183062.468079) can0 153#200010FF00FF305E
(1699183062.468302) can0 2A2#0400000000000000
(1699183062.468617) can0 331#0000000000000000
(1699183062.468855) can0 281#0000010000000000
(1699183062.469101) can0 316#78000000000D0026
(1699183062.469351) can0 329#205B0600002F0000
(1699183062.469612) can0 344#0000000000009403
(1699183062.469853) can0 382#0000FF3F106F0000
(1699183062.470064) can0 386#0000000000000000
(1699183062.470265) can0 507#00000001
(1699183062.470267) can0 450#000000
(1699183062.470522) can0 462#FE3FFF0F00000000
(1699183062.470764) can0 291#00000000FEAEAE00
(1699183062.471162) can0 471#44005000004C
(1699183062.473548) can0 2B0#48FF00077C
(1699183062.473561) can0 200#0000002D08781548
(1699183062.473852) can0 201#8100000000000081
(1699183062.474101) can0 202#5E0000000000005E
(1699183062.474352) can0 230#0100010000000080
(1699183062.474608) can0 111#08C0FFFF00001D00
(1699183062.474851) can0 100#0C30000000FF3200
(1699183062.477553) can0 460#258A0754000A0000
(1699183062.477773) can0 220#FFE37F0000E60F
(1699183062.478077) can0 153#200010FF00FF406E
(1699183062.478377) can0 2A2#0500000000000000
(1699183062.478585) can0 331#0000000000000000
(1699183062.478862) can0 281#0000010000000000
(1699183062.479113) can0 316#78000000000D0026
(1699183062.479366) can0 329#205B0600002F0000
(1699183062.479621) can0 344#0000000000009403
(1699183062.479764) can0 382#0000FF3F106F0000
(1699183062.480014) can0 394#00A0000000000600
(1699183062.480782) can0 291#00000000FEAEAE00
(1699183062.482911) can0 2B0#49FF00077D
(1699183062.483396) can0 200#0000002D0878174A
(1699183062.483572) can0 201#C1000000000000C1
(1699183062.483846) can0 202#7E0000000000007E
(1699183062.484114) can0 230#0100010000000080
(1699183062.484582) can0 111#08C0FFFF00001D00
(1699183062.484775) can0 100#0C30000000FF3200
(1699183062.487432) can0 380#1E0B091C00008506
(1699183062.487897) can0 220#FFE37F0000E60F
(1699183062.488071) can0 153#200010FF00FF507E
(1699183062.488332) can0 2A2#0400000000000000
(1699183062.488622) can0 331#0000000000000000
(1699183062.488876) can0 281#0000010000000000
(1699183062.489073) can0 316#78000000000D0026
(1699183062.489331) can0 329#205B0600002F0000
(1699183062.489583) can0 344#0000000000009403
(1699183062.489802) can0 382#0000FF3F106F0000
(1699183062.490056) can0 386#0000000000000000
(1699183062.490264) can0 490#01001000000000
(1699183062.490622) can0 450#000020
(1699183062.490864) can0 291#00000000FEAEAE00
(1699183062.491040) can0 462#FE3FFF0F00000000
(1699183062.491041) can0 471#440050000010
(1699183062.493556) can0 2B0#48FF00075E
(1699183062.493570) can0 200#0000002D08781944
(1699183062.493825) can0 201#0100000000000001
(1699183062.494116) can0 202#1E0000000000001E
(1699183062.494322) can0 230#0100010000000080
(1699183062.494607) can0 100#0C30000000FF3200
(1699183062.494863) can0 111#08C0FFFF00001D00
(1699183062.497558) can0 460#258A0754000A0000
(1699183062.497880) can0 220#FFE37F0000E60F
(1699183062.498023) can0 153#200010FF00FF608E
(1699183062.498325) can0 2A2#0500000000000000
(1699183062.498629) can0 331#0000000000000000
(1699183062.498827) can0 281#0000010000000000
(1699183062.499115) can0 316#78000000000D0026
(1699183062.499330) can0 329#205B0600002F0000
(1699183062.499623) can0 344#0000000000009403
(1699183062.499827) can0 382#0000FF3F106F0000
(1699183062.500114) can0 394#00C0000000000400
(1699183062.500283) can0 549#34805414E2205400
(1699183062.500608) can0 556#0074000000290000
(1699183062.500863) can0 291#00000000FEAEAE00
(1699183062.501112) can0 557#808000005A930000
(1699183062.501324) can0 560#18A62025180B019C
(1699183062.501611) can0 561#40636073431F003D
(1699183062.502910) can0 2B0#48FF00074F
(1699183062.503399) can0 200#0000002D08781B46
(1699183062.503580) can0 201#4100000000000041
(1699183062.503866) can0 202#3E0000000000003E
(1699183062.504116) can0 230#0100010000000080
(1699183062.504659) can0 111#08C0FFFF00001D00
(1699183062.504829) can0 100#0C30000000FF3200
(1699183062.505114) can0 56B#365E000000000000
(1699183062.507159) can0 380#1E0B091C00008505
(1699183062.507919) can0 220#FFE37F0000E60F
(1699183062.508093) can0 153#200010FF00FF709E
(1699183062.508373) can0 2A2#0400000000000000
(1699183062.508622) can0 331#0000000000000000
(1699183062.508826) can0 281#0000010000000000
(1699183062.509122) can0 316#78000000000D0026
(1699183062.509276) can0 329#205B0600002F0000
(1699183062.509616) can0 344#0000000000009403
(1699183062.509865) can0 382#0000FF3F106F0000
(1699183062.510114) can0 386#0000000000000000
(1699183062.510323) can0 450#000020
(1699183062.510582) can0 462#FE3FFF0F00000000
(1699183062.510827) can0 291#00000000FEAEAE00
(1699183062.510829) can0 471#440050000014
(1699183062.513549) can0 2B0#48FF0007B0
(1699183062.513562) can0 200#0000002D08781D40
(1699183062.513859) can0 201#8100000000000081
(1699183062.514117) can0 202#5E0000000000005E
(1699183062.514325) can0 230#0100010000000080
(1699183062.514609) can0 100#0C30000000FF3200
(1699183062.514862) can0 111#08C0FFFF00001D00
(1699183062.515111) can0 670#9411E015C4670200
(1699183062.515333) can0 51E#0000000000000000
(1699183062.515580) can0 570#004B21081D010000
(1699183062.515826) can0 588#5A0A000000670000
(1699183062.516074) can0 5AD#B7B810001E1F0000
(1699183062.516374) can0 5AE#3800671D2E000000
(1699183062.516624) can0 5F1#CC105A0A00000000
(1699183062.517179) can0 460#258A0654000A0000
(1699183062.517911) can0 220#FFE37F0000E50F
(1699183062.518099) can0 153#200010FF00FF80AE
(1699183062.518369) can0 2A2#0500000000000000
(1699183062.518620) can0 331#0000000000000000
(1699183062.518868) can0 281#0000010000000000
(1699183062.519074) can0 316#78000000000D0026
(1699183062.519326) can0 329#205B0600002F0000
(1699183062.519669) can0 344#0000000000009403
(1699183062.519871) can0 382#0000FF3F106F0000
(1699183062.520074) can0 394#00E0000000000200
(1699183062.520804) can0 291#00000000FEAEAE00
(1699183062.521014) can0 592#30C890D3510400C4
(1699183062.521303) can0 518#00000000000000C0
(1699183062.521563) can0 51C#0000000000007000
(1699183062.521896) can0 51D#0000000000000000
(1699183062.522087) can0 585#0060332C05000005
(1699183062.522337) can0 590#070016009400238D
(1699183062.522593) can0 59E#0000000000000000
(1699183062.522829) can0 59F#0000000000080000
(1699183062.523083) can0 2B0#48FF0007A1
(1699183062.523302) can0 200#0000002D08781F42
(1699183062.523558) can0 201#C1000000000000C1
(1699183062.523802) can0 202#7E0000000000007E
(1699183062.524050) can0 230#0100010000000080
(1699183062.524636) can0 111#08C0FFFF00001D00
(1699183062.524798) can0 100#0C30000000FF3200
(1699183062.527138) can0 380#1D0B091C00008505
(1699183062.527886) can0 220#FFE37F0000E20F
(1699183062.528051) can0 153#200010FF00FF90BE
(1699183062.528305) can0 2A2#0400000000000000
(1699183062.528599) can0 331#0000000000000000
(1699183062.528841) can0 281#0000010000000000
(1699183062.529014) can0 316#78000000000D0026
(1699183062.529272) can0 329#205B0600002F0000
(1699183062.529526) can0 344#0000000000009403
(1699183062.529777) can0 382#0000FF3F106F0000
(1699183062.530028) can0 386#0000000000000000
(1699183062.530542) can0 450#000000
(1699183062.530854) can0 291#00000000FEAEAE00
(1699183062.531075) can0 462#FE3FFF0F00000000
(1699183062.531348) can0 471#440040000018
(1699183062.531628) can0 50E#0000000000000000
(1699183062.531828) can0 520#0000000000000000
(1699183062.532120) can0 541#0340400000000000
(1699183062.532280) can0 54E#FF00000000FF0000
(1699183062.532606) can0 553#0000000000008000
(1699183062.533096) can0 576#FF1F1FFFFFFFFF0F
(1699183062.533374) can0 577#FFFFFFFFFFFF0F00
(1699183062.533584) can0 200#0000002D0878015C
(1699183062.533801) can0 201#0100000000000001
(1699183062.534074) can0 202#1E0000000000001E
(1699183062.534332) can0 230#0100010000000080
(1699183062.534333) can0 100#0C30000000FF3200
(1699183062.534560) can0 111#08C0FFFF00001D00
(1699183062.534802) can0 2B0#48FF000792
(1699183062.535050) can0 578#000000000000
(1699183062.535306) can0 57C#07FFFFFFFFFFFFFF
(1699183062.535558) can0 57D#F7FFFFFFFFFFFFFF
(1699183062.535803) can0 57E#F7FFFFFFFF3F0000
(1699183062.536313) can0 58A#7FFF3FFF3F0F0000
(1699183062.536561) can0 5A8#0000000000000000
(1699183062.536809) can0 5AB#0000000000000000
(1699183062.537048) can0 5DF#045A020000000000
(1699183062.537273) can0 460#258A0654000A0000
(1699183062.537538) can0 5EC#0000000000000000
(1699183062.537777) can0 220#FFE37F0000E40F
(1699183062.538019) can0 153#200010FF00FFA0CE
(1699183062.538275) can0 2A2#0500000000000000
(1699183062.538534) can0 331#0000000000000000
(1699183062.538775) can0 281#0000010000000000
(1699183062.539042) can0 316#78000000000D0026
(1699183062.539277) can0 329#205B0600002F0000
(1699183062.539535) can0 344#0000000000009403
(1699183062.539779) can0 382#0000FF3F106F0000
(1699183062.540020) can0 394#0000000000000000
(1699183062.540373) can0 490#01001000000000
(1699183062.540785) can0 291#00000000FEAEAE00
(1699183062.542821) can0 2B0#48FF000783
(1699183062.543279) can0 200#0000002D0878035E
(1699183062.543535) can0 201#4100000000000041
(1699183062.543777) can0 202#3E0000000000003E
(1699183062.544028) can0 230#0100010000000080
(1699183062.544655) can0 111#08C0FFFF00001D00
(1699183062.544834) can0 100#0C30000000FF3200
(1699183062.547152) can0 380#1E0B091C00008405
(1699183062.547831) can0 220#FFE37F0000E60F
(1699183062.548049) can0 153#200010FF00FFB0DE
(1699183062.548281) can0 2A2#0400000000000000
(1699183062.548630) can0 331#0000000000000000
(1699183062.548812) can0 281#0000010000000000
(1699183062.549157) can0 316#78000000000D0026
(1699183062.549373) can0 329#205B0600002F0000
(1699183062.549612) can0 344#0000000000009403
(1699183062.549857) can0 382#0000FF3F106F0000
(1699183062.550108) can0 386#0000000000000000
(1699183062.550407) can0 450#000000
(1699183062.550588) can0 462#FE3FFF0F00000000
(1699183062.550790) can0 291#00000000FEAEAE00
(1699183062.551021) can0 471#44005000005C
(1699183062.551289) can0 538#0000000002000000
(1699183062.551578) can0 56A#00C80001840288C7
(1699183062.553079) can0 523#6001604F61505800
(1699183062.553339) can0 2B0#47FF000704
(1699183062.553570) can0 200#0000002D08780558
(1699183062.553825) can0 201#8100000000000081
(1699183062.554098) can0 202#5E0000000000005E
(1699183062.554331) can0 230#0100010000000080
(1699183062.554584) can0 100#0C30000000FF3200
(1699183062.554772) can0 111#08C0FFFF00001D00
(1699183062.555024) can0 524#5050080128000000
(1699183062.555267) can0 52D#4C50000000000000
(1699183062.555522) can0 540#D648DA4800000000
(1699183062.557131) can0 460#258A0754000A0000
(1699183062.558044) can0 220#FFE37F0000E50F
(1699183062.558058) can0 153#200010FF00FFC0EE
(1699183062.558377) can0 2A2#0500000000000000
(1699183062.558609) can0 331#0000000000000000
(1699183062.558872) can0 281#0000010000000000
(1699183062.559103) can0 316#78000000000D0026
(1699183062.559379) can0 329#205B0600002F0000
(1699183062.559611) can0 344#0000000000009403
(1699183062.559791) can0 382#0000FF3F106F0000
(1699183062.560021) can0 394#0020000000000E00
(1699183062.560800) can0 291#00000000FEAEAE00
(1699183062.563151) can0 2B0#48FF0007E5
(1699183062.563345) can0 200#0000002D0878075A
(1699183062.563615) can0 201#C1000000000000C1
(1699183062.563867) can0 202#7E0000000000007E
(1699183062.564100) can0 230#0100010000000080
(1699183062.564589) can0 111#08C0FFFF00001D00
(1699183062.564858) can0 100#0C30000000FF3200
(1699183062.566099) can0 584#0100001519104631
(1699183062.567354) can0 380#1E0B091C00008406
(1699183062.567849) can0 220#FFC37F0000E20F
(1699183062.568117) can0 153#200010FF00FFD0FE
(1699183062.568288) can0 2A2#0400000000000000
(1699183062.568579) can0 331#0000000000000000
(1699183062.568868) can0 281#0000010000000000
(1699183062.569102) can0 316#78000000000D0026
(1699183062.569369) can0 329#205B0600002F0000
(1699183062.569604) can0 344#0000000000009403
(1699183062.569871) can0 382#0000FF3F106F0000
(1699183062.570099) can0 386#0000000000000000
(1699183062.570398) can0 507#00000001
(1699183062.570400) can0 450#000020
(1699183062.570531) can0 462#FE3FFF0F00000000
(1699183062.570917) can0 291#00000000FEAEAE00
(1699183062.571070) can0 471#440150000020
(1699183062.573374) can0 2B0#48FF0007D6
(1699183062.573533) can0 200#0000002D08780954
(1699183062.573932) can0 201#0100000000000001
(1699183062.574099) can0 202#1E0000000000001E
(1699183062.574387) can0 230#0100010000000080
(1699183062.574610) can0 111#08C0FFFF00001D00
(1699183062.574883) can0 100#0C30000000FF3200
(1699183062.577185) can0 460#258A0754000A0000
(1699183062.577936) can0 220#FFC37F0000E00F
(1699183062.578088) can0 153#200010FF00FFE00E
(1699183062.578390) can0 2A2#0500000000000000
(1699183062.578608) can0 331#0000000000000000
(1699183062.578904) can0 281#0000010000000000
(1699183062.579092) can0 316#78000000000D0026
(1699183062.579382) can0 329#205B0600002F0000
(1699183062.579643) can0 344#0000000000009403
(1699183062.579873) can0 382#0000FF3F106F0000
(1699183062.580090) can0 394#0040000000000C00
(1699183062.580897) can0 291#00000000FEAEAE00
(1699183062.582890) can0 2B0#48FF0007C7
(1699183062.583374) can0 200#0000002D08780B56
(1699183062.583611) can0 201#4100000000000041
(1699183062.583912) can0 202#3E0000000000003E
(1699183062.584047) can0 230#0100010000000080
(1699183062.584796) can0 111#08C0FFFF00001D00
(1699183062.584809) can0 100#0C30000000FF3200
(1699183062.587160) can0 380#1E0B091C00008406
(1699183062.587916) can0 220#FFE37F0000DD0F
(1699183062.588106) can0 153#200010FF00FF002E
(1699183062.588308) can0 2A2#0400000000000000
(1699183062.588788) can0 331#0000000000000000
(1699183062.588821) can0 281#0000010000000000
(1699183062.589183) can0 316#78000000000D0026
(1699183062.589337) can0 329#205B0600002F0000
(1699183062.589662) can0 344#0000000000009403
(1699183062.589885) can0 382#0000FF3F106F0000
(1699183062.590131) can0 386#0000000000000000
(1699183062.590386) can0 490#01001000000000
(1699183062.590596) can0 450#000000
(1699183062.590894) can0 462#FE3FFF0F00000000
(1699183062.591124) can0 291#00000000FEAEAE00
(1699183062.591125) can0 471#440050000024
(1699183062.593545) can0 2B0#48FF000738
(1699183062.593558) can0 200#0000002D08780D50
(1699183062.593843) can0 201#8100000000000081
(1699183062.594188) can0 202#5E0000000000005E
(1699183062.594300) can0 230#0100010000000080
(1699183062.594663) can0 100#0C30000000FF3200
(1699183062.594885) can0 111#08C0FFFF00001D00
(1699183062.597324) can0 460#258A0754000A0000
(1699183062.597938) can0 220#FFE37F0000DD0F
(1699183062.598053) can0 153#200010FF00FF103E
(1699183062.598396) can0 2A2#0500000000000000
(1699183062.598611) can0 331#0000000000000000
(1699183062.598903) can0 281#0000010000000000
(1699183062.599121) can0 316#78000000000D0026
(1699183062.599385) can0 329#205B0600002F0000
(1699183062.599612) can0 344#0000000000009403
(1699183062.599910) can0 382#0000FF3F106F0000
(1699183062.600047) can0 394#0060000000000A00
(1699183062.600309) can0 549#33805411E2205400
(1699183062.600788) can0 556#0074000000290000
(1699183062.600820) can0 291#00000000FEAEAE00
(1699183062.601142) can0 557#808000005A930000
(1699183062.601392) can0 560#58A62025180B019C
(1699183062.601634) can0 561#40636073431F003D
(1699183062.602935) can0 2B0#48FF000729
(1699183062.603403) can0 200#0000002D08780F52
(1699183062.603644) can0 201#C1000000000000C1
(1699183062.603878) can0 202#7E0000000000007E
(1699183062.604136) can0 230#0100010000000080
(1699183062.604825) can0 111#08C0FFFF00001D00
(1699183062.604838) can0 100#0C30000000FF3200
(1699183062.605119) can0 56B#365E000000000000
(1699183062.607184) can0 380#1E0B091C00008406
(1699183062.607946) can0 220#FEE37F0000DD0F
(1699183062.608050) can0 153#200010FF00FF204E
(1699183062.608306) can0 2A2#0400000000000000
(1699183062.608670) can0 331#0000000000000000
(1699183062.608882) can0 281#0000010000000000
(1699183062.609114) can0 316#78000000000D0026
(1699183062.609353) can0 329#205B0600002F0000
(1699183062.609562) can0 344#0000000000009403
(1699183062.609796) can0 382#0000FF3F106F0000
(1699183062.610045) can0 386#0000000000000000
(1699183062.610288) can0 450#000020
(1699183062.610547) can0 462#FE3FFF0F00000000
(1699183062.610788) can0 570#004C21081D010000
(1699183062.611045) can0 291#00000000FEAEAE00
(1699183062.611288) can0 471#440050000028
(1699183062.613377) can0 2B0#48FF00071A
(1699183062.613647) can0 200#0000002D0878114C
(1699183062.613889) can0 201#0100000000000001
(1699183062.614130) can0 202#1E0000000000001E
(1699183062.614378) can0 230#0100010000000080
(1699183062.614638) can0 100#0C30000000FF3200
(1699183062.614880) can0 111#08C0FFFF00001D00
(1699183062.615045) can0 51E#0000000000000000
(1699183062.615289) can0 587#0000000000000009
(1699183062.615547) can0 588#5A0A000000670000
(1699183062.615789) can0 5AD#B7B810001E1F0000
(1699183062.616198) can0 5AE#D300671D2E000000
(1699183062.616291) can0 5F1#CC105A0A00000000
(1699183062.616640) can0 670#9411E015C4670200
(1699183062.617315) can0 460#258A0654000A0000
(1699183062.618077) can0 220#FFE37F0000DD0F
(1699183062.618090) can0 153#200010FF00FF305E
(1699183062.618383) can0 2A2#0500000000000000
(1699183062.618647) can0 331#0000000000000000
(1699183062.618875) can0 281#0000010000000000
(1699183062.619136) can0 316#78000000000D0026
(1699183062.619368) can0 329#205B0600002F0000
(1699183062.619659) can0 344#0000000000009403
(1699183062.619790) can0 382#0000FF3F106F0000
(1699183062.620045) can0 394#0080000000000800
(1699183062.620827) can0 291#00000000FEAEAE00
(1699183062.621124) can0 592#30C890D351040004
(1699183062.621387) can0 518#00000000000000C0
(1699183062.621637) can0 51C#0000000000007000
(1699183062.621873) can0 51D#0000000000000000
(1699183062.622129) can0 585#0060332C05000005
(1699183062.622374) can0 590#070016009400238D
(1699183062.622549) can0 59E#0000000000000000
(1699183062.622790) can0 59F#0000000000080000
(1699183062.622791) can0 2B0#49FF00071B
(1699183062.623326) can0 200#0000002D0878134E
(1699183062.623547) can0 201#4100000000000041
(1699183062.623936) can0 202#3E0000000000003E
(1699183062.624098) can0 230#0100010000000080
(1699183062.624655) can0 111#08C0FFFF00001D00
(1699183062.624850) can0 100#0C30000000FF3200
(1699183062.627461) can0 380#1D0B091C00008505
(1699183062.627944) can0 220#FFE37F0000DD0F
(1699183062.628040) can0 153#200010FF00FF406E
(1699183062.628353) can0 2A2#0400000000000000
(1699183062.628651) can0 331#0000000000000000
(1699183062.628849) can0 281#0000010000000000
(1699183062.629316) can0 316#78000000000D0026
(1699183062.629329) can0 329#205B0600002F0000
(1699183062.629641) can0 344#0000000000009403
(1699183062.629874) can0 382#0000FF3F106F0000
(1699183062.630132) can0 386#0000000000000000
(1699183062.630374) can0 450#000020
(1699183062.631075) can0 462#FE3FFF0F00000000
(1699183062.631076) can0 291#00000000FEAEAE00
(1699183062.631090) can0 471#44004000006C
(1699183062.631381) can0 520#0000000000000000
(1699183062.631643) can0 541#0340400000000000
(1699183062.631791) can0 578#000000000000
(1699183062.632312) can0 5EC#0000000000000000
(1699183062.633326) can0 2B0#46FF00079C
(1699183062.633638) can0 200#0000002D08781548
(1699183062.633880) can0 201#8100000000000081
(1699183062.634136) can0 202#5E0000000000005E
(1699183062.634379) can0 230#0100010000000080
(1699183062.634634) can0 111#08C0FFFF00001D00
(1699183062.634879) can0 100#0C30000000FF3200
(1699183062.637305) can0 460#258A0654000A0000
(1699183062.637818) can0 220#FFE37F0000DD0F
(1699183062.638053) can0 153#200010FF00FF507E
(1699183062.638310) can0 2A2#0500000000000000
(1699183062.638561) can0 331#0000000000000000
(1699183062.638832) can0 281#0000010000000000
(1699183062.639056) can0 316#78000000000D0026
(1699183062.639302) can0 329#205B0600002F0000
(1699183062.639556) can0 344#0000000000009403
(1699183062.639799) can0 382#0000FF3F106F0000
(1699183062.640055) can0 394#00A0000000000600
(1699183062.640299) can0 490#01001000000000
(1699183062.640808) can0 291#00000000FEAEAE00
(1699183062.642816) can0 2B0#48FF00076D
(1699183062.643301) can0 200#0000002D0878174A
(1699183062.643557) can0 201#C1000000000000C1
(1699183062.643799) can0 202#7E0000000000007E
(1699183062.644054) can0 230#0100010000000080
(1699183062.644558) can0 111#08C0FFFF00001D00
(1699183062.644799) can0 100#0C30000000FF3200
(1699183062.647060) can0 380#1D0B091C00008505
(1699183062.647808) can0 220#FFE37F0000DD0F
(1699183062.648048) can0 153#200010FF00FF608E
(1699183062.648304) can0 2A2#0400000000000000
(1699183062.648565) can0 331#0000000000000000
(1699183062.648798) can0 281#0000010000000000
(1699183062.649053) can0 316#78000000000D0026
(1699183062.649301) can0 329#205B0600002F0000
(1699183062.649557) can0 344#0000000000009403
(1699183062.649801) can0 382#0000FF3F106F0000
(1699183062.650056) can0 386#0000000000000000
(1699183062.650298) can0 450#000000
(1699183062.650551) can0 462#FE3FFF0F00000000
(1699183062.650800) can0 538#0000000002000000
(1699183062.651055) can0 291#00000000FEAEAE00
(1699183062.651294) can0 471#440050000070
(1699183062.651296) can0 56A#00C80001840388C6
(1699183062.653310) can0 523#6001604F61505800
(1699183062.653550) can0 200#0000002D08781944
(1699183062.653793) can0 201#0100000000000001
(1699183062.653794) can0 202#1E0000000000001E
(1699183062.654050) can0 230#0100010000000080
(1699183062.654291) can0 2B0#48FF00075E
(1699183062.654548) can0 100#0C30000000FF3200
(1699183062.654789) can0 111#08C0FFFF00001D00
(1699183062.655055) can0 524#5050080128000000
(1699183062.655296) can0 52D#4C50000000000000
(1699183062.657111) can0 460#258A0654000A0000
(1699183062.657885) can0 220#FFE37F0000DD0F
(1699183062.658074) can0 153#200010FF00FF709E
(1699183062.658331) can0 2A2#0500000000000000
(1699183062.658587) can0 331#0000000000000000
(1699183062.658816) can0 281#0000010000000000
(1699183062.659073) can0 316#78000000000D0026
(1699183062.659289) can0 329#205B0600002F0000
(1699183062.659592) can0 344#0000000000009403
(1699183062.659833) can0 382#0000FF3F106F0000
(1699183062.660051) can0 394#00C0000000000400
(1699183062.660805) can0 291#00000000FEAEAE00
(1699183062.662811) can0 2B0#48FF00074F
(1699183062.663313) can0 200#0000002D08781B46
(1699183062.663592) can0 201#4100000000000041
(1699183062.663833) can0 202#3E0000000000003E
(1699183062.664069) can0 230#0100010000000080
(1699183062.664593) can0 111#08C0FFFF00001D00
(1699183062.664833) can0 100#0C30000000FF3200
(1699183062.666093) can0 584#010000151920344B
(1699183062.667092) can0 380#1D0B091C00008506
(1699183062.667819) can0 220#FFE37F0000DD0F
(1699183062.668048) can0 153#200010FF00FF80AE
(1699183062.668305) can0 2A2#0400000000000000
(1699183062.668546) can0 331#0000000000000000
(1699183062.668834) can0 281#0000010000000000
(1699183062.669046) can0 316#78000000000D0026
(1699183062.669294) can0 329#205B0600002F0000
(1699183062.669619) can0 344#0000000000009403
(1699183062.669841) can0 382#0000FF3F106F0000
(1699183062.670097) can0 386#0000000000000000
(1699183062.670364) can0 507#00000001
(1699183062.670365) can0 450#000000
(1699183062.670580) can0 462#FE3FFF0F00000000
(1699183062.670823) can0 291#00000000FEAEAE00
(1699183062.671079) can0 471#440050000074
(1699183062.673350) can0 2B0#49FF0007A0
(1699183062.673351) can0 200#0000002D08781D40
(1699183062.673593) can0 201#8100000000000081
(1699183062.673831) can0 202#5E0000000000005E
(1699183062.674086) can0 230#0100010000000080
(1699183062.674331) can0 100#0C30000000FF3200
(1699183062.674590) can0 111#08C0FFFF00001D00
(1699183062.677116) can0 460#258A0754000A0000
(1699183062.677840) can0 220#FFE37F0000DD0F
(1699183062.678081) can0 153#200010FF00FF90BE
(1699183062.678338) can0 2A2#0500000000000000
(1699183062.678611) can0 331#0000000000000000
(1699183062.678828) can0 281#0000010000000000
(1699183062.679089) can0 316#78000000000D0026
(1699183062.679286) can0 329#205B0600002F0000
(1699183062.679546) can0 344#0000000000009403
(1699183062.679792) can0 382#0000FF3F106F0000
(1699183062.680037) can0 394#00E0000000000200
(1699183062.680797) can0 291#00000000FEAEAE00
(1699183062.682838) can0 2B0#48FF0007A1
(1699183062.683325) can0 200#0000002D08781F42
(1699183062.683594) can0 201#C1000000000000C1
(1699183062.683825) can0 202#7E0000000000007E
(1699183062.684073) can0 230#0100010000000080
(1699183062.684581) can0 111#08C0FFFF00001D00
(1699183062.684823) can0 100#0C30000000FF3200
(1699183062.687086) can0 380#1E0B091C00008506
(1699183062.687839) can0 220#FFE37F0000DD0F
(1699183062.688066) can0 153#200010FF00FFA0CE
(1699183062.688339) can0 2A2#0400000000000000
(1699183062.688581) can0 331#0000000000000000
(1699183062.688825) can0 281#0000010000000000
(1699183062.689081) can0 316#78000000000D0026
(1699183062.689346) can0 329#205B0600002F0000
(1699183062.689561) can0 344#0000000000009403
(1699183062.689824) can0 382#0000FF3F106F0000
(1699183062.690042) can0 386#0000000000000000
(1699183062.690288) can0 490#01001000000000
(1699183062.690543) can0 450#000020
(1699183062.690810) can0 462#FE3FFF0F00000000
(1699183062.691043) can0 291#00000000FEAEAE00
(1699183062.691043) can0 471#440050000078
(1699183062.693394) can0 2B0#48FF000792
(1699183062.693681) can0 200#0000002D0878015C
(1699183062.693935) can0 201#0100000000000001
(1699183062.694152) can0 202#1E0000000000001E
(1699183062.694412) can0 230#0100010000000080
(1699183062.694654) can0 100#0C30000000FF3200
(1699183062.694951) can0 111#08C0FFFF00001D00
(1699183062.697210) can0 460#258A0754000A0000
(1699183062.697832) can0 220#FFE37F0000DD0F
(1699183062.698203) can0 153#200010FF00FFB0DE
(1699183062.698376) can0 2A2#0500000000000000
(1699183062.698686) can0 331#0000000000000000
(1699183062.698927) can0 281#0000010000000000
(1699183062.699125) can0 316#78000000000D0026
(1699183062.699425) can0 329#205B0600002F0000
(1699183062.699663) can0 344#0000000000009403
(1699183062.699914) can0 382#0000FF3F106F0000
(1699183062.700143) can0 394#0000000000000000
(1699183062.700349) can0 549#3480540EE2205400
(1699183062.700689) can0 556#0074000000290000
(1699183062.700936) can0 557#808000005A930000
(1699183062.701079) can0 291#00000000FEAEAE00
(1699183062.701347) can0 560#98A62025180B019C
(1699183062.701583) can0 561#40636073431F003D
(1699183062.702794) can0 2B0#48FF000783
(1699183062.703312) can0 200#0000002D0878035E
(1699183062.703543) can0 201#4100000000000041
(1699183062.703810) can0 202#3E0000000000003E
(1699183062.704041) can0 230#0100010000000080
(1699183062.704310) can0 111#08C0FFFF00001D00
(1699183062.704582) can0 100#0C30000000FF3200
(1699183062.704847) can0 56B#365E000000000000
(1699183062.706178) can0 570#004C21081D010000
(1699183062.707477) can0 380#1E0B091C00008505
(1699183062.707960) can0 220#FFE37F0000DD0F
(1699183062.708161) can0 153#200010FF00FFC0EE
(1699183062.708343) can0 2A2#0400000000000000
(1699183062.708695) can0 331#0000000000000000
(1699183062.708932) can0 281#0000010000000000
(1699183062.709162) can0 316#78000000000D0026
(1699183062.709459) can0 329#205B0600002F0000
(1699183062.709542) can0 344#0000000000009403
(1699183062.709908) can0 382#0000FF3F106F0000
(1699183062.710175) can0 386#0000000000000000
(1699183062.710444) can0 450#000020
(1699183062.710643) can0 462#FE3FFF0F00000000
(1699183062.710882) can0 471#4400500000BC
(1699183062.711180) can0 291#00000000FEAEAE00
(1699183062.713444) can0 2B0#46FF000714
(1699183062.713669) can0 200#0000002D08780558
(1699183062.713967) can0 201#8100000000000081
(1699183062.714190) can0 202#5E0000000000005E
(1699183062.714347) can0 230#0100010000000080
(1699183062.714543) can0 100#0C30000000FF3200
(1699183062.715009) can0 111#08C0FFFF00001D00
(1699183062.715041) can0 670#9411E015C4670200
(1699183062.715476) can0 51E#0000000000000000
(1699183062.715642) can0 588#5A0A000000670000
(1699183062.715995) can0 5AD#B7B810001E1F0000
(1699183062.715996) can0 5AE#D300671D2E000000
(1699183062.716059) can0 5F1#CC105A0A00000000
(1699183062.717266) can0 460#258A0654000A0000
(1699183062.717832) can0 344#0000000000009403
(1699183062.718096) can0 153#200010FF00FFD0FE
(1699183062.718328) can0 220#FEE37F0000DD0F
(1699183062.718579) can0 2A2#0500000000000000
(1699183062.718846) can0 281#0000010000000000
(1699183062.719079) can0 316#78000000000D0026
(1699183062.719366) can0 329#205B0600002F0000
(1699183062.719539) can0 331#0000000000000000
(1699183062.719806) can0 382#0000FF3F106F0000
(1699183062.720063) can0 394#0020000000000E00
(1699183062.720824) can0 291#00000000FEAEAE00
(1699183062.721081) can0 518#00000000000000C0
(1699183062.721325) can0 51C#0000000000007000
(1699183062.721692) can0 51D#0000000000000000
(1699183062.721948) can0 585#0060332C05000005
(1699183062.722149) can0 590#070016009400238D
(1699183062.722456) can0 592#30C890D351040044
(1699183062.722662) can0 59E#0000000000000000
(1699183062.722928) can0 2B0#48FF0007E5
(1699183062.723108) can0 59F#0000000000080000
(1699183062.723446) can0 200#0000002D0878075A
(1699183062.723664) can0 201#C1000000000000C1
(1699183062.723955) can0 202#7E0000000000007E
(1699183062.724133) can0 230#0100010000000080
(1699183062.724682) can0 111#08C0FFFF00001D00
(1699183062.724935) can0 100#0C30000000FF3200
(1699183062.727185) can0 380#1D0B091C00008505
(1699183062.727911) can0 344#0000000000009403
(1699183062.728214) can0 153#200010FF00FFE00E
(1699183062.728388) can0 220#FFE37F0000DD0F
(1699183062.728701) can0 2A2#0400000000000000
(1699183062.728924) can0 281#0000010000000000
(1699183062.729221) can0 316#78000000000D0026
(1699183062.729403) can0 329#205B0600002F0000
(1699183062.729704) can0 331#0000000000000000
(1699183062.729922) can0 382#0000FF3F106F0000
(1699183062.730175) can0 386#0000000000000000
(1699183062.730864) can0 450#000000
(1699183062.730875) can0 462#FE3FFF0F00000000
(1699183062.731084) can0 291#00000000FEAEAE00
(1699183062.731482) can0 471#440040000000
(1699183062.731624) can0 50E#0000000000000000
(1699183062.732012) can0 520#0000000000000000
(1699183062.732136) can0 541#0340400000000000
(1699183062.732388) can0 54E#FF00000000FF0000
(1699183062.732543) can0 553#0000000000008000
(1699183062.733249) can0 576#FF1F1FFFFFFFFF0F
(1699183062.733399) can0 577#FFFFFFFFFFFF0F00
(1699183062.733542) can0 200#0000002D08780954
(1699183062.734076) can0 201#0100000000000001
(1699183062.734084) can0 202#1E0000000000001E
(1699183062.734355) can0 230#0100010000000080
(1699183062.734356) can0 2B0#46FF000736
(1699183062.734585) can0 100#0C30000000FF3200
(1699183062.734854) can0 111#08C0FFFF00001D00
(1699183062.735083) can0 578#000000000000
(1699183062.735347) can0 57C#07FFFFFFFFFFFFFF
(1699183062.735581) can0 57D#F7FFFFFFFFFFFFFF
(1699183062.735840) can0 57E#F7FFFFFFFF3F0000
(1699183062.736094) can0 58A#7FFF3FFF3F0F0000
(1699183062.736563) can0 5A8#0000000000000000
(1699183062.736810) can0 5AB#0000000000000000
(1699183062.737067) can0 5D0#E11C070000000000
(1699183062.737309) can0 460#258A0654000A0000
(1699183062.737615) can0 5D3#0F00000000000000
(1699183062.737849) can0 5D4#0F00000000000000
(1699183062.738093) can0 153#200010FF00FF002E
(1699183062.738342) can0 220#FFE37F0000E10F
(1699183062.738686) can0 2A2#0500000000000000
(1699183062.738941) can0 281#0000010000000000
(1699183062.739203) can0 316#78000000000D0026
(1699183062.739429) can0 329#205B0600002F0000
(1699183062.739667) can0 331#0000000000000000
(1699183062.739808) can0 344#0000000000009403
(1699183062.740127) can0 382#0000FF3F106F0000
(1699183062.740354) can0 394#0040000000000C00
(1699183062.740704) can0 5DF#045A020000000000
(1699183062.740893) can0 490#01001000000000
(1699183062.741199) can0 291#00000000FEAEAE00
(1699183062.741401) can0 5EC#0000000000000000
(1699183062.742952) can0 2B0#48FF0007C7
(1699183062.743449) can0 200#0000002D08780B56
(1699183062.743617) can0 201#4100000000000041
(1699183062.743925) can0 202#3E0000000000003E
(1699183062.744189) can0 230#0100010000000080
(1699183062.744701) can0 111#08C0FFFF00001D00
(1699183062.744900) can0 100#0C30000000FF3200
(1699183062.747253) can0 380#1D0B091C00008405
(1699183062.747857) can0 344#0000000000009403
(1699183062.748224) can0 153#200010FF00FF103E
(1699183062.748384) can0 220#FEE37F0000E40F
(1699183062.748717) can0 2A2#0400000000000000
(1699183062.748898) can0 281#0000010000000000
(1699183062.749219) can0 316#78000000000D0026
(1699183062.749425) can0 329#205B0600002F0000
(1699183062.749703) can0 331#0000000000000000
(1699183062.749941) can0 382#0000FF3F106F0000
(1699183062.750192) can0 386#0000000000000000
(1699183062.750443) can0 450#000020
(1699183062.750567) can0 462#FE3FFF0F00000000
(1699183062.750808) can0 538#0000000002000000
(1699183062.751100) can0 291#00000000FEAEAE00
(1699183062.751344) can0 471#440050000004
(1699183062.751345) can0 56A#00C80001840488C1
(1699183062.753325) can0 523#6001604F61505800
(1699183062.753569) can0 200#0000002D08780D50
(1699183062.753811) can0 201#8100000000000081
(1699183062.754109) can0 202#5E0000000000005E
(1699183062.754343) can0 230#0100010000000080
(1699183062.754600) can0 100#0C30000000FF3200
(1699183062.754813) can0 111#08C0FFFF00001D00
(1699183062.754813) can0 2B0#46FF0007D8
(1699183062.755099) can0 524#5050080128000000
(1699183062.755429) can0 52D#4C50000000000000
(1699183062.755680) can0 540#DB48DA4800000000
(1699183062.757186) can0 460#258A0654000A0000
(1699183062.757937) can0 344#0000000000009403
(1699183062.758183) can0 153#200010FF00FF204E
(1699183062.758363) can0 220#FEE37F0000E40F
(1699183062.758669) can0 2A2#0500000000000000
(1699183062.758885) can0 281#0000010000000000
(1699183062.759142) can0 316#78000000000D0026
(1699183062.759405) can0 329#205B0600002F0000
(1699183062.759646) can0 331#0000000000000000
(1699183062.759884) can0 382#0000FF3F106F0000
(1699183062.760160) can0 394#0060000000000A00
(1699183062.760919) can0 291#00000000FEAEAE00
(1699183062.762965) can0 2B0#48FF000729
(1699183062.763434) can0 200#0000002D08780F52
(1699183062.763655) can0 201#C1000000000000C1
(1699183062.763963) can0 202#7E0000000000007E
(1699183062.764157) can0 230#0100010000000080
(1699183062.764353) can0 111#08C0FFFF00001D00
(1699183062.764588) can0 100#0C30000000FF3200
(1699183062.766209) can0 584#0100001519304146
(1699183062.767387) can0 380#1D0B091B00008405
(1699183062.767866) can0 344#0000000000009403
(1699183062.768119) can0 153#200010FF00FF305E
(1699183062.768363) can0 220#FFE37F0000E10F
(1699183062.768648) can0 2A2#0400000000000000
(1699183062.768857) can0 281#0000010000000000
(1699183062.769115) can0 316#78000000000D0026
(1699183062.769357) can0 329#205B0600002F0000
(1699183062.769615) can0 331#0000000000000000
(1699183062.769813) can0 382#0000FF3F106F0000
(1699183062.770072) can0 386#0000000000000000
(1699183062.770073) can0 507#00000001
(1699183062.770315) can0 450#000000
(1699183062.770572) can0 462#FE3FFF0F00000000
(1699183062.770813) can0 471#440050000008
(1699183062.771070) can0 291#00000000FEAEAE00
(1699183062.773371) can0 2B0#48FF00071A
(1699183062.773631) can0 200#0000002D0878114C
(1699183062.773847) can0 201#0100000000000001
(1699183062.774106) can0 202#1E0000000000001E
(1699183062.774375) can0 230#0100010000000080
(1699183062.774605) can0 100#0C30000000FF3200
(1699183062.774606) can0 111#08C0FFFF00001D00
(1699183062.777405) can0 460#258A0654000A0000
(1699183062.777900) can0 344#0000000000009403
(1699183062.778140) can0 153#200010FF00FF406E
(1699183062.778397) can0 220#FFE37F0000DF0F
(1699183062.778653) can0 2A2#0500000000000000
(1699183062.778904) can0 281#0000010000000000
(1699183062.779133) can0 316#78000000000D0026
(1699183062.779372) can0 329#205B0600002F0000
(1699183062.779631) can0 331#0000000000000000
(1699183062.779872) can0 382#0000FF3F106F0000
(1699183062.780129) can0 394#0080000000000800
(1699183062.780906) can0 291#00000000FEAEAE00
(1699183062.782865) can0 2B0#48FF00070B
(1699183062.783416) can0 200#0000002D0878134E
(1699183062.783642) can0 201#4100000000000041
(1699183062.783851) can0 202#3E0000000000003E
(1699183062.784107) can0 230#0100010000000080
(1699183062.784698) can0 111#08C0FFFF00001D00
(1699183062.784817) can0 100#0C30000000FF3200
(1699183062.787146) can0 380#1D0B091B00008406
(1699183062.787840) can0 344#0000000000009403
(1699183062.788074) can0 153#200010FF00FF507E
(1699183062.788330) can0 220#FFE37F0000E10F
(1699183062.788580) can0 2A2#0400000000000000
(1699183062.788822) can0 281#0000010000000000
(1699183062.789080) can0 316#78000000000D0026
(1699183062.789322) can0 329#205B0600002F0000
(1699183062.789579) can0 331#0000000000000000
(1699183062.789821) can0 382#0000FF3F106F0000
(1699183062.790080) can0 386#0000000000000000
(1699183062.790323) can0 490#01001000000000
(1699183062.790325) can0 450#000000
(1699183062.790574) can0 462#FE3FFF0F00000000
(1699183062.790815) can0 291#00000000FEAEAE00
(1699183062.791078) can0 471#44005000004C
(1699183062.793138) can0 2B0#48FF00077C
(1699183062.793373) can0 200#0000002D08781548
(1699183062.793629) can0 201#8100000000000081
(1699183062.793874) can0 202#5E0000000000005E
(1699183062.794091) can0 230#0100010000000080
(1699183062.794317) can0 111#08C0FFFF00001D00
(1699183062.794581) can0 100#0C30000000FF3200
(1699183062.797170) can0 460#258A0754000A0000
(1699183062.797890) can0 344#0000000000009403
(1699183062.798140) can0 153#200010FF00FF608E
(1699183062.798329) can0 220#FFE37F0000E40F
(1699183062.798655) can0 2A2#0500000000000000
(1699183062.798898) can0 281#0000010000000000
(1699183062.799149) can0 316#78000000000D0026
(1699183062.799397) can0 329#205B0600002F0000
(1699183062.799652) can0 331#0000000000000000
(1699183062.799816) can0 382#0000FF3F106F0000
(1699183062.800072) can0 394#00A0000000000600
(1699183062.800334) can0 549#3580540CE2205400
(1699183062.800582) can0 556#0074000000290000
(1699183062.800583) can0 557#808000005A930000
(1699183062.800874) can0 291#00000000FEAEAE00
(1699183062.801131) can0 560#D8A62025180B019C
(1699183062.801374) can0 561#40636073431F003D
(1699183062.801632) can0 570#004C21081D010000
(1699183062.802887) can0 2B0#48FF00076D
(1699183062.803317) can0 200#0000002D0878174A
(1699183062.803574) can0 201#C1000000000000C1
(1699183062.803821) can0 202#7E0000000000007E
(1699183062.804083) can0 230#0100010000000080
(1699183062.804588) can0 111#08C0FFFF00001D00
(1699183062.804827) can0 100#0C30000000FF3200
(1699183062.804829) can0 56B#365E000000000000
(1699183062.807093) can0 380#1D0B091C00008405
(1699183062.807842) can0 344#0000000000009403
(1699183062.808074) can0 153#200010FF00FF709E
(1699183062.808332) can0 220#FFE37F0000E60F
(1699183062.808578) can0 2A2#0400000000000000
(1699183062.808815) can0 281#0000010000000000
(1699183062.809073) can0 316#78000000000D0026
(1699183062.809320) can0 329#205B0600002F0000
(1699183062.809580) can0 331#0000000000000000
(1699183062.809825) can0 382#0000FF3F106F0000
(1699183062.810076) can0 386#0000000000000000
(1699183062.810316) can0 450#000020
(1699183062.810579) can0 462#FE3FFF0F00000000
(1699183062.810892) can0 471#440050000010
(1699183062.811156) can0 291#00000000FEAEAE00
(1699183062.813414) can0 2B0#47FF0007AE
(1699183062.813667) can0 200#0000002D08781944
(1699183062.813910) can0 201#0100000000000001
(1699183062.814154) can0 202#1E0000000000001E
(1699183062.814317) can0 230#0100010000000080
(1699183062.814633) can0 100#0C30000000FF3200
(1699183062.814830) can0 111#08C0FFFF00001D00
(1699183062.815139) can0 587#000000000000000A
(1699183062.815140) can0 51E#0000000000000000
(1699183062.815417) can0 588#5A0A000000670000
(1699183062.815633) can0 5AD#B7B810001E1F0000
(1699183062.815905) can0 5AE#3800671D2E000000
(1699183062.816158) can0 5F1#CC105A0A00000000
(1699183062.816329) can0 670#9411E015C4670200
(1699183062.817104) can0 460#258A0654000A0000
(1699183062.817884) can0 344#0000000000009403
(1699183062.818149) can0 153#200010FF00FF80AE
(1699183062.818379) can0 220#FEE37F0000E50F
(1699183062.818580) can0 2A2#0500000000000000
(1699183062.818874) can0 281#0000010000000000
(1699183062.819131) can0 316#78000000000D0026
(1699183062.819374) can0 329#205B0600002F0000
(1699183062.819632) can0 331#0000000000000000
(1699183062.819822) can0 382#0000FF3F106F0000
(1699183062.820071) can0 394#00C0000000000400
(1699183062.820844) can0 291#00000000FEAEAE00
(1699183062.821078) can0 518#00000000000000C0
(1699183062.821334) can0 51C#0000000000007000
(1699183062.821585) can0 51D#0000000000000000
(1699183062.821828) can0 585#0060332C05000005
(1699183062.822082) can0 590#070015009400238D
(1699183062.822327) can0 592#30C890D351040084
(1699183062.822592) can0 59E#0000000000000000
(1699183062.822829) can0 2B0#47FF0007BF
(1699183062.823078) can0 59F#0000000000080000
(1699183062.823325) can0 200#0000002D08781B46
(1699183062.823582) can0 201#4100000000000041
