(1699279623.057773) can0 386#0000000000000000
(1699279623.077730) can0 386#0000000000000000
(1699279623.097774) can0 386#0000000000000000
(1699279623.117674) can0 386#0000000000000000
(1699279623.137798) can0 386#0000000000000000
(1699279623.157777) can0 386#0000000000000000
(1699279623.177783) can0 386#0000000000000000
(1699279623.197972) can0 386#0000000000000000
(1699279623.217958) can0 386#0000000000000000
(1699279623.237807) can0 386#0000000000000000
(1699279623.257775) can0 386#0000000000000000
(1699279623.277765) can0 386#0000000000000000
(1699279623.297805) can0 386#0000000000000000
(1699279623.317824) can0 386#0000000000000000
(1699279623.337962) can0 386#0000000000000000
(1699279623.357738) can0 386#0000000000000000
(1699279623.377780) can0 386#0000000000000000
(1699279623.397754) can0 386#0000000000000000
(1699279623.417818) can0 386#0000000000000000
(1699279623.437844) can0 386#0000000000000000
(1699279623.457839) can0 386#0000000000000000
(1699279623.477844) can0 386#0000000000000000
(1699279623.497830) can0 386#0000000000000000
(1699279623.517831) can0 386#0000000000000000
(1699279623.537834) can0 386#0000000000000000
(1699279623.557829) can0 386#0000000000000000
(1699279623.577845) can0 386#0000000000000000
(1699279623.597865) can0 386#0000000000000000
(1699279623.617866) can0 386#0000000000000000
(1699279623.637869) can0 386#0000000000000000
(1699279623.657787) can0 386#0000000000000000
(1699279623.677873) can0 386#0000000000000000
(1699279623.697834) can0 386#0000000000000000
(1699279623.717837) can0 386#0000000000000000
(1699279623.737888) can0 386#0000000000000000
(1699279623.757879) can0 386#0000000000000000
(1699279623.777882) can0 386#0000000000000000
(1699279623.797862) can0 386#0000000000000000
(1699279623.817899) can0 386#0000000000000000
(1699279623.837861) can0 386#0000000000000000
(1699279623.857862) can0 386#0000000000000000
(1699279623.877851) can0 386#0000000000000000
(1699279623.897906) can0 386#0000000000000000
(1699279623.917904) can0 386#0000000000000000
(1699279623.937885) can0 386#0000000000000000
(1699279623.957929) can0 386#0000000000000000
(1699279623.977889) can0 386#0000000000000000
(1699279623.997874) can0 386#0000000000000000
(1699279624.017888) can0 386#0000000000000000
(1699279624.037932) can0 386#0000000000000000
(1699279624.057935) can0 386#0000000000000000
(1699279624.077952) can0 386#0000000000000000
(1699279624.097954) can0 386#0000000000000000
(1699279624.117961) can0 386#0000000000000000
(1699279624.137946) can0 386#0000000000000000
(1699279624.157953) can0 386#0000000000000000
(1699279624.177930) can0 386#0000000000000000
(1699279624.197952) can0 386#0000000000000000
(1699279624.217944) can0 386#0000000000000000
(1699279624.237965) can0 386#0000000000000000
(1699279624.257901) can0 386#0000000000000000
(1699279624.277975) can0 386#0000000000000000
(1699279624.297970) can0 386#0000000000000000
(1699279624.318099) can0 386#0000000000000000
(1699279624.337938) can0 386#0000000000000000
(1699279624.357918) can0 386#0000000000000000
(1699279624.378038) can0 386#0000000000000000
(1699279624.398009) can0 386#0000000000000000
(1699279624.418014) can0 386#0000000000000100
(1699279624.438018) can0 386#0000000000000100
(1699279624.458008) can0 386#0000000001000100
(1699279624.478010) can0 386#0000000001000100
(1699279624.498024) can0 386#0000000001000100
(1699279624.518025) can0 386#0000000001000100
(1699279624.538025) can0 386#0000000001000100
(1699279624.558061) can0 386#0000000001000100
(1699279624.577987) can0 386#0000000001000100
(1699279624.598022) can0 386#0100000001000100
(1699279624.617968) can0 386#0100000001000100
(1699279624.638010) can0 386#0100000001000100
(1699279624.657958) can0 386#0100010001000100
(1699279624.678058) can0 386#0100010001000100
(1699279624.698060) can0 386#0100010001000100
(1699279624.718055) can0 386#0100010001000100
(1699279624.738009) can0 386#0100010001000100
(1699279624.758039) can0 386#0100010001000100
(1699279624.777957) can0 386#0100010001000100
(1699279624.798062) can0 386#0100010001000100
(1699279624.818079) can0 386#0100010001000100
(1699279624.838082) can0 386#0100010001000100
(1699279624.857991) can0 386#0100010001000100
(1699279624.878087) can0 386#0100010001000100
(1699279624.898044) can0 386#0100010001000100
(1699279624.918045) can0 386#0100010001000100
(1699279624.938083) can0 386#0100010001000100
(1699279624.958022) can0 386#0100010001000100
(1699279624.978103) can0 386#0100010001000100
(1699279624.998069) can0 386#0100010001000100
(1699279625.018116) can0 386#0100010001000100
(1699279625.038118) can0 386#0100010001000100
(1699279625.058095) can0 386#0100010001000100
(1699279625.078129) can0 386#0100010001000100
(1699279625.098119) can0 386#0100010001000100
(1699279625.118043) can0 386#1200140001000E00
(1699279625.138118) can0 386#120014000E000E00
(1699279625.158169) can0 386#120014000E000E00
(1699279625.178140) can0 386#1C001E000E001600
(1699279625.198139) can0 386#1C001E0019001600
(1699279625.218065) can0 386#2700280019002000
(1699279625.238124) can0 386#2700280022002000
(1699279625.258312) can0 386#2F00300022002900
(1699279625.278102) can0 386#2F0030002B002900
(1699279625.298126) can0 386#360036002B003300
(1699279625.318116) can0 386#3600360035003300
(1699279625.338116) can0 386#3C003D0035003A00
(1699279625.358172) can0 386#42003D003C003A00
(1699279625.378118) can0 386#4200420042004100
(1699279625.399119) can0 386#4700480042004700
(1699279625.418160) can0 386#4C00480048004700
(1699279625.438153) can0 386#4C004C004D004C00
(1699279625.458898) can0 386#510051004D005100
(1699279625.478990) can0 386#5500560052005600
(1699279625.499135) can0 386#59005A0056005600
(1699279625.518206) can0 386#59005A005B005A00
(1699279625.538936) can0 386#5D005F005F005F00
(1699279625.558921) can0 386#620063005F006300
(1699279625.578962) can0 386#6500670063006700
(1699279625.599169) can0 386#69006B0067006B00
(1699279625.618165) can0 386#6D006E006B006F00
(1699279625.638894) can0 386#710072006E007300
(1699279625.659139) can0 386#7400760072007600
(1699279625.678968) can0 386#78007A0075007A00
(1699279625.699175) can0 386#7B007E0079007D00
(1699279625.719112) can0 386#7F0081007C008100
(1699279625.738982) can0 386#8200880080008400
(1699279625.759031) can0 386#89008C0083008800
(1699279625.778992) can0 386#8C008F008A008B00
(1699279625.798956) can0 386#8F0093008D009200
(1699279625.818988) can0 386#9200990091009500
(1699279625.838970) can0 386#98009D0094009900
(1699279625.858991) can0 386#9C00A0009A00A000
(1699279625.878995) can0 386#9F00A6009D00A300
(1699279625.898971) can0 386#A500AA00A000A700
(1699279625.918971) can0 386#A800B000A600AD00
(1699279625.938966) can0 386#AD00B300A900B000
(1699279625.959176) can0 386#B000B800AF00B600
(1699279625.978989) can0 386#B600BF00B200B900
(1699279625.999031) can0 386#B900C100B800BF00
(1699279626.018974) can0 386#BF00C700BA00C500
(1699279626.038968) can0 386#C400CD00C000C800
(1699279626.059039) can0 386#C700CF00C300CE00
(1699279626.079016) can0 386#CC00D500C800D400
(1699279626.099062) can0 386#D200DA00CE00D900
(1699279626.119306) can0 386#D700DF00D300DB00
(1699279626.139267) can0 386#DC00E400D500E100
(1699279626.158959) can0 386#DE00E900DB00E600
(1699279626.178961) can0 386#E300EE00E000EB00
(1699279626.199250) can0 386#E800F200E500F100
(1699279626.219271) can0 386#EE00F700EA00F600
(1699279626.239264) can0 386#F300FC00EF00FB00
(1699279626.259288) can0 386#F7000001F4000001
(1699279626.279329) can0 386#FE000501F9000601
(1699279626.299320) can0 386#03010C01FE000A01
(1699279626.319298) can0 386#0801100103010F01
(1699279626.339291) can0 386#0C01140108011301
(1699279626.359292) can0 386#12011B010C011901
(1699279626.379283) can0 386#17011E0113011D01
(1699279626.398356) can0 386#1B01220117012201
(1699279626.419025) can0 386#220128011C012701
(1699279626.439049) can0 386#27012C0122012B01
(1699279626.459097) can0 386#2B01320127013201
(1699279626.479112) can0 386#300139012D013401
(1699279626.499114) can0 386#37013C0131013C01
(1699279626.519119) can0 386#3901420136014001
(1699279626.539108) can0 386#400147013A014301
(1699279626.559136) can0 386#45014C0141014A01
(1699279626.579136) can0 386#4B01510146014E01
(1699279626.599145) can0 386#4E01570149015201
(1699279626.619072) can0 386#53015C0150015901
(1699279626.639073) can0 386#5801610155015E01
(1699279626.659149) can0 386#5E0167015A016301
(1699279626.679123) can0 386#62016C015E016901
(1699279626.699182) can0 386#6601700163016E01
(1699279626.719113) can0 386#6B01750168017301
(1699279626.739114) can0 386#6F017A016E017901
(1699279626.759115) can0 386#7501800172017D01
(1699279626.779169) can0 386#7A01840176018101
(1699279626.799059) can0 386#7F0189017C018701
(1699279626.819144) can0 386#84018E017F018C01
(1699279626.839219) can0 386#8701920183019101
(1699279626.859113) can0 386#8C01970187019601
(1699279626.879197) can0 386#91019B018B019C01
(1699279626.899167) can0 386#9401A0018F01A101
(1699279626.919157) can0 386#9801A4019501A601
(1699279626.939197) can0 386#9D01A7019901A801
(1699279626.959167) can0 386#A101AC019D01AD01
(1699279626.979156) can0 386#A601AE01A301B001
(1699279626.999203) can0 386#AA01B201A701B301
(1699279627.019144) can0 386#AE01B601AC01B701
(1699279627.039145) can0 386#B301B901AE01BB01
(1699279627.059191) can0 386#B601BE01B301BF01
(1699279627.079103) can0 386#B901C001B601C201
(1699279627.099181) can0 386#BD01C401BB01C601
(1699279627.119165) can0 386#C101C701BE01C801
(1699279627.139171) can0 386#C501CC01C101CB01
(1699279627.159210) can0 386#C701D101C401CF01
(1699279627.179189) can0 386#CB01D301C801D201
(1699279627.199227) can0 386#CF01D801CC01D501
(1699279627.219365) can0 386#D201DD01D001D901
(1699279627.239220) can0 386#D501DD01D401DC01
(1699279627.259191) can0 386#D901E101D801E001
(1699279627.279248) can0 386#DC01E701DC01E301
(1699279627.299201) can0 386#E001E801E001E701
(1699279627.319215) can0 386#E701EC01E201EA01
(1699279627.339214) can0 386#E801F001E501ED01
(1699279627.359226) can0 386#EC01F301E901F101
(1699279627.379182) can0 386#F101F501EC01F401
(1699279627.399223) can0 386#F401F901F001FA01
(1699279627.419233) can0 386#F801FD01F401FF01
(1699279627.439217) can0 386#FD010102F701FF01
(1699279627.459279) can0 386#01020502FA010402
(1699279627.479243) can0 386#05020802FE010702
(1699279627.499283) can0 386#09020B0203020902
(1699279627.519526) can0 386#0E020F0207020E02
(1699279627.539544) can0 386#130214020B021302
(1699279627.559573) can0 386#1502170210021602
(1699279627.579541) can0 386#1A021A0215021802
(1699279627.599506) can0 386#1C021E0219021E02
(1699279627.619784) can0 386#200222021C022002
(1699279627.639741) can0 386#2202260220022502
(1699279627.659764) can0 386#26022A0225022802
(1699279627.679765) can0 386#29022D0228022C02
(1699279627.699802) can0 386#2A022F022C023002
(1699279627.719825) can0 386#2E02340230023302
(1699279627.739865) can0 386#3202370234023602
(1699279627.759789) can0 386#3602380236023902
(1699279627.779821) can0 386#38023C0236023D02
(1699279627.799729) can0 386#3B023D023A023E02
(1699279627.819866) can0 386#3F0241023B024202
(1699279627.839789) can0 386#420245023E024702
(1699279627.859840) can0 386#4402460243024802
(1699279627.879859) can0 386#49024A0245024902
(1699279627.899753) can0 386#4B024B0246024C02
(1699279627.919754) can0 386#4F024F024B024F02
(1699279627.939754) can0 386#540255024D025302
(1699279627.959755) can0 386#5502550250025502
(1699279627.979852) can0 386#5A02590254025702
(1699279627.999897) can0 386#5C025B0257025A02
(1699279628.019867) can0 386#5E025E025A025E02
(1699279628.039901) can0 386#620265025F026002
(1699279628.059646) can0 386#6602680262026302
(1699279628.080110) can0 386#69026B0264026802
(1699279628.099615) can0 386#6B026F0269026B02
(1699279628.119597) can0 386#6E026F026D026E02
(1699279628.139651) can0 386#7202740270027202
(1699279628.159594) can0 386#7702780271027402
(1699279628.179813) can0 386#7702770272027802
(1699279628.199564) can0 386#7C027C0277027D02
(1699279628.219721) can0 386#7E02800279028102
(1699279628.239703) can0 386#800280027E028202
(1699279628.259613) can0 386#8502830281028402
(1699279628.279875) can0 386#8902870282028602
(1699279628.299630) can0 386#8B02890288028902
(1699279628.319707) can0 386#8F028E028B028D02
(1699279628.339562) can0 386#910290028D029002
(1699279628.359677) can0 386#9602940292029302
(1699279628.379829) can0 386#98029A0294029602
(1699279628.399649) can0 386#9D029D0297029902
(1699279628.419703) can0 386#9F029F029E029C02
(1699279628.439693) can0 386#A202A202A2029F02
(1699279628.459744) can0 386#A602A702A502A502
(1699279628.479869) can0 386#AB02AC02A802A702
(1699279628.499615) can0 386#AE02AD02AB02AA02
(1699279628.519658) can0 386#B102AF02AB02AF02
(1699279628.539694) can0 386#B302B102AD02B202
(1699279628.559686) can0 386#B602B402B302B802
(1699279628.579941) can0 386#BA02B902B502BB02
(1699279628.599733) can0 386#BE02BD02BC02BB02
(1699279628.619725) can0 386#C402C002BE02BD02
(1699279628.639659) can0 386#C602C202C102C102
(1699279628.659652) can0 386#CD02C802C602C302
(1699279628.679984) can0 386#D002CC02CA02C802
(1699279628.699779) can0 386#D102CE02CD02CC02
(1699279628.719745) can0 386#D402D102D102CF02
(1699279628.739761) can0 386#D802D802D502D102
(1699279628.759792) can0 386#DC02DA02DA02D602
(1699279628.780013) can0 386#DC02DD02E002DA02
(1699279628.799739) can0 386#E302E302E402DC02
(1699279628.819656) can0 386#E602E402E602E102
(1699279628.839743) can0 386#E702E702E602E702
(1699279628.859795) can0 386#EC02EC02E602E802
(1699279628.879918) can0 386#F002EC02EE02EE02
(1699279628.899720) can0 386#F202F002EF02F302
(1699279628.920044) can0 386#F702F402F202F102
(1699279628.939776) can0 386#FD02F702F802F302
(1699279628.960023) can0 386#0103FB02FB02F802
(1699279628.979943) can0 386#0203FF02FE02F902
(1699279628.999739) can0 386#070303030203FF02
(1699279629.019798) can0 386#0C03060304030303
(1699279629.039799) can0 386#0E030B0307030503
(1699279629.059708) can0 386#140311030F030A03
(1699279629.080019) can0 386#1303120314030C03
(1699279629.099714) can0 386#190318031A031103
(1699279629.119717) can0 386#1E03190320031603
(1699279629.139734) can0 386#22031F031F031B03
(1699279629.159973) can0 386#260322031F031F03
(1699279629.179741) can0 386#2803230324032403
(1699279629.199741) can0 386#2E032A0328032903
(1699279629.220076) can0 386#33032C032C032803
(1699279629.240079) can0 386#37032F0331032B03
(1699279629.260128) can0 386#3B03360334033003
(1699279629.280241) can0 386#3D03360337033503
(1699279629.299995) can0 386#42033C033E033703
(1699279629.320077) can0 386#440340033F033B03
(1699279629.339998) can0 386#4903470343033D03
(1699279629.360002) can0 386#4C0347034D034203
(1699279629.380026) can0 386#4E034E0353034703
(1699279629.400154) can0 386#5303510353034C03
(1699279629.420150) can0 386#5903530354035003
(1699279629.440100) can0 386#5B03570356035403
(1699279629.460123) can0 386#5E0358035C035C03
(1699279629.480392) can0 386#65035D035E035F03
(1699279629.499871) can0 386#68035E0361035D03
(1699279629.519880) can0 386#6E03620367035F03
(1699279629.539867) can0 386#6F0365036A036403
(1699279629.559789) can0 386#7203680370036703
(1699279629.579866) can0 386#76036F0373036A03
(1699279629.599867) can0 386#7703710374036E03
(1699279629.619896) can0 386#7B0375037B037203
(1699279629.639948) can0 386#7C03770383037503
(1699279629.659812) can0 386#82037B0385037803
(1699279629.679889) can0 386#85037C0387037C03
(1699279629.699814) can0 386#88037E0386038003
(1699279629.719807) can0 386#8B037E038A038303
(1699279629.739840) can0 386#8D0382038B038603
(1699279629.759905) can0 386#930385038D038303
(1699279629.779843) can0 386#9403870390038503
(1699279629.799886) can0 386#95038A0395038A03
(1699279629.819968) can0 386#98038E0397038A03
(1699279629.839905) can0 386#9803910395038E03
(1699279629.859881) can0 386#9C03920399039203
(1699279629.880087) can0 386#9F0399039E039203
(1699279629.899976) can0 386#A1039A03A4039703
(1699279629.919898) can0 386#A3039E03A5039803
(1699279629.939981) can0 386#A603A203A0039A03
(1699279629.959953) can0 386#A503A003A2039F03
(1699279629.979945) can0 386#AA03A103A403A703
(1699279629.999945) can0 386#AD03A503A603A603
(1699279630.019973) can0 386#AE03A603AB03A203
(1699279630.039872) can0 386#B403AA03AD03A703
(1699279630.059871) can0 386#B303AD03AE03AC03
(1699279630.079871) can0 386#B703B203B203AC03
(1699279630.099870) can0 386#B903B103B403AF03
(1699279630.120061) can0 386#B403B903B903B103
(1699279630.139984) can0 386#B803B903BF03B503
(1699279630.159949) can0 386#C003BA03C203B803
(1699279630.179891) can0 386#C003BE03BF03BD03
(1699279630.200027) can0 386#BD03BE03BC03BF03
(1699279630.219917) can0 386#C603C003BF03C403
(1699279630.239923) can0 386#C903C103C303C703
(1699279630.260059) can0 386#C803C103CA03C403
(1699279630.280006) can0 386#D203C803C903C503
(1699279630.299921) can0 386#D103C603C903CD03
(1699279630.320012) can0 386#CE03CD03CF03CC03
(1699279630.340016) can0 386#D203CF03D303CE03
(1699279630.359994) can0 386#D403CF03D303CF03
(1699279630.379997) can0 386#D003D603DA03D103
(1699279630.399744) can0 386#DA03D903DA03D403
(1699279630.419994) can0 386#DE03D803D503D703
(1699279630.440023) can0 386#D803D603DE03D703
(1699279630.459745) can0 386#DE03DA03DC03DD03
(1699279630.479932) can0 386#E503D903D803E103
(1699279630.500003) can0 386#E303DC03E203D803
(1699279630.520001) can0 386#E303E003E603DA03
(1699279630.539748) can0 386#EA03E203DE03E203
(1699279630.559773) can0 386#E903E703E103E203
(1699279630.579770) can0 386#EC03E503EC03E203
(1699279630.600061) can0 386#EB03E903E603E603
(1699279630.620042) can0 386#EF03EB03EF03E803
(1699279630.639769) can0 386#F103EF03FC03E903
(1699279630.659870) can0 386#EF03EE03F103ED03
(1699279630.679806) can0 386#F503F103ED03F203
(1699279630.699800) can0 386#F803EF03F403F503
(1699279630.720096) can0 386#FA03F303EF03F603
(1699279630.739770) can0 386#FF03F303F103F403
(1699279630.759827) can0 386#FE03F603FD03F603
(1699279630.780130) can0 386#0104FA03FB03F703
(1699279630.799845) can0 386#0004F903FB03F903
(1699279630.820104) can0 386#050402040504FD03
(1699279630.839856) can0 386#060407040A04FE03
(1699279630.859817) can0 386#070404040E040104
(1699279630.880129) can0 386#0D0408040F040804
(1699279630.899776) can0 386#0E0409040B040B04
(1699279630.920018) can0 386#12040A040D041204
(1699279630.940056) can0 386#1904100412040F04
(1699279630.960067) can0 386#1A040C041A040704
(1699279630.980077) can0 386#1D04150419040D04
(1699279631.000137) can0 386#1D04150419041404
(1699279631.020118) can0 386#1E041A041D041504
(1699279631.040075) can0 386#2504210421041604
(1699279631.060176) can0 386#2604230427041C04
(1699279631.080059) can0 386#2A0426042E041F04
(1699279631.100064) can0 386#2D042D042B042204
(1699279631.120109) can0 386#30042A0427042404
(1699279631.140121) can0 386#30042A042C042E04
(1699279631.160119) can0 386#35042C0434043304
(1699279631.180369) can0 386#3B042E0431042D04
(1699279631.200122) can0 386#3D04390432042F04
(1699279631.220121) can0 386#3D0439043A043504
(1699279631.240100) can0 386#3D043B043A043604
(1699279631.260128) can0 386#420441043D043804
(1699279631.280157) can0 386#4404420449043D04
(1699279631.300144) can0 386#440443044D044304
(1699279631.320150) can0 386#4904470446044604
(1699279631.340209) can0 386#4C044A0447044904
(1699279631.360143) can0 386#4F044D044F045104
(1699279631.380247) can0 386#53044D044E044C04
(1699279631.399901) can0 386#590451044E044C04
(1699279631.419945) can0 386#5904510454045104
(1699279631.439903) can0 386#5B04580458045504
(1699279631.459905) can0 386#60045D0459045704
(1699279631.480122) can0 386#5E0461045F045504
(1699279631.499922) can0 386#6304600468045A04
(1699279631.519925) can0 386#6504670468046404
(1699279631.539984) can0 386#6604670462046804
(1699279631.559930) can0 386#6A04660464046E04
(1699279631.579928) can0 386#6D0468046C046F04
(1699279631.599995) can0 386#72046B046C046804
(1699279631.619969) can0 386#74046E046E046904
(1699279631.639957) can0 386#74046D0473046F04
(1699279631.659978) can0 386#7604770472047204
(1699279631.680002) can0 386#77047E0476047304
(1699279631.700005) can0 386#7E047D0480047A04
(1699279631.719898) can0 386#80047F0481047C04
(1699279631.740007) can0 386#8004810478047E04
(1699279631.760038) can0 386#840480047F048504
(1699279631.779930) can0 386#8904840483048E04
(1699279631.799736) can0 386#8D04840484048504
(1699279631.820180) can0 386#9004860486048204
(1699279631.839735) can0 386#8E048D048B048804
(1699279631.859979) can0 386#930492048E048B04
(1699279631.880008) can0 386#9004970491048B04
(1699279631.900003) can0 386#980497049C049404
(1699279631.920035) can0 386#9D049604A0049504
(1699279631.939782) can0 386#9F049A0498049704
(1699279631.959801) can0 386#9F049B049D049E04
(1699279631.979698) can0 386#A6049804A404A304
(1699279632.000046) can0 386#AB049D04A5049A04
(1699279632.020047) can0 386#AB04A104A5049E04
(1699279632.039718) can0 386#B004A704A904A404
(1699279632.059794) can0 386#B004AA04AF04A304
(1699279632.079717) can0 386#AC04AE04B104A304
(1699279632.100100) can0 386#B504B104B804A604
(1699279632.119820) can0 386#B704B504B904A904
(1699279632.139876) can0 386#B904B004B304B204
(1699279632.159749) can0 386#BF04B304B704BF04
(1699279632.179821) can0 386#C004B604BA04BA04
(1699279632.199824) can0 386#C104B504BE04B004
(1699279632.219822) can0 386#C304B904BE04B504
(1699279632.240054) can0 386#C304BF04BF04C104
(1699279632.259793) can0 386#C704C404C604C004
(1699279632.280087) can0 386#C704C504CE04BE04
(1699279632.299820) can0 386#CA04C704CD04C404
(1699279632.319857) can0 386#CF04C804C804C504
(1699279632.339823) can0 386#CD04C804CA04C904
(1699279632.359858) can0 386#D304CC04D004CF04
(1699279632.379858) can0 386#D604C804D004CA04
(1699279632.399809) can0 386#D604CD04CF04CB04
(1699279632.419848) can0 386#D504CE04D304CF04
(1699279632.439847) can0 386#DA04D404D504D004
(1699279632.459825) can0 386#D704D904D904D004
(1699279632.479879) can0 386#DA04D904E304D504
(1699279632.499833) can0 386#DD04DC04DC04D804
(1699279632.519846) can0 386#E104D804D704DA04
(1699279632.539844) can0 386#E204D704E104E304
(1699279632.559874) can0 386#E304DA04E104DF04
(1699279632.579884) can0 386#E304DB04DF04D604
(1699279632.599866) can0 386#E104DC04E404DE04
(1699279632.619888) can0 386#E904E404E404DF04
(1699279632.640144) can0 386#E604E604E704DD04
(1699279632.660129) can0 386#E604E304EF04E104
(1699279632.680063) can0 386#EC04EA04ED04E404
(1699279632.700093) can0 386#EE04E404E504E604
(1699279632.720118) can0 386#EE04E704ED04F304
(1699279632.740191) can0 386#F104EA04F204F204
(1699279632.760118) can0 386#F504E504EE04E704
(1699279632.780171) can0 386#F804F004EF04E804
(1699279632.800239) can0 386#F504F204F904EF04
(1699279632.820091) can0 386#F604F404FB04EF04
(1699279632.839943) can0 386#FC04F4040005F104
(1699279632.859901) can0 386#F804F704FD04F304
(1699279632.879935) can0 386#FC04F804F204F504
(1699279632.899967) can0 386#FF04F4040105FC04
(1699279632.919867) can0 386#0205F9040105FD04
(1699279632.939954) can0 386#0705FB04FC04F504
(1699279632.959928) can0 386#0205F8040405F704
(1699279632.979964) can0 386#050500050505FE04
(1699279632.999939) can0 386#0605030503050405
(1699279633.019907) can0 386#0A0502050E050005
(1699279633.040258) can0 386#0B050B0513050205
(1699279633.059954) can0 386#0C05050503050805
(1699279633.079958) can0 386#1105020509050F05
(1699279633.099981) can0 386#14050C0515050F05
(1699279633.119964) can0 386#1405070513050805
(1699279633.139723) can0 386#18050C050D050905
(1699279633.159762) can0 386#1905140511050C05
(1699279633.179713) can0 386#1705160516050B05
(1699279633.199762) can0 386#1D05160521050F05
(1699279633.219975) can0 386#1C05180521051505
(1699279633.239699) can0 386#2005190517051505
(1699279633.259696) can0 386#210516051E051905
(1699279633.280022) can0 386#24051A0521052005
(1699279633.299691) can0 386#24051A051D051805
(1699279633.320033) can0 386#28051C051E051505
(1699279633.339766) can0 386#2705200525051C05
(1699279633.359787) can0 386#2305230527052305
(1699279633.379793) can0 386#2F0526052D051E05
(1699279633.399784) can0 386#280523052C052105
(1699279633.420103) can0 386#2B05260527052605
(1699279633.439783) can0 386#330526052E052F05
(1699279633.459859) can0 386#3305270531053005
(1699279633.480073) can0 386#340529052E052805
(1699279633.499811) can0 386#34052B052F052805
(1699279633.519775) can0 386#3705310534052D05
(1699279633.539788) can0 386#360539053B052F05
(1699279633.559772) can0 386#3A05360543053205
(1699279633.579773) can0 386#3A053D053E053605
(1699279633.599876) can0 386#3E053B0537053A05
(1699279633.619774) can0 386#430539053D054405
(1699279633.640049) can0 386#4405390547054205
(1699279633.659797) can0 386#43053F053D053605
(1699279633.679797) can0 386#470541053E053B05
(1699279633.699840) can0 386#4805440547054505
(1699279633.719830) can0 386#4D0548054A054405
(1699279633.739898) can0 386#4B0548054D054405
(1699279633.759820) can0 386#4C054B0542054A05
(1699279633.779861) can0 386#4F054B0547054E05
(1699279633.799858) can0 386#51054B0550055105
(1699279633.819822) can0 386#56054D054F054805
(1699279633.839799) can0 386#550551054C054D05
(1699279633.859763) can0 386#5905550556055405
(1699279633.880018) can0 386#58055C055C055205
(1699279633.899873) can0 386#5C055B0560055305
(1699279633.919893) can0 386#5F055E0559055A05
(1699279633.939864) can0 386#5E05590558055B05
(1699279633.960081) can0 386#63055E0560056405
(1699279633.979886) can0 386#67055B0565056105
(1699279634.000153) can0 386#68055D055D055905
(1699279634.019889) can0 386#6705630562055D05
(1699279634.039839) can0 386#6405680567056405
(1699279634.059948) can0 386#6F056E056D056405
(1699279634.079871) can0 386#6C056A056E056705
(1699279634.099869) can0 386#6D056C0567056B05
(1699279634.119913) can0 386#73056D056A057105
(1699279634.139878) can0 386#74056A0570057605
(1699279634.159888) can0 386#77056E0573056B05
(1699279634.179896) can0 386#74056D0574056B05
(1699279634.199920) can0 386#7805750579057605
(1699279634.219914) can0 386#780579057E057905
(1699279634.239877) can0 386#7B057C0583057505
(1699279634.259876) can0 386#7D0580057E057A05
(1699279634.280152) can0 386#7F057B0579057F05
(1699279634.299836) can0 386#89057F0583058605
(1699279634.319940) can0 386#85057B0586058105
(1699279634.339906) can0 386#8605820582057E05
(1699279634.359907) can0 386#8C05870586058505
(1699279634.380006) can0 386#89058F058F058705
(1699279634.399869) can0 386#8F058F0597058705
(1699279634.419928) can0 386#92058E058B058A05
(1699279634.440005) can0 386#93058F0589058F05
(1699279634.459932) can0 386#9705910594059805
(1699279634.479926) can0 386#9B058D0595059305
(1699279634.499649) can0 386#9B05940591058D05
(1699279634.519904) can0 386#9D059A0594059405
(1699279634.539739) can0 386#9A059E059E059B05
(1699279634.559956) can0 386#9F05A005A8059C05
(1699279634.579901) can0 386#A105A2059D059E05
(1699279634.599962) can0 386#A6059F059A05A005
(1699279634.619979) can0 386#A805A005A305AC05
(1699279634.640020) can0 386#AC05A005A405AA05
(1699279634.660002) can0 386#AB05A505A5059E05
(1699279634.680273) can0 386#AD05A905AA05A305
(1699279634.700025) can0 386#AD05AD05AF05A705
(1699279634.720187) can0 386#B105B505B505A605
(1699279634.740007) can0 386#AF05AF05AF05AD05
(1699279634.760013) can0 386#B605AF05AD05AF05
(1699279634.780016) can0 386#B705B205B405B405
(1699279634.799991) can0 386#B905AD05B605B205
(1699279634.820042) can0 386#BA05B605B505AD05
(1699279634.840057) can0 386#BA05B805B505B105
(1699279634.860037) can0 386#BB05B905BC05B805
(1699279634.880195) can0 386#BC05BB05C805BA05
(1699279634.900030) can0 386#BA05C005BD05BD05
(1699279634.920004) can0 386#C305B805BD05BE05
(1699279634.940055) can0 386#C505BB05C705C605
(1699279634.960058) can0 386#C205C205C305CA05
(1699279634.980268) can0 386#C605BD05C305BF05
(1699279635.000034) can0 386#CE05C605CC05C605
(1699279635.020226) can0 386#C805CE05D105C505
(1699279635.040007) can0 386#CD05CD05D505C605
(1699279635.060024) can0 386#CF05D005CB05CF05
(1699279635.079998) can0 386#CE05CC05C605D305
(1699279635.099842) can0 386#D605CF05D305CD05
(1699279635.120044) can0 386#D605CC05CF05C805
(1699279635.139736) can0 386#D405CE05CB05DB05
(1699279635.159827) can0 386#DB05DB05D805D405
(1699279635.180006) can0 386#DB05DB05DE05D305
(1699279635.199828) can0 386#DC05DC05DB05D905
(1699279635.219811) can0 386#E005E005D405D705
(1699279635.239817) can0 386#DB05DB05DC05DF05
(1699279635.259827) can0 386#E605E005E105E905
(1699279635.280070) can0 386#E805DD05E005D905
(1699279635.299847) can0 386#E205DF05DE05DB05
(1699279635.319823) can0 386#E205E805E205E405
(1699279635.339800) can0 386#E805E205EA05E205
(1699279635.359788) can0 386#EB05E905E605E305
(1699279635.380020) can0 386#EC05E705E205E705
(1699279635.399887) can0 386#EC05E805E905F205
(1699279635.419858) can0 386#F105EA05EC05ED05
(1699279635.439844) can0 386#ED05E705EE05E805
(1699279635.459855) can0 386#F105F205F005EE05
(1699279635.479845) can0 386#F105F905F005F205
(1699279635.499911) can0 386#F005F005FE05F305
(1699279635.519874) can0 386#F605FA05F705F305
(1699279635.539879) can0 386#F805F205ED05F805
(1699279635.559890) can0 386#FB05EE05F7050006
(1699279635.580148) can0 386#FD05F405FB05F805
(1699279635.599874) can0 386#FB05F905F905F205
(1699279635.619910) can0 386#FF05FE05FB05F905
(1699279635.639879) can0 386#060600060506FC05
(1699279635.659903) can0 386#FF0505060606F705
(1699279635.680079) can0 386#02060106F805FA05
(1699279635.699929) can0 386#0806FE05FE050D06
(1699279635.719932) can0 386#0806000606060706
(1699279635.739930) can0 386#0706FD050106FB05
(1699279635.759897) can0 386#0906060603060206
(1699279635.780183) can0 386#04060C060B060706
(1699279635.799882) can0 386#09060A0611060006
(1699279635.820015) can0 386#0A060D0604060506
(1699279635.839959) can0 386#0A06080600061106
(1699279635.859933) can0 386#0F06060613061406
(1699279635.880114) can0 386#1006060610060A06
(1699279635.899963) can0 386#0E060A0604060606
(1699279635.919961) can0 386#1006110610060B06
(1699279635.939988) can0 386#15060E061E061606
(1699279635.960200) can0 386#13061A061C061206
(1699279635.979898) can0 386#150618060C061406
(1699279635.999997) can0 386#17060F0613061F06
(1699279636.019983) can0 386#1D0615061A061B06
(1699279636.039972) can0 386#1B06140614060D06
(1699279636.059896) can0 386#1D06170613061506
(1699279636.080265) can0 386#1A061D0621061D06
(1699279636.099996) can0 386#1B061A0628061806
(1699279636.120008) can0 386#1F061E061A061D06
(1699279636.139981) can0 386#1E061B0617062206
(1699279636.160029) can0 386#20061A0622062606
(1699279636.180184) can0 386#25061B0620061B06
(1699279636.200185) can0 386#22061F061A061C06
(1699279636.220033) can0 386#1F06230622062106
(1699279636.240046) can0 386#2706250630062206
(1699279636.260057) can0 386#270627062A062306
(1699279636.280204) can0 386#2A06230621062706
(1699279636.300053) can0 386#2B06250625063106
(1699279636.319967) can0 386#2A06240622062B06
(1699279636.340035) can0 386#2A0625062A061E06
(1699279636.360062) can0 386#2F062C062D062606
(1699279636.380210) can0 386#2F0630062E062D06
(1699279636.400213) can0 386#3006300638062C06
(1699279636.420241) can0 386#310632062B063006
(1699279636.440237) can0 386#33062B062D063106
(1699279636.460333) can0 386#37062A0635063306
(1699279636.480214) can0 386#35062E0635062D06
(1699279636.500230) can0 386#3506310631062A06
(1699279636.520274) can0 386#3406340636063206
(1699279636.540114) can0 386#340634063F063306
(1699279636.560048) can0 386#35063A0638063006
(1699279636.580248) can0 386#3C06330631063606
(1699279636.600090) can0 386#3F0630063A063E06
(1699279636.620091) can0 386#3D0633063C063706
(1699279636.640132) can0 386#3D06380635063706
(1699279636.660091) can0 386#3A063C063C063C06
(1699279636.680007) can0 386#3D063D0648063C06
(1699279636.700137) can0 386#3E063F0643063D06
(1699279636.720109) can0 386#40063D0639064306
(1699279636.740188) can0 386#43063C0640064C06
(1699279636.760078) can0 386#45063B0643064306
(1699279636.780360) can0 386#440641063A063C06
(1699279636.800118) can0 386#4206430642064006
(1699279636.820071) can0 386#4906460651064106
(1699279636.840089) can0 386#450646064C063D06
(1699279636.860155) can0 386#4A0648063E064306
(1699279636.880046) can0 386#4B06440644064D06
(1699279636.900198) can0 386#4B0640064B064706
(1699279636.920117) can0 386#4806420644063D06
(1699279636.940106) can0 386#4B06480646064206
(1699279636.960099) can0 386#4C064C0652064706
(1699279636.980393) can0 386#4C064C0654064506
(1699279637.000085) can0 386#49064A0645064B06
(1699279637.020066) can0 386#4B0646064C065206
(1699279637.040232) can0 386#5006430654065206
(1699279637.060199) can0 386#4B0643064B064506
(1699279637.080342) can0 386#4D0649064D064806
(1699279637.100088) can0 386#4E06500657065206
(1699279637.120119) can0 386#51064F065B065206
(1699279637.140156) can0 386#510651064F065006
(1699279637.160118) can0 386#52064E064F065506
(1699279637.180349) can0 386#5A06490658065D06
(1699279637.200126) can0 386#58064E0656065006
(1699279637.220165) can0 386#570653064E064806
(1699279637.240112) can0 386#5406580656065206
(1699279637.260132) can0 386#58065A0664065606
(1699279637.280382) can0 386#5706570656065306
(1699279637.300116) can0 386#5E0656064C065806
(1699279637.320126) can0 386#660656065D065F06
(1699279637.340149) can0 386#6E0658065E065106
(1699279637.360125) can0 386#6106580655064F06
(1699279637.380376) can0 386#4D065A065C065906
(1699279637.400146) can0 386#5C065B066C065906
(1699279637.420208) can0 386#5E065E065C065706
(1699279637.440152) can0 386#5B065B0654065F06
(1699279637.460151) can0 386#6B065A0664066C06
(1699279637.480492) can0 386#6B06580661065F06
(1699279637.500196) can0 386#5B065B0655065206
(1699279637.520151) can0 386#5B06610652065906
(1699279637.540149) can0 386#62065A0665065B06
(1699279637.560279) can0 386#58065C0676065B06
(1699279637.580645) can0 386#5D065C065B066006
(1699279637.600184) can0 386#660657065F066B06
(1699279637.620184) can0 386#5F06560674065F06
(1699279637.640201) can0 386#5E06590657065E06
(1699279637.660186) can0 386#62065F0652066406
(1699279637.680517) can0 386#5F0661067A066106
(1699279637.700250) can0 386#5A065F0678065F06
(1699279637.720200) can0 386#6D06620657066806
(1699279637.740205) can0 386#6B065F0664067006
(1699279637.760209) can0 386#65065F0677066406
(1699279637.780707) can0 386#6B06650668066006
(1699279637.800221) can0 386#6906670660066606
(1699279637.820195) can0 386#6D066C0673066906
(1699279637.840319) can0 386#6C066F066F066106
(1699279637.860273) can0 386#72066D0660066206
(1699279637.880458) can0 386#70066B066C067706
(1699279637.900227) can0 386#75066B066B066F06
(1699279637.920271) can0 386#6F066B0662065F06
(1699279637.940316) can0 386#6C066C066D066606
(1699279637.960228) can0 386#70066F0676066D06
(1699279637.980573) can0 386#72066F066E066606
(1699279638.000263) can0 386#70066C0669066C06
(1699279638.020265) can0 386#7006660673067706
(1699279638.040263) can0 386#7106650675066F06
(1699279638.060305) can0 386#6F066F066E066606
(1699279638.080243) can0 386#6B066D0671066D06
(1699279638.100249) can0 386#770671067D067306
(1699279638.120261) can0 386#7206760677066E06
(1699279638.140364) can0 386#750674066C067306
(1699279638.160354) can0 386#79066E0670067E06
(1699279638.180558) can0 386#79066E0676067706
(1699279638.200609) can0 386#7206700673066B06
(1699279638.220586) can0 386#7206740676067306
(1699279638.240609) can0 386#7A06790680067106
(1699279638.260875) can0 386#750677067E067406
(1699279638.281145) can0 386#790674066F067A06
(1699279638.300888) can0 386#7A06700674068006
(1699279638.321008) can0 386#79066F067B067A06
(1699279638.340847) can0 386#7706700675067006
(1699279638.360796) can0 386#7506740678067406
(1699279638.380894) can0 386#7906770684067706
(1699279638.400894) can0 386#7906780683067706
(1699279638.420856) can0 386#7C06790673067906
(1699279638.440855) can0 386#7D06750677068106
(1699279638.460896) can0 386#7E0670067F067E06
(1699279638.481137) can0 386#7A06770679067306
(1699279638.500914) can0 386#78067C067B067606
(1699279638.520915) can0 386#8006800684067D06
(1699279638.540868) can0 386#7E06800681067906
(1699279638.560915) can0 386#82067F0676067E06
(1699279638.581135) can0 386#82067A067E068806
(1699279638.600948) can0 386#8406770683068006
(1699279638.620900) can0 386#81067D067B067306
(1699279638.640660) can0 386#7D067F0681067B06
(1699279638.660651) can0 386#850684068F068006
(1699279638.681196) can0 386#820685068A067A06
(1699279638.700737) can0 386#860684067B068106
(1699279638.720668) can0 386#85067E0680068C06
(1699279638.740678) can0 386#85067D0687068406
(1699279638.760712) can0 386#84067E067F067906
(1699279638.780970) can0 386#7F06800682068306
(1699279638.800715) can0 386#8506840690068606
(1699279638.820654) can0 386#850687068B067F06
(1699279638.840636) can0 386#8906860680068406
(1699279638.860679) can0 386#8906810688069206
(1699279638.880931) can0 386#88067F068B068706
(1699279638.900649) can0 386#8806820683067E06
(1699279638.920671) can0 386#8406870688068806
(1699279638.940748) can0 386#86068C0696068B06
(1699279638.960692) can0 386#8D068C068B068706
(1699279638.981001) can0 386#8D068C0681068B06
(1699279639.000707) can0 386#8B06890689069706
(1699279639.020695) can0 386#950687068B068A06
(1699279639.040751) can0 386#8C06880687068406
(1699279639.060731) can0 386#80068C0690068E06
(1699279639.081016) can0 386#99068F069A068F06
(1699279639.100700) can0 386#8F068F068E068806
(1699279639.120729) can0 386#8C068E0688068F06
(1699279639.140735) can0 386#97068C068F069806
(1699279639.160795) can0 386#930685068C068A06
(1699279639.180982) can0 386#8C06890693068806
(1699279639.200793) can0 386#8D068F0691069006
(1699279639.220755) can0 386#8E068D0698068F06
(1699279639.240757) can0 386#8D0693069E068E06
(1699279639.260752) can0 386#90068E0680069306
(1699279639.281040) can0 386#950687068E069B06
(1699279639.300755) can0 386#900687069D068F06
(1699279639.320816) can0 386#93068F068A068A06
(1699279639.340739) can0 386#9206930691069206
(1699279639.360779) can0 386#8F069306A6069006
(1699279639.381037) can0 386#9206940693068F06
(1699279639.400782) can0 386#96068F0688069806
(1699279639.420819) can0 386#97068D0694069E06
(1699279639.440779) can0 386#95068F069D068F06
(1699279639.460805) can0 386#9606920691069006
(1699279639.480804) can0 386#9906960698069806
(1699279639.500842) can0 386#95069706A4069606
(1699279639.520849) can0 386#97069A0694069306
(1699279639.540805) can0 386#9A06940691069E06
(1699279639.560806) can0 386#9D0693069B06A406
(1699279639.580870) can0 386#9B06970698069206
(1699279639.600848) can0 386#9B06960697069206
(1699279639.620808) can0 386#9F069C06A0069A06
(1699279639.640809) can0 386#9A069D06A6069806
(1699279639.660868) can0 386#9F069D0693069906
(1699279639.680632) can0 386#A0069A069706A106
(1699279639.700613) can0 386#A0069606A106A006
(1699279639.720577) can0 386#9C0695069A069206
(1699279639.740592) can0 386#9C069B0699069806
(1699279639.760590) can0 386#A2069F06A7069D06
(1699279639.780874) can0 386#9F069D06A4069D06
(1699279639.800615) can0 386#A206A00694069E06
(1699279639.820652) can0 386#A00699069A06A606
(1699279639.840616) can0 386#A3069606A106A206
(1699279639.860603) can0 386#9F069A0699069406
(1699279639.880872) can0 386#96069A069F069B06
(1699279639.900616) can0 386#A106A206AB06A406
(1699279639.920641) can0 386#A106A106A7069D06
(1699279639.940677) can0 386#A1069D069B069E06
(1699279639.960639) can0 386#A6069A06A406A906
(1699279639.980897) can0 386#A4069A06A506A106
(1699279640.000647) can0 386#A1069B069F069A06
(1699279640.020639) can0 386#9B069F06A506A106
(1699279640.040656) can0 386#A006A206B206A206
(1699279640.060704) can0 386#9F06A406A606A106
(1699279640.080905) can0 386#A606A2069806A406
(1699279640.100707) can0 386#A906A106A206AD06
(1699279640.120655) can0 386#A4069D06A806A606
(1699279640.140707) can0 386#A806A006A0069F06
(1699279640.160664) can0 386#A606A406A706A406
(1699279640.180955) can0 386#A406A406B606A206
(1699279640.200650) can0 386#A706A706A606A106
(1699279640.220659) can0 386#A906A4069F06A806
(1699279640.240736) can0 386#AD06A306AD06AF06
(1699279640.260703) can0 386#AB06A406A906A206
(1699279640.280973) can0 386#AB06A606A506A006
(1699279640.300681) can0 386#AD06AD06AE06A706
(1699279640.320722) can0 386#AB06AE06B506A806
(1699279640.340747) can0 386#AC06AB06A106A906
(1699279640.360981) can0 386#AE06A806A706B106
(1699279640.381003) can0 386#AE06A306B106B206
(1699279640.400744) can0 386#AF06AB06AC06A206
(1699279640.420690) can0 386#AD06AC06A806A506
(1699279640.440688) can0 386#B106AD06B406AE06
(1699279640.460762) can0 386#B206B406B406AC06
(1699279640.480962) can0 386#B206B206A406AB06
(1699279640.500964) can0 386#B206A706AB06B806
(1699279640.520884) can0 386#B506A706B206B406
(1699279640.540775) can0 386#B106AB06AB06A506
(1699279640.560721) can0 386#A906AB06AF06A706
(1699279640.581010) can0 386#B106B206BE06AD06
(1699279640.600934) can0 386#AF06B206B806AE06
(1699279640.620938) can0 386#B206AF06A906B106
(1699279640.640806) can0 386#B806AE06AE06B906
(1699279640.661006) can0 386#B406A706B306AF06
(1699279640.681049) can0 386#B406AC06AD06AC06
(1699279640.700729) can0 386#AF06B106B406B406
(1699279640.720799) can0 386#B106B406C106B806
(1699279640.740808) can0 386#AF06B206B506B306
(1699279640.760946) can0 386#B506AF06AE06B406
(1699279640.780955) can0 386#B806AD06B606C306
(1699279640.800819) can0 386#B706A906B906B306
(1699279640.820755) can0 386#B906B306B306AB06
(1699279640.840780) can0 386#B706B406BB06B506
(1699279640.861031) can0 386#B306B306C306B506
(1699279640.881039) can0 386#BA06B806B206AF06
(1699279640.900764) can0 386#B706B106B206BA06
(1699279640.921065) can0 386#B906AE06C006C006
(1699279640.941095) can0 386#B706B306BA06B106
(1699279640.960993) can0 386#B706B406B406B206
(1699279640.981205) can0 386#BC06B806C106BD06
(1699279641.001089) can0 386#BC06BA06C306B906
(1699279641.021064) can0 386#BD06BA06B406B906
(1699279641.041069) can0 386#BE06B506BA06C906
(1699279641.061063) can0 386#BF06B306C106C306
(1699279641.081091) can0 386#BE06B806BF06B406
(1699279641.101118) can0 386#B906BD06C106BA06
(1699279641.121112) can0 386#BE06BD06CE06C006
(1699279641.141030) can0 386#BE06C106C306BB06
(1699279641.161132) can0 386#C606C206B806BE06
(1699279641.181110) can0 386#C706BD06C106CB06
(1699279641.201114) can0 386#C406BC06C106BF06
(1699279641.221098) can0 386#C406C106BB06B506
(1699279641.241115) can0 386#C206BF06C706C106
(1699279641.261090) can0 386#C206C406D106C106
(1699279641.281136) can0 386#C306C306BE06BE06
(1699279641.301156) can0 386#C806C106C406C906
(1699279641.321156) can0 386#C806BF06CC06D106
(1699279641.341155) can0 386#C606BE06C506BF06
(1699279641.361155) can0 386#C606C306C406BA06
(1699279641.381385) can0 386#CB06C806D106C406
(1699279641.401171) can0 386#C706C706D506C906
(1699279641.421138) can0 386#CB06CC06C006CB06
(1699279641.441133) can0 386#D006C906C606D506
(1699279641.461135) can0 386#CD06C106CF06CE06
(1699279641.481415) can0 386#CB06C306C406BF06
(1699279641.501193) can0 386#C606C906CE06CB06
(1699279641.521203) can0 386#CC06CB06DE06CE06
(1699279641.541147) can0 386#CC06D206D106C706
(1699279641.561202) can0 386#D306D006C506CB06
(1699279641.581407) can0 386#D606C706D406D806
(1699279641.601204) can0 386#D006C606CF06CB06
(1699279641.621208) can0 386#D306D006C406BF06
(1699279641.641179) can0 386#D106CC06D406CE06
(1699279641.661375) can0 386#CB06CD06E206D306
(1699279641.681476) can0 386#CE06D306CA06CE06
(1699279641.701123) can0 386#D306CC06C506D406
(1699279641.721382) can0 386#D506CB06D806DA06
(1699279641.741467) can0 386#D606CE06D406CA06
(1699279641.761477) can0 386#CD06CC06CF06CC06
(1699279641.781465) can0 386#DC06D306E306D306
(1699279641.801478) can0 386#D606D506DB06CE06
(1699279641.821278) can0 386#D206D306CA06D006
(1699279641.841187) can0 386#DB06D006D606DE06
(1699279641.861508) can0 386#D706CD06DB06D606
(1699279641.881489) can0 386#D506D206CE06CE06
(1699279641.901208) can0 386#D106D206D506D306
(1699279641.921208) can0 386#D006D306E406D606
(1699279641.941196) can0 386#D106D806D806D606
(1699279641.961234) can0 386#D506D806C306D806
(1699279641.981274) can0 386#E406D606DA06E406
(1699279642.001235) can0 386#D806CC06E706D806
(1699279642.021271) can0 386#D306CE06D606D006
(1699279642.041273) can0 386#E106DA06E206DA06
(1699279642.061235) can0 386#D706D606E706D906
(1699279642.081264) can0 386#D206DB06D406D806
(1699279642.101278) can0 386#DE06D806D806DE06
(1699279642.121254) can0 386#DB06C906E306DE06
(1699279642.141258) can0 386#CE06CC06D406CB06
(1699279642.161197) can0 386#D306CE06BA06CF06
(1699279642.181294) can0 386#DE06D306E906E006
(1699279642.201254) can0 386#DA06DC06ED06DE06
(1699279642.221235) can0 386#DF06DF06C106D506
(1699279642.241326) can0 386#DE06D006D306E306
(1699279642.261273) can0 386#D706C606E306DA06
(1699279642.281317) can0 386#DC06D306D006C906
(1699279642.301222) can0 386#D306D206D406D006
(1699279642.321308) can0 386#CE06D106F106DA06
(1699279642.341309) can0 386#D106D706D506CE06
(1699279642.361318) can0 386#D206CE06C306CE06
(1699279642.381331) can0 386#D106C806D006D906
(1699279642.401255) can0 386#CE06C606D306C906
(1699279642.421308) can0 386#CC06C606CF06CB06
(1699279642.441309) can0 386#CE06C606D606D406
(1699279642.461350) can0 386#C606C606D906CF06
(1699279642.481261) can0 386#C406C406CE06CB06
(1699279642.501354) can0 386#C406BF06CE06D506
(1699279642.521310) can0 386#C706BD06D106D106
(1699279642.541371) can0 386#C406BF06CB06C006
(1699279642.561353) can0 386#BF06C206CA06C006
(1699279642.581353) can0 386#C206C306D406C706
(1699279642.601344) can0 386#C206C206CB06CB06
(1699279642.621311) can0 386#C706C606C106C906
(1699279642.641314) can0 386#CB06C106CC06D306
(1699279642.661308) can0 386#C806B906C706C606
(1699279642.681630) can0 386#C706BD06C106BE06
(1699279642.701380) can0 386#C106C106C606BF06
(1699279642.721573) can0 386#BE06C406CE06C006
(1699279642.741398) can0 386#C306C606BE06BE06
(1699279642.761402) can0 386#C306C106BA06C406
(1699279642.781395) can0 386#C306BA06C506CC06
(1699279642.801402) can0 386#C706BC06C106B906
(1699279642.821335) can0 386#C906C206BA06B406
(1699279642.841360) can0 386#C806C406C906C306
(1699279642.861418) can0 386#C306C406CB06C506
(1699279642.881419) can0 386#C606C806B906BD06
(1699279642.901319) can0 386#C306BF06BA06C306
(1699279642.921415) can0 386#C406BC06C106C906
(1699279642.941459) can0 386#C306BC06BE06BA06
(1699279642.961618) can0 386#BF06C306BE06BA06
(1699279642.981443) can0 386#C606C306CB06C106
(1699279643.001449) can0 386#C106C406C306BF06
(1699279643.021454) can0 386#C306C306B806BF06
(1699279643.041446) can0 386#C406BD06C106CA06
(1699279643.061453) can0 386#C606BA06C406C106
(1699279643.081432) can0 386#C206BC06BD06B906
(1699279643.101356) can0 386#BA06BD06C406C106
(1699279643.121642) can0 386#BE06C306CF06C106
(1699279643.141486) can0 386#BD06C206BD06BA06
(1699279643.161462) can0 386#BF06BF06BA06BF06
(1699279643.181624) can0 386#C606BA06C406CB06
(1699279643.201480) can0 386#BF06B706C106BB06
(1699279643.221629) can0 386#C206BA06BD06B806
(1699279643.241489) can0 386#BF06BC06C306BE06
(1699279643.261487) can0 386#B806BE06CC06C006
(1699279643.281481) can0 386#BD06BD06B906B906
(1699279643.301475) can0 386#BD06B806B306C306
(1699279643.321507) can0 386#BC06B406BF06C606
(1699279643.341501) can0 386#BA06B306BE06B306
(1699279643.361496) can0 386#B806B406B906B306
(1699279643.381509) can0 386#BC06BC06C506BE06
(1699279643.401499) can0 386#B906BC06C106BE06
(1699279643.421513) can0 386#BA06B906B606B906
(1699279643.441529) can0 386#BE06B406BB06C606
(1699279643.461471) can0 386#BD06B306BE06C406
(1699279643.481539) can0 386#BD06B406B806B406
(1699279643.501480) can0 386#B806B706BF06B806
(1699279643.521688) can0 386#B806BC06CA06BD06
(1699279643.541536) can0 386#B906BE06BA06B806
(1699279643.561536) can0 386#BE06BC06B506B806
(1699279643.581497) can0 386#C206B806BF06C406
(1699279643.601553) can0 386#C206B406BA06B906
(1699279643.621774) can0 386#C206B806B506AF06
(1699279643.641524) can0 386#BC06BC06BE06B606
(1699279643.661511) can0 386#B806BE06C506BD06
(1699279643.681798) can0 386#BC06BF06B406BB06
(1699279643.701535) can0 386#BE06BE06B506BF06
(1699279643.721787) can0 386#BE06B806C006C706
(1699279643.741544) can0 386#BF06B406BB06B806
(1699279643.761546) can0 386#BD06B706B806B206
(1699279643.781563) can0 386#BF06B906C306BD06
(1699279643.801568) can0 386#BC06BA06C506BE06
(1699279643.821828) can0 386#BD06BE06B806BD06
(1699279643.841597) can0 386#BD06B506BD06C906
(1699279643.861590) can0 386#BD06B306C306C406
(1699279643.881579) can0 386#BD06B506B906B506
(1699279643.901589) can0 386#B806B806BB06B906
(1699279643.921612) can0 386#BD06B906CB06C006
(1699279643.941608) can0 386#BA06BA06C006BB06
(1699279643.961607) can0 386#BF06BC06B606BE06
(1699279643.981602) can0 386#C106B506C106CA06
(1699279644.001605) can0 386#BD06B306C006C006
(1699279644.021544) can0 386#BE06B806B806B606
(1699279644.041574) can0 386#B806B906C406BB06
(1699279644.061617) can0 386#B906BC06CC06C006
(1699279644.081593) can0 386#B906BD06B906BB06
(1699279644.101840) can0 386#BC06BC06B806BF06
(1699279644.121866) can0 386#BE06B506C306CA06
(1699279644.141902) can0 386#BD06B306BE06BA06
(1699279644.161821) can0 386#BD06B806B906B606
(1699279644.182036) can0 386#BE06B806C406BF06
(1699279644.201815) can0 386#BC06BD06C506BF06
(1699279644.221818) can0 386#BD06BF06B606BB06
(1699279644.241808) can0 386#BC06B906B906C306
(1699279644.261854) can0 386#BD06B706C406C706
(1699279644.282164) can0 386#BE06B506BD06B806
(1699279644.302097) can0 386#B806B906BB06BA06
(1699279644.321917) can0 386#BD06B806CC06BF06
(1699279644.341922) can0 386#BD06BC06C506BB06
(1699279644.362080) can0 386#BD06BE06B306BD06
(1699279644.381840) can0 386#BE06B906BA06CA06
(1699279644.401921) can0 386#BE06B506BF06C306
(1699279644.421673) can0 386#BE06B706B906B406
(1699279644.441690) can0 386#B506B806C006BE06
(1699279644.461671) can0 386#B906BC06CC06C006
(1699279644.481683) can0 386#BA06BF06BD06BA06
(1699279644.501699) can0 386#BF06BD06B506BB06
(1699279644.521627) can0 386#BF06B706C006CB06
(1699279644.541629) can0 386#BE06B806C006BE06
(1699279644.561701) can0 386#BE06BA06BA06B406
(1699279644.581698) can0 386#BA06B906C106BE06
(1699279644.601718) can0 386#BD06C106C906BE06
(1699279644.621706) can0 386#BE06C206B906BB06
(1699279644.641726) can0 386#BD06BC06BA06C106
(1699279644.661728) can0 386#BF06B806C106C906
(1699279644.681971) can0 386#BF06B506BA06B606
(1699279644.701681) can0 386#BD06BE06BA06B306
(1699279644.721724) can0 386#BF06BD06C906C006
(1699279644.741760) can0 386#BE06BF06C706BF06
(1699279644.761660) can0 386#BF06C406B506BD06
(1699279644.781965) can0 386#C106BA06BB06C906
(1699279644.801752) can0 386#C306BA06C406C606
(1699279644.821711) can0 386#BF06BA06BD06B606
(1699279644.841713) can0 386#BA06BA06BE06BB06
(1699279644.861709) can0 386#BF06C106CA06C306
(1699279644.881713) can0 386#BE06C306C106B906
(1699279644.901771) can0 386#C406C206B406BB06
(1699279644.921760) can0 386#C406BA06C106CB06
(1699279644.941727) can0 386#C606BC06C306BF06
(1699279644.961776) can0 386#C706BE06B906B506
(1699279644.981775) can0 386#C106BE06C106BE06
(1699279645.001739) can0 386#C106C406D006BF06
(1699279645.021739) can0 386#BF06C406C006BD06
(1699279645.041730) can0 386#C606C106BB06C006
(1699279645.061786) can0 386#CB06BA06C606CA06
(1699279645.081762) can0 386#C306BA06C406BD06
(1699279645.101800) can0 386#C606BE06C006B806
(1699279645.121782) can0 386#CC06BE06CA06C006
(1699279645.141805) can0 386#C606C606C906C006
(1699279645.161762) can0 386#C706C606BB06BD06
(1699279645.181761) can0 386#CB06C106BF06C406
(1699279645.201794) can0 386#C906BD06CA06CA06
(1699279645.221841) can0 386#C606BA06C006BB06
(1699279645.241793) can0 386#C106BD06C506BB06
(1699279645.261801) can0 386#C606BF06D806BF06
(1699279645.281786) can0 386#C706C406C706BE06
(1699279645.301764) can0 386#CC06C306BA06C006
(1699279645.321809) can0 386#CB06BD06C906CB06
(1699279645.341981) can0 386#C906BA06CA06C406
(1699279645.361807) can0 386#C706BC06BF06B806
(1699279645.381989) can0 386#C206C106C606C106
(1699279645.401856) can0 386#C406C406D506C506
(1699279645.421837) can0 386#C406C706C106C006
(1699279645.441779) can0 386#C706C606C006C506
(1699279645.461830) can0 386#CB06BE06C706D006
(1699279645.482101) can0 386#C806BA06C406C006
(1699279645.501879) can0 386#C906C106C906BB06
(1699279645.522131) can0 386#CC06C406D106C406
(1699279645.541869) can0 386#C406C806D106C606
(1699279645.561796) can0 386#CB06C806C106C106
(1699279645.581873) can0 386#C906C206BF06C906
(1699279645.601877) can0 386#C906C206C706CB06
(1699279645.622111) can0 386#CB06C106C006BB06
(1699279645.641906) can0 386#C306BE06C306BF06
(1699279645.661915) can0 386#C806C306D606C906
(1699279645.682126) can0 386#C806C706CA06C406
(1699279645.702157) can0 386#C906C406BF06C106
(1699279645.722152) can0 386#CC06C206CC06CF06
(1699279645.741879) can0 386#CB06C106C706CC06
(1699279645.761916) can0 386#C906BF06C306BD06
(1699279645.781926) can0 386#C206C106C706C306
(1699279645.801907) can0 386#C106C406D106C706
(1699279645.822136) can0 386#C106C406C306C106
(1699279645.841907) can0 386#C406C306BE06C506
(1699279645.861915) can0 386#C606BE06C906D006
(1699279645.882173) can0 386#C406B906C506C306
(1699279645.901896) can0 386#C306BD06C006BD06
(1699279645.922200) can0 386#C306BE06CC06C406
(1699279645.941942) can0 386#C106C206CF06C606
(1699279645.961912) can0 386#C206C306C306C506
(1699279645.981853) can0 386#C106C106C406CC06
(1699279646.001902) can0 386#C306BC06CA06D006
(1699279646.022201) can0 386#C206B906C306BF06
(1699279646.041937) can0 386#BF06BF06C506BF06
(1699279646.061945) can0 386#C306BD06D106C606
(1699279646.081941) can0 386#C206C206C706C506
(1699279646.101949) can0 386#C706C706BB06C106
(1699279646.122234) can0 386#C706BF06C506CF06
(1699279646.141981) can0 386#C706BD06C606CB06
(1699279646.161983) can0 386#C706C206C306BB06
(1699279646.182226) can0 386#BF06BF06C506C306
(1699279646.201944) can0 386#C206C306D306C606
(1699279646.222188) can0 386#C106C706C006BF06
(1699279646.241982) can0 386#C406C706BA06C706
(1699279646.261974) can0 386#C906C306CC06D306
(1699279646.282011) can0 386#C706C106C906C406
(1699279646.302008) can0 386#C906C606BF06BE06
(1699279646.322026) can0 386#C906C406CE06C506
(1699279646.341978) can0 386#C206C406D306C606
(1699279646.361970) can0 386#C906C906BF06C506
(1699279646.382007) can0 386#C706C806C106CB06
(1699279646.402014) can0 386#C806C406CF06D106
(1699279646.421992) can0 386#C906BE06C606C306
(1699279646.441991) can0 386#C406C206C606C406
(1699279646.462035) can0 386#C906C406D506CA06
(1699279646.481993) can0 386#C806C806CB06C706
(1699279646.501995) can0 386#C706C806BF06C906
(1699279646.521964) can0 386#C906C606CB06D506
(1699279646.541969) can0 386#CB06C306CA06CF06
(1699279646.561985) can0 386#C806C306C506BE06
(1699279646.582451) can0 386#C206C306CE06C706
(1699279646.602456) can0 386#C406C806D506CC06
(1699279646.622303) can0 386#C206C906C506C906
(1699279646.642294) can0 386#C706CB06BE06CE06
(1699279646.662331) can0 386#C806C406CC06D906
(1699279646.682286) can0 386#C606C206CC06CA06
(1699279646.702228) can0 386#C706C306C306C306
(1699279646.722229) can0 386#C706C606CF06CB06
(1699279646.742240) can0 386#C106C806D406CF06
(1699279646.762325) can0 386#C406CB06C106CA06
(1699279646.782336) can0 386#C606CB06C306D006
(1699279646.802318) can0 386#C706C406CC06D506
(1699279646.822333) can0 386#C606C206C606C406
(1699279646.842323) can0 386#C206C306C506C706
(1699279646.862316) can0 386#C306C406D606D006
(1699279646.882354) can0 386#C706CC06CC06CF06
(1699279646.902355) can0 386#C806CC06BD06CC06
(1699279646.922111) can0 386#CB06C706C706DA06
(1699279646.942132) can0 386#CB06C706CB06D306
(1699279646.962072) can0 386#C906C606C506C406
(1699279646.982073) can0 386#C306C406C906CC06
(1699279647.002098) can0 386#C606CC06D506CE06
(1699279647.022110) can0 386#C706D206C906CA06
(1699279647.042134) can0 386#CD06D006C306CC06
(1699279647.062135) can0 386#CC06C806CC06D806
(1699279647.082110) can0 386#CC06C706CA06CB06
(1699279647.102135) can0 386#CC06C806C406C406
(1699279647.122151) can0 386#D006C906D006CB06
(1699279647.142159) can0 386#C906CE06D006CF06
(1699279647.162158) can0 386#C906CE06C406CB06
(1699279647.182063) can0 386#CC06CD06C606D106
(1699279647.202163) can0 386#C906C806CC06D506
(1699279647.222177) can0 386#C806C306C706C606
(1699279647.242156) can0 386#C706C606CA06C706
(1699279647.262141) can0 386#C806C706D806CF06
(1699279647.282153) can0 386#C806CB06CF06CE06
(1699279647.302129) can0 386#C906CD06C006CB06
(1699279647.322187) can0 386#CD06C906CE06D906
(1699279647.342148) can0 386#D006C706D106D106
(1699279647.362185) can0 386#C706C606C706C706
(1699279647.382133) can0 386#BF06C406D306D006
(1699279647.402153) can0 386#C706C806D906D006
(1699279647.422418) can0 386#C606CB06C606CB06
(1699279647.442183) can0 386#C906C806C906D006
(1699279647.462209) can0 386#CC06C606D106DA06
(1699279647.482176) can0 386#C906C306CE06CA06
(1699279647.502171) can0 386#CC06C606C506C506
(1699279647.522450) can0 386#CD06C706CE06CB06
(1699279647.542174) can0 386#C806CC06DE06CE06
(1699279647.562204) can0 386#CE06D006CA06C906
(1699279647.582189) can0 386#CC06CC06C406D306
(1699279647.602200) can0 386#CC06C806D006D506
(1699279647.622457) can0 386#D006C306D006C406
(1699279647.642207) can0 386#C706C706CB06C906
(1699279647.662189) can0 386#CC06CD06D906D106
(1699279647.682236) can0 386#CE06CE06D306CB06
(1699279647.702259) can0 386#D106CE06C606CB06
(1699279647.722513) can0 386#D206CB06CC06DA06
(1699279647.742211) can0 386#D306C606CB06D006
(1699279647.762248) can0 386#D106C806CF06C506
(1699279647.782203) can0 386#CB06CB06D406CC06
(1699279647.802220) can0 386#CB06CD06D606D106
(1699279647.822510) can0 386#CC06D106CE06CB06
(1699279647.842286) can0 386#CE06D006CB06D006
(1699279647.862268) can0 386#D306C906D006DD06
(1699279647.882247) can0 386#D206C606D106CC06
(1699279647.902194) can0 386#D006C706D006C606
(1699279647.922536) can0 386#D306CB06D906D106
(1699279647.942233) can0 386#D006D106D806CF06
(1699279647.962252) can0 386#D106D206CB06CC06
(1699279647.982275) can0 386#D206D206D406DB06
(1699279648.002268) can0 386#D506CB06D506D906
(1699279648.022517) can0 386#D206C706CF06C906
(1699279648.042265) can0 386#CD06CE06D506CC06
(1699279648.062310) can0 386#D106CC06E306D606
(1699279648.082276) can0 386#D206D306D406D106
(1699279648.102274) can0 386#D506D306CA06D006
(1699279648.122533) can0 386#D706D006D506DD06
(1699279648.142298) can0 386#D706CC06D506D106
(1699279648.162290) can0 386#D706D006D006CA06
(1699279648.182294) can0 386#D206CD06D806D306
(1699279648.202296) can0 386#D506D106E206D406
(1699279648.222565) can0 386#D006D606D006D106
(1699279648.242243) can0 386#D506D506CF06DB06
(1699279648.262356) can0 386#D806CC06DD06DF06
(1699279648.282350) can0 386#D506CD06D506CE06
(1699279648.302358) can0 386#D506D106D306D006
(1699279648.322321) can0 386#DA06CE06DF06D806
(1699279648.342262) can0 386#D306D506DB06D106
(1699279648.362365) can0 386#D806DA06CE06D406
(1699279648.382325) can0 386#DA06D506D506DF06
(1699279648.402329) can0 386#D706D206E306DA06
(1699279648.422556) can0 386#DA06CE06D306CE06
(1699279648.442311) can0 386#D006CE06D906D806
(1699279648.462343) can0 386#D106D106E906D906
(1699279648.482350) can0 386#D706D706D906D506
(1699279648.502398) can0 386#D706D606D106D906
(1699279648.522640) can0 386#D706D006DF06E706
(1699279648.542630) can0 386#DC06D106D806D506
(1699279648.562613) can0 386#DC06D206D106CE06
(1699279648.582608) can0 386#DA06D306DF06D506
(1699279648.602643) can0 386#D806D806E306DA06
(1699279648.622640) can0 386#DA06D706DA06D806
(1699279648.642641) can0 386#DB06D706D806E006
(1699279648.662666) can0 386#DF06D306DB06E206
(1699279648.682565) can0 386#DE06D106DB06CE06
(1699279648.702651) can0 386#D506D306DE06D406
(1699279648.722623) can0 386#DE06D506E706DB06
(1699279648.742668) can0 386#DA06DA06DB06D106
(1699279648.762695) can0 386#DC06D806DA06D606
(1699279648.782678) can0 386#E106D606E006E706
(1699279648.802676) can0 386#E006D306DE06DB06
(1699279648.822646) can0 386#E006D106DD06D006
(1699279648.842634) can0 386#DC06D306E206D806
(1699279648.862688) can0 386#D806D806E806DA06
(1699279648.882651) can0 386#D706DA06D906D806
(1699279648.902686) can0 386#DC06DA06D906DE06
(1699279648.922711) can0 386#DF06D206E306E406
(1699279648.942704) can0 386#DE06D106DB06D306
(1699279648.962719) can0 386#DB06D306DD06CF06
(1699279648.982683) can0 386#DE06D206EC06DA06
(1699279649.002735) can0 386#DE06D806E306DB06
(1699279649.023967) can0 386#DF06DB06D906DA06
(1699279649.042673) can0 386#E006DA06E306E806
(1699279649.063951) can0 386#DF06D306E306E006
(1699279649.083926) can0 386#DF06CE06DB06D306
(1699279649.103890) can0 386#D806D306E406D906
(1699279649.124281) can0 386#DA06D606EE06DE06
(1699279649.143914) can0 386#D806D806DD06D906
(1699279649.164005) can0 386#DF06DA06D906DA06
(1699279649.183953) can0 386#E106D606E306E706
(1699279649.204008) can0 386#E106D506DF06D806
(1699279649.223973) can0 386#E006D306DE06D006
(1699279649.243951) can0 386#E106D606EC06DD06
(1699279649.262758) can0 386#DF06DC06E706DE06
(1699279649.282754) can0 386#E006DF06D606D806
(1699279649.302773) can0 386#DF06D806DE06E206
(1699279649.324250) can0 386#E106D306E506E506
(1699279649.342720) can0 386#E306D506DB06D506
(1699279649.362781) can0 386#D706D806E206D606
(1699279649.382778) can0 386#DE06D306F106DD06
(1699279649.402742) can0 386#DB06DC06DE06D806
(1699279649.424306) can0 386#E006DF06D806DB06
(1699279649.442745) can0 386#E106D606E706E906
(1699279649.462970) can0 386#E106D506E406DA06
(1699279649.482781) can0 386#E306D606DD06D306
(1699279649.502747) can0 386#DF06D706E706DD06
(1699279649.522806) can0 386#DE06DC06EC06DE06
(1699279649.542785) can0 386#DC06DE06DB06DB06
(1699279649.562783) can0 386#DF06DE06DB06E506
(1699279649.582831) can0 386#E306D806E506EA06
(1699279649.602551) can0 386#E006D706E006D906
(1699279649.622795) can0 386#DC06DB06DF06D906
(1699279649.642604) can0 386#E306DC06EC06E206
(1699279649.662540) can0 386#E006E406E506DE06
(1699279649.682527) can0 386#E506E406D906DE06
(1699279649.702590) can0 386#E506E006DF06EA06
(1699279649.722733) can0 386#E506DE06E406E406
(1699279649.742551) can0 386#E706DA06DF06D606
(1699279649.762553) can0 386#E006DC06E806DF06
(1699279649.782598) can0 386#E006DF06EE06E306
(1699279649.802564) can0 386#E106E306DB06DE06
(1699279649.822834) can0 386#E406E306DD06E206
(1699279649.842556) can0 386#E406DF06E706EE06
(1699279649.862579) can0 386#E306DC06DF06E006
(1699279649.882575) can0 386#E406DF06DF06DA06
(1699279649.902565) can0 386#E706E306F006E306
(1699279649.922832) can0 386#E306E706E706E406
(1699279649.942661) can0 386#E406E406DA06DF06
(1699279649.962625) can0 386#E406E806E206ED06
(1699279649.982637) can0 386#E706E106E206ED06
(1699279650.002624) can0 386#E506DA06DF06DD06
(1699279650.022821) can0 386#DF06E406E906E206
(1699279650.042618) can0 386#E006E106EE06E806
(1699279650.062598) can0 386#E006E406DD06E306
(1699279650.082664) can0 386#E406E806DD06E206
(1699279650.102663) can0 386#E406E106E506EE06
(1699279650.122845) can0 386#E706E006E006DF06
(1699279650.142681) can0 386#E806E106E206D906
(1699279650.162825) can0 386#E506DE06EE06E806
(1699279650.182614) can0 386#E306E806E806E706
(1699279650.202672) can0 386#E706EA06DB06DF06
(1699279650.222895) can0 386#E406E106E006EA06
(1699279650.242645) can0 386#E406E506E706EE06
(1699279650.262679) can0 386#E906E306DF06DE06
(1699279650.282688) can0 386#DE06DC06E506E206
(1699279650.302653) can0 386#DC06E306F006EC06
(1699279650.322950) can0 386#E106E806DE06E306
(1699279650.342696) can0 386#E806EC06DE06E206
(1699279650.362684) can0 386#E406E806E706F106
(1699279650.382702) can0 386#E406DE06E006E306
(1699279650.402710) can0 386#E706E006E006DE06
(1699279650.422707) can0 386#E706E306EC06E006
(1699279650.442669) can0 386#E106E006E406E406
(1699279650.462667) can0 386#E506E906DD06E406
(1699279650.482730) can0 386#DF06E506E706E506
(1699279650.502704) can0 386#E006E006E206F206
(1699279650.522895) can0 386#E406E106DE06DF06
(1699279650.542737) can0 386#DB06DE06E506E206
(1699279650.562734) can0 386#E006DC06F106ED06
(1699279650.582732) can0 386#E306E806DE06E506
(1699279650.602694) can0 386#E006E706D606E206
(1699279650.622982) can0 386#E306E006EA06ED06
(1699279650.642754) can0 386#E506DF06E506E206
(1699279650.662753) can0 386#E106DC06DE06E006
(1699279650.682714) can0 386#DC06DC06E906E506
(1699279650.702757) can0 386#DC06E006ED06E706
(1699279650.722722) can0 386#DC06E706DB06E506
(1699279650.742761) can0 386#E006E406DE06E806
(1699279650.762683) can0 386#E006DB06E906EE06
(1699279650.782795) can0 386#DE06DB06E206E206
(1699279650.802684) can0 386#DF06DE06DF06DD06
(1699279650.824081) can0 386#DE06DF06EC06E506
(1699279650.844024) can0 386#DE06E506E406E206
(1699279650.864054) can0 386#E506E706D406DF06
(1699279650.884051) can0 386#E106DC06DF06F006
(1699279650.904077) can0 386#DF06E806E806E906
(1699279650.923939) can0 386#E906E306DE06DB06
(1699279650.944062) can0 386#DB06D306E706E406
(1699279650.964053) can0 386#D506DA06ED06E506
(1699279650.984047) can0 386#DC06E806D806DF06
(1699279651.002714) can0 386#E506DC06E206E006
(1699279651.022737) can0 386#E106DC06E806F106
(1699279651.042751) can0 386#E706E506DF06E306
(1699279651.062800) can0 386#E406DE06E406DA06
(1699279651.082823) can0 386#E306D706ED06E206
(1699279651.102832) can0 386#E106E106DB06E406
(1699279651.122829) can0 386#DA06E706DE06E506
(1699279651.142812) can0 386#E006E706EC06EA06
(1699279651.162805) can0 386#E506E106E406E906
(1699279651.182793) can0 386#E506DC06DE06DE06
(1699279651.202832) can0 386#DF06DB06E906DE06
(1699279651.224055) can0 386#E306DE06EC06E206
(1699279651.242820) can0 386#DF06E906E306E406
(1699279651.262829) can0 386#E806E806E306E906
(1699279651.282827) can0 386#E706E406EA06F906
(1699279651.302865) can0 386#E806E706E806EC06
(1699279651.324105) can0 386#EC06E006D606DA06
(1699279651.342861) can0 386#E806E006EC06DE06
(1699279651.362880) can0 386#E306E506EC06E806
(1699279651.382846) can0 386#E506E906DE06E506
(1699279651.402862) can0 386#E706E706E406E806
(1699279651.424082) can0 386#E806E406E906F006
(1699279651.442823) can0 386#E806E306E306E006
(1699279651.462847) can0 386#E406E406E806E006
(1699279651.482849) can0 386#E706E306F506E906
(1699279651.502911) can0 386#E806EC06E506EA06
(1699279651.524128) can0 386#EA06EA06DF06E906
(1699279651.542861) can0 386#ED06E806EC06F506
(1699279651.562907) can0 386#EA06E706EA06EC06
(1699279651.582870) can0 386#EA06DF06E406DF06
(1699279651.602867) can0 386#E706E106EE06E406
(1699279651.624105) can0 386#E406E806F006E506
(1699279651.642901) can0 386#E306E506E206E706
(1699279651.662897) can0 386#E806E806E406ED06
(1699279651.682912) can0 386#EA06E706E806F206
(1699279651.703912) can0 386#E506DF06E406E506
(1699279651.724185) can0 386#EA06E406E806E306
(1699279651.742912) can0 386#E706E406F606EA06
(1699279651.763932) can0 386#E406E706E406E906
(1699279651.783926) can0 386#ED06EC06E206E506
(1699279651.803960) can0 386#E906E906EC06F206
(1699279651.824158) can0 386#E906E306EA06EC06
(1699279651.843858) can0 386#EC06DF06E306DF06
(1699279651.863919) can0 386#E306E106EC06E406
(1699279651.883917) can0 386#E306E706F306E906
(1699279651.903932) can0 386#E506E906DF06E306
(1699279651.924201) can0 386#E506E706E406E806
(1699279651.943925) can0 386#E906E506ED06F306
(1699279651.963988) can0 386#EA06E106E206E206
(1699279651.983951) can0 386#E706DF06E306DB06
(1699279652.004000) can0 386#E806E006F506E806
(1699279652.024147) can0 386#E806E806EA06E706
(1699279652.043901) can0 386#E906EA06DA06E506
(1699279652.064031) can0 386#E806E706E706F106
(1699279652.083953) can0 386#E906E006EC06EC06
(1699279652.103957) can0 386#EA06E006E706DA06
(1699279652.124001) can0 386#E106E106EC06E206
(1699279652.144000) can0 386#E106E006F106EA06
(1699279652.163956) can0 386#E406E906E406E506
(1699279652.184021) can0 386#E806EA06E206E706
(1699279652.204057) can0 386#EA06E706E906F606
(1699279652.224203) can0 386#E906E106E306E706
(1699279652.244250) can0 386#E906E006E406DD06
(1699279652.264196) can0 386#EC06E306F206E706
(1699279652.284242) can0 386#E706E506EA06E706
(1699279652.304200) can0 386#E706E706E006E306
(1699279652.324219) can0 386#E806E506EA06ED06
(1699279652.344203) can0 386#EA06E306ED06EA06
(1699279652.364295) can0 386#E806E006E306DE06
(1699279652.384269) can0 386#E106DF06EC06E306
(1699279652.404069) can0 386#E306E106F606EC06
(1699279652.424041) can0 386#E306E806E406E806
(1699279652.444001) can0 386#E806E706DF06E706
(1699279652.464059) can0 386#EA06E406EC06F506
(1699279652.484023) can0 386#E906E106E706E506
(1699279652.504030) can0 386#EA06DE06E306DF06
(1699279652.524053) can0 386#EA06E006F106E706
(1699279652.544043) can0 386#E306E106F006E906
(1699279652.564037) can0 386#E706E806E306E306
(1699279652.584071) can0 386#E806E506E806EA06
(1699279652.604100) can0 386#E706DF06EC06F006
(1699279652.624033) can0 386#E706DE06E406E306
(1699279652.644054) can0 386#E106E106EA06E206
(1699279652.664087) can0 386#E506DF06F606E906
(1699279652.684136) can0 386#E706E506E706E706
(1699279652.704102) can0 386#E706E806E406E906
(1699279652.724076) can0 386#EC06E406ED06F706
(1699279652.744131) can0 386#EA06DE06E806E506
(1699279652.764111) can0 386#E906E006E806DD06
(1699279652.784109) can0 386#E806E306F606E706
(1699279652.804056) can0 386#E506E506F206E906
(1699279652.824051) can0 386#E806EA06E006E806
(1699279652.844017) can0 386#E906E706E406EE06
(1699279652.864127) can0 386#EC06E306ED06F106
(1699279652.884129) can0 386#ED06E006E806DF06
(1699279652.904121) can0 386#E506E106EA06E206
(1699279652.924179) can0 386#EC06E406FB06F006
(1699279652.944085) can0 386#EA06E806EA06E806
(1699279652.964139) can0 386#ED06EC06E406E706
(1699279652.984093) can0 386#F006EA06EE06F506
(1699279653.004143) can0 386#EE06E406E806ED06
(1699279653.024099) can0 386#F006E306E406E206
(1699279653.044351) can0 386#EA06E706F306E906
(1699279653.064128) can0 386#E906E506F506ED06
(1699279653.084067) can0 386#EA06ED06E806E806
(1699279653.104067) can0 386#EA06ED06E706EC06
(1699279653.124418) can0 386#EE06E706F006F306
(1699279653.144430) can0 386#EE06E706E906E206
(1699279653.164186) can0 386#EA06E706EA06E006
(1699279653.184150) can0 386#ED06E706FB06ED06
(1699279653.204174) can0 386#ED06EC06EC06ED06
(1699279653.224416) can0 386#ED06EC06E406E906
(1699279653.244154) can0 386#ED06EA06ED06F606
(1699279653.264154) can0 386#ED06E806F006F006
(1699279653.284094) can0 386#EE06E406ED06E306
(1699279653.304177) can0 386#E906E406F106E906
(1699279653.324442) can0 386#E506E506F606EC06
(1699279653.344154) can0 386#E806EC06E806E706
(1699279653.364184) can0 386#EC06EC06E506EC06
(1699279653.384188) can0 386#EA06E506ED06F706
(1699279653.404192) can0 386#EA06E506E706E806
(1699279653.424493) can0 386#EC06E506EA06E306
(1699279653.444199) can0 386#ED06E506F606EC06
(1699279653.464197) can0 386#EA06E906EA06ED06
(1699279653.484197) can0 386#EE06EC06E706EA06
(1699279653.504143) can0 386#ED06EC06F006F306
(1699279653.524492) can0 386#EE06E806EA06F006
(1699279653.544197) can0 386#ED06E306E806DB06
(1699279653.564185) can0 386#E406E306F006E706
(1699279653.584234) can0 386#E506E506F506EC06
(1699279653.604182) can0 386#E506ED06E006E706
(1699279653.624507) can0 386#E906ED06E406EA06
(1699279653.644210) can0 386#EC06E706F106F706
(1699279653.664235) can0 386#ED06E406E506E806
(1699279653.684238) can0 386#E906E506E806DE06
(1699279653.704282) can0 386#E706E506FA06E906
(1699279653.724506) can0 386#EA06E706EE06ED06
(1699279653.744255) can0 386#EA06EC06E006EC06
(1699279653.764202) can0 386#E706EA06E806F606
(1699279653.784255) can0 386#EC06E506E906F106
(1699279653.804197) can0 386#EA06E406DF06E406
(1699279653.824483) can0 386#E306E906EA06EC06
(1699279653.844218) can0 386#E506E706FA06EE06
(1699279653.864226) can0 386#E706EC06EA06E706
(1699279653.884263) can0 386#EC06ED06E306EA06
(1699279653.904268) can0 386#E906EA06E906F706
(1699279653.924625) can0 386#F106E506ED06E506
(1699279653.944294) can0 386#EA06DF06EC06E006
(1699279653.964258) can0 386#E706E506F206EA06
(1699279653.984300) can0 386#EC06E806ED06EA06
(1699279654.004229) can0 386#E906E806E006E706
(1699279654.024547) can0 386#E406E706EA06F706
(1699279654.044278) can0 386#E906E506ED06F006
(1699279654.064238) can0 386#EA06E006E706DD06
(1699279654.084250) can0 386#DF06E006E906E806
(1699279654.104746) can0 386#E106E106ED06EE06
(1699279654.124743) can0 386#E106E406F306E906
(1699279654.144554) can0 386#E406E406E406E806
(1699279654.164600) can0 386#E406E506E506F306
(1699279654.184617) can0 386#E406E006EA06E706
(1699279654.204618) can0 386#E706DE06ED06E006
(1699279654.225137) can0 386#E406E006EC06EC06
(1699279654.244614) can0 386#E006E106E806EC06
(1699279654.264617) can0 386#E506E706E506E806
(1699279654.284582) can0 386#E306E706EA06F306
(1699279654.304582) can0 386#E806E406E906F506
(1699279654.324869) can0 386#E906E006E806E206
(1699279654.344632) can0 386#E306E306EE06DE06
(1699279654.364804) can0 386#E806E406F306E706
(1699279654.384644) can0 386#E806E706E206E406
(1699279654.404633) can0 386#E906E806E206E406
(1699279654.425133) can0 386#EC06E906E906F506
(1699279654.444573) can0 386#EC06E306E506EA06
(1699279654.464646) can0 386#EE06DF06E406DD06
(1699279654.484571) can0 386#E806E406ED06E406
(1699279654.504572) can0 386#E406E406EE06E806
(1699279654.524876) can0 386#E406EA06E306E506
(1699279654.544631) can0 386#E706E906E406EA06
(1699279654.564671) can0 386#E706E506E706F206
(1699279654.584633) can0 386#E706E306DF06E206
(1699279654.604919) can0 386#E706E106E706E006
(1699279654.624908) can0 386#E806E406F206ED06
(1699279654.644897) can0 386#E706E506E406E906
(1699279654.664935) can0 386#EC06E706E306E306
(1699279654.684633) can0 386#E706E706F006F206
(1699279654.704422) can0 386#E706E306EE06EC06
(1699279654.724365) can0 386#EA06DF06E706E006
(1699279654.744462) can0 386#E406E306F106E706
(1699279654.764625) can0 386#E006E506F206EC06
(1699279654.784627) can0 386#ED06EE06DF06E506
(1699279654.804454) can0 386#F006ED06E406EA06
(1699279654.824364) can0 386#E706E506E806F606
(1699279654.844435) can0 386#EC06ED06E206E506
(1699279654.864452) can0 386#F206E506E706DF06
(1699279654.884644) can0 386#E806E406F506EA06
(1699279654.904491) can0 386#F606ED06E706E906
(1699279654.924456) can0 386#F206EE06DD06E506
(1699279654.944456) can0 386#DA06E706E506F306
(1699279654.964476) can0 386#E506ED06EA06EE06
(1699279654.984486) can0 386#EC06E106F906DF06
(1699279655.004493) can0 386#DC06E106ED06ED06
(1699279655.024932) can0 386#E306EC06DF06F006
(1699279655.044467) can0 386#E806ED06DD06E506
(1699279655.064459) can0 386#E406E806F506E706
(1699279655.084513) can0 386#EA06ED06E706FA06
(1699279655.104690) can0 386#EC06E706DB06ED06
(1699279655.124968) can0 386#E706E006ED06DF06
(1699279655.144518) can0 386#E906E906E906E806
(1699279655.164529) can0 386#E506E706E306ED06
(1699279655.184521) can0 386#E706E906E806E706
(1699279655.204482) can0 386#E706ED06EA06F306
(1699279655.225064) can0 386#E406E406E706F006
(1699279655.244540) can0 386#E706E306E706DF06
(1699279655.264573) can0 386#DF06E506EA06E806
(1699279655.284546) can0 386#E006E306EC06F006
(1699279655.304527) can0 386#E306E806E206E906
(1699279655.324992) can0 386#E406E906E006E806
(1699279655.344548) can0 386#E506E906E706F506
(1699279655.364576) can0 386#E406DF06E306E706
(1699279655.384569) can0 386#EA06DC06E506E206
(1699279655.404568) can0 386#E706E406F206E806
(1699279655.425028) can0 386#DE06E106E506E806
(1699279655.444811) can0 386#E306E706DD06E506
(1699279655.464570) can0 386#E106E506E706EE06
(1699279655.484574) can0 386#E106E006E506ED06
(1699279655.504571) can0 386#E306DE06E006DE06
(1699279655.525057) can0 386#DF06DF06E506DF06
(1699279655.544556) can0 386#E006DB06EE06E706
(1699279655.564588) can0 386#DF06E006DA06E006
(1699279655.584800) can0 386#E106E106E306E406
(1699279655.604839) can0 386#E006DF06EA06F106
(1699279655.625061) can0 386#E006DB06DD06E306
(1699279655.644600) can0 386#E406DA06DE06D906
(1699279655.664538) can0 386#DA06DA06ED06E406
(1699279655.684588) can0 386#D706DB06E906E706
(1699279655.704842) can0 386#DE06E106D806E006
(1699279655.725116) can0 386#DC06DF06E006E906
(1699279655.744862) can0 386#DC06DC06E706EC06
(1699279655.764819) can0 386#E006DB06DA06D806
(1699279655.784870) can0 386#DB06D706E206DB06
(1699279655.804651) can0 386#E006DA06ED06E406
(1699279655.825116) can0 386#DB06DE06DA06E006
(1699279655.844849) can0 386#DC06E006D806DE06
(1699279655.864890) can0 386#DE06DF06E406E906
(1699279655.884888) can0 386#DE06DB06DD06E206
(1699279655.904915) can0 386#E006D706DB06D806
(1699279655.925174) can0 386#D706D806E706DE06
(1699279655.944597) can0 386#D706DB06E706E206
(1699279655.964905) can0 386#D806E006D606DD06
(1699279655.984878) can0 386#DE06E006D606E306
(1699279656.004926) can0 386#DC06DE06E006EA06
(1699279656.025171) can0 386#DC06DB06D906D906
(1699279656.044864) can0 386#DE06D606D806D606
(1699279656.064919) can0 386#DC06D606E406DF06
(1699279656.084938) can0 386#D706DA06DB06DF06
(1699279656.104910) can0 386#D606DE06D306DD06
(1699279656.125154) can0 386#DB06DF06DE06E806
(1699279656.144942) can0 386#DA06D706DE06E406
(1699279656.164839) can0 386#D806D706D906D506
(1699279656.184841) can0 386#D306D606E206DB06
(1699279656.205136) can0 386#D806D706E706E006
(1699279656.225217) can0 386#DA06DE06D406DD06
(1699279656.244927) can0 386#DA06DE06D306E006
(1699279656.264958) can0 386#DB06DC06DD06EC06
(1699279656.284889) can0 386#DC06DB06DA06DB06
(1699279656.304966) can0 386#DB06D706D506D506
(1699279656.325215) can0 386#D806D606E306DF06
(1699279656.344930) can0 386#D306D806DF06DF06
(1699279656.364961) can0 386#D506DF06CF06D906
(1699279656.384984) can0 386#D706DF06D406E506
(1699279656.404925) can0 386#DA06DC06DD06E306
(1699279656.425204) can0 386#DA06DA06D806D606
(1699279656.444998) can0 386#D606D706D606DA06
(1699279656.464910) can0 386#DA06D706E206DF06
(1699279656.484997) can0 386#D706DA06D606DA06
(1699279656.504963) can0 386#D806DC06CF06DD06
(1699279656.525228) can0 386#D806DB06D906E906
(1699279656.545035) can0 386#D806D806DA06DA06
(1699279656.565014) can0 386#D706D706D106D106
(1699279656.585018) can0 386#D206D606DA06D906
(1699279656.604982) can0 386#D306D606DF06DD06
(1699279656.624999) can0 386#D106DB06D506DA06
(1699279656.644981) can0 386#D606DC06D006DF06
(1699279656.664985) can0 386#DA06D806D906E506
(1699279656.685008) can0 386#D606D606D606D606
(1699279656.705006) can0 386#D806D506D806D606
(1699279656.725288) can0 386#D606D506E006DD06
(1699279656.745040) can0 386#D306D506D906DD06
(1699279656.765037) can0 386#D306DF06CE06D906
(1699279656.785053) can0 386#D506DB06D506E506
(1699279656.805021) can0 386#D706D606D906DD06
(1699279656.825291) can0 386#D806D706CF06CC06
(1699279656.845007) can0 386#D206D606D606DA06
(1699279656.865310) can0 386#D306D106E306DD06
(1699279656.885216) can0 386#D606DA06D006D506
(1699279656.905295) can0 386#D606DF06CE06DA06
(1699279656.925327) can0 386#D306D806D806E706
(1699279656.945338) can0 386#D606D506D106D606
(1699279656.965300) can0 386#D606D506CE06D006
(1699279656.985300) can0 386#D006D206DB06DE06
(1699279657.005339) can0 386#D206D606DA06DB06
(1699279657.025805) can0 386#D106DC06CC06D106
(1699279657.045300) can0 386#D206D706D406E306
(1699279657.065830) can0 386#D706D706D806E006
(1699279657.085366) can0 386#D506DA06D006CC06
(1699279657.105633) can0 386#D306D306D806D506
(1699279657.125875) can0 386#D706D106E406DF06
(1699279657.145526) can0 386#D306DA06D506D806
(1699279657.165036) can0 386#D706DE06CC06D806
(1699279657.185020) can0 386#D506DA06D606E706
(1699279657.205020) can0 386#D806D606D506DA06
(1699279657.225927) can0 386#DB06D606D106D306
(1699279657.245040) can0 386#CE06D606D806DA06
(1699279657.265020) can0 386#D106D806DE06DA06
(1699279657.285044) can0 386#D706DF06CE06D606
(1699279657.305111) can0 386#D606DF06CB06DF06
(1699279657.325648) can0 386#DA06DC06D606E306
(1699279657.345300) can0 386#D806DA06D106D006
(1699279657.365300) can0 386#D806D606CE06D306
(1699279657.385413) can0 386#D606D606D906DA06
(1699279657.405313) can0 386#D306D806D506DB06
(1699279657.425670) can0 386#D206DE06D106D806
(1699279657.445322) can0 386#D206DB06D506E406
(1699279657.465326) can0 386#D506D806D106DE06
(1699279657.485410) can0 386#D506D506D106D106
(1699279657.505332) can0 386#D206D506D506D806
(1699279657.525685) can0 386#D306D506E006DD06
(1699279657.545391) can0 386#D206D806D006D806
(1699279657.565394) can0 386#D306DB06CB06DB06
(1699279657.585421) can0 386#D606D706D906E706
(1699279657.605595) can0 386#D506D306D406D606
(1699279657.625611) can0 386#D606D506D106D006
(1699279657.645638) can0 386#D006D206DB06D806
(1699279657.665470) can0 386#D006D306DA06D906
(1699279657.685467) can0 386#CE06DA06CB06D506
(1699279657.705426) can0 386#D206DA06CE06DF06
(1699279657.725740) can0 386#D306D706D506DA06
(1699279657.745484) can0 386#D306D606CE06CE06
(1699279657.765635) can0 386#D306D106CB06D406
(1699279657.785373) can0 386#D006D006DD06DB06
(1699279657.805391) can0 386#CD06D306D006D306
(1699279657.825913) can0 386#CE06D706C606D306
(1699279657.845490) can0 386#CD06D206D306E306
(1699279657.865495) can0 386#D006D106D106D906
(1699279657.885505) can0 386#D106D106C906CE06
(1699279657.905502) can0 386#CB06CE06D406D506
(1699279657.925660) can0 386#CD06CD06DB06D606
(1699279657.945472) can0 386#CB06D506C706D106
(1699279657.965454) can0 386#D006D306C906D806
(1699279657.985470) can0 386#D006D506D406DE06
(1699279658.005535) can0 386#D006D106CE06CF06
(1699279658.025770) can0 386#D006CB06CC06CE06
(1699279658.045502) can0 386#CC06CD06D806D506
(1699279658.065500) can0 386#CD06D506D406D406
(1699279658.085682) can0 386#CB06DA06C506D306
(1699279658.105731) can0 386#D006D806CE06DF06
(1699279658.125979) can0 386#D206D706D106DA06
(1699279658.145801) can0 386#D006D306CB06CB06
(1699279658.165801) can0 386#D506CE06CE06CF06
(1699279658.185701) can0 386#D506D106DA06D606
(1699279658.205770) can0 386#D106D806CB06D406
(1699279658.225991) can0 386#D306D806C306D306
(1699279658.245768) can0 386#D206D606D006DE06
(1699279658.265789) can0 386#D206D506D006D606
(1699279658.285755) can0 386#D506D306C906CF06
(1699279658.305725) can0 386#CD06D206D006D606
(1699279658.326046) can0 386#D206D306DA06D806
(1699279658.345796) can0 386#D106DB06CA06D006
(1699279658.365858) can0 386#D106DB06C906D506
(1699279658.385846) can0 386#D206D606D006DF06
(1699279658.405807) can0 386#D206D106CE06D006
(1699279658.426043) can0 386#D006CE06CF06CE06
(1699279658.445494) can0 386#CE06D306D906D506
(1699279658.465597) can0 386#CB06D206D306D506
(1699279658.485604) can0 386#C906D706C606DB06
(1699279658.505628) can0 386#CE06D506CE06E306
(1699279658.525867) can0 386#D106D006D306D806
(1699279658.545581) can0 386#D006D106CF06CF06
(1699279658.565578) can0 386#D106CE06D106D606
(1699279658.585627) can0 386#D206CE06DD06D906
(1699279658.605622) can0 386#CD06D506CE06D006
(1699279658.625869) can0 386#CD06D706C506D406
(1699279658.645574) can0 386#CD06D706D106E206
(1699279658.665566) can0 386#D106D206D006D106
(1699279658.685603) can0 386#D106D106CA06CC06
(1699279658.705639) can0 386#C906D006D406D806
(1699279658.725889) can0 386#CE06D306DB06D906
(1699279658.745596) can0 386#D006DA06CA06D306
(1699279658.765601) can0 386#D006DA06C506DD06
(1699279658.785604) can0 386#D506DA06D406DB06
(1699279658.805632) can0 386#D606D506CE06C906
(1699279658.825885) can0 386#D106D106CB06CF06
(1699279658.845616) can0 386#D106D006D906D506
(1699279658.865558) can0 386#D006D306D006D006
(1699279658.885632) can0 386#C806DC06C506D306
(1699279658.905623) can0 386#CD06D206CC06DF06
(1699279658.925919) can0 386#D306D206CF06D406
(1699279658.945665) can0 386#CE06CE06C906CE06
(1699279658.965647) can0 386#CB06D206CB06D806
(1699279658.985578) can0 386#D506CD06D806D806
(1699279659.005645) can0 386#D306D706D106CE06
(1699279659.025928) can0 386#CE06DB06C906DD06
(1699279659.045684) can0 386#C906D206D006E006
(1699279659.065667) can0 386#D206CE06D306CB06
(1699279659.085690) can0 386#D006D006C706D006
(1699279659.105614) can0 386#C606D006CE06DA06
(1699279659.125941) can0 386#CE06D006DA06D506
(1699279659.145714) can0 386#CB06D606CF06C906
(1699279659.165714) can0 386#C806D206C006DE06
(1699279659.185722) can0 386#D206D206C306DB06
(1699279659.205639) can0 386#D106CE06CE06C106
(1699279659.225984) can0 386#CE06CB06D106D306
(1699279659.245744) can0 386#CC06CC06D306DA06
(1699279659.265883) can0 386#C606D006CF06CE06
(1699279659.285656) can0 386#C706D206C606CE06
(1699279659.305696) can0 386#CD06D206C506DE06
(1699279659.325987) can0 386#CB06CD06CB06D106
(1699279659.345994) can0 386#C906CB06CF06CA06
(1699279659.365995) can0 386#CC06CC06CB06D306
(1699279659.385983) can0 386#CD06CB06CF06D606
(1699279659.405772) can0 386#C806D206C406D306
(1699279659.425918) can0 386#C906D306C706D806
(1699279659.445902) can0 386#C906CE06CF06DD06
(1699279659.465954) can0 386#CC06CD06C706CA06
(1699279659.486011) can0 386#CD06CC06C406CA06
(1699279659.505757) can0 386#C306CC06D606D506
(1699279659.526671) can0 386#C906D006D506D306
(1699279659.545998) can0 386#C906D706BF06CF06
(1699279659.566026) can0 386#CE06D306C006DA06
(1699279659.586034) can0 386#D206D506D006D406
(1699279659.605964) can0 386#D006D106CB06CB06
(1699279659.626190) can0 386#D506CC06C906D106
(1699279659.645963) can0 386#D006D006D506D306
(1699279659.666044) can0 386#CB06D306CF06CC06
(1699279659.686065) can0 386#CB06D606C306D306
(1699279659.706044) can0 386#D106D506CB06DE06
(1699279659.726054) can0 386#CE06D106CE06CF06
(1699279659.746070) can0 386#CE06CE06C706C506
(1699279659.766071) can0 386#D206CE06CE06D006
(1699279659.786069) can0 386#CE06D206D506D406
(1699279659.805779) can0 386#CB06D606C406D006
(1699279659.826009) can0 386#D006D306C606DA06
(1699279659.846056) can0 386#CE06D306D106DA06
(1699279659.866073) can0 386#CC06D106C906CC06
(1699279659.886054) can0 386#CE06CD06C106CE06
(1699279659.905843) can0 386#C706CD06DA06D506
(1699279659.926080) can0 386#C706CE06D506D006
(1699279659.946060) can0 386#C706D506BD06D006
(1699279659.965753) can0 386#C806CD06C706DF06
(1699279659.985801) can0 386#C806CD06D106D406
(1699279660.005607) can0 386#CB06CB06C406CB06
(1699279660.025810) can0 386#CB06C606C606D006
(1699279660.045784) can0 386#C706C606DB06CF06
(1699279660.065868) can0 386#C806CE06CB06CE06
(1699279660.085769) can0 386#C606C906BD06D106
(1699279660.105588) can0 386#C406C606CE06D806
(1699279660.125868) can0 386#CB06C706D106C706
(1699279660.145530) can0 386#C906C406C906C706
(1699279660.165855) can0 386#C606C706CE06D306
(1699279660.185653) can0 386#CD06CB06D606D006
(1699279660.205660) can0 386#CC06D106C906CB06
(1699279660.225882) can0 386#CC06CE06C406D506
(1699279660.245653) can0 386#D006CB06C706D106
(1699279660.265613) can0 386#CD06C906CA06C006
(1699279660.285555) can0 386#CE06C806C906C906
(1699279660.305652) can0 386#C806C806D006D106
(1699279660.325883) can0 386#C706CB06D306CA06
(1699279660.345580) can0 386#C906D306C406CA06
(1699279660.365577) can0 386#CE06CE06BF06D506
(1699279660.385657) can0 386#CB06CD06C606C606
(1699279660.405655) can0 386#CC06CE06C306C006
(1699279660.425854) can0 386#CD06C406C306CB06
(1699279660.445646) can0 386#CB06C806D406CC06
(1699279660.465641) can0 386#C706CD06CB06C606
(1699279660.485645) can0 386#C706CB06C106CE06
(1699279660.505661) can0 386#C706CB06CC06D506
(1699279660.525945) can0 386#CB06C906C906C506
(1699279660.545611) can0 386#C806C406C506C606
(1699279660.565702) can0 386#C606C406D006CE06
(1699279660.585661) can0 386#CB06C806D506CB06
(1699279660.605668) can0 386#C306D006C506C906
(1699279660.625930) can0 386#C806CC06C606D606
(1699279660.645643) can0 386#CB06C806CE06D306
(1699279660.665726) can0 386#C706C706C606C306
(1699279660.685725) can0 386#C906C306C406C706
(1699279660.705708) can0 386#C306C106D006CB06
(1699279660.725995) can0 386#C606C606D006C706
(1699279660.745653) can0 386#C106C906BE06CA06
(1699279660.765715) can0 386#C406C406C306D406
(1699279660.785715) can0 386#C706C606C906C506
(1699279660.805706) can0 386#C206C306BB06BF06
(1699279660.825976) can0 386#C306BA06C306CA06
(1699279660.845705) can0 386#C206C206D406C906
(1699279660.865751) can0 386#BF06C806C406C906
(1699279660.885739) can0 386#BE06C606B906CE06
(1699279660.905733) can0 386#C206C306C606D306
(1699279660.926029) can0 386#C606C406CB06C606
(1699279660.945939) can0 386#C206BE06BF06C606
(1699279660.965938) can0 386#C406BF06CA06CE06
(1699279660.986034) can0 386#CB06C706D506CC06
(1699279661.005993) can0 386#C606CD06C606CA06
(1699279661.026208) can0 386#C906CC06BB06D306
(1699279661.046014) can0 386#C706CC06C606CA06
(1699279661.065960) can0 386#C906C706C706BF06
(1699279661.085945) can0 386#C706C106BD06C506
(1699279661.106092) can0 386#BD06C606C006C706
(1699279661.126273) can0 386#C606C906CE06C306
(1699279661.146014) can0 386#BC06CB06BA06C406
(1699279661.165983) can0 386#C406C906B806D106
(1699279661.185973) can0 386#C906C806C506C606
(1699279661.206072) can0 386#C906C406C406C006
(1699279661.226038) can0 386#C606C106C506C906
(1699279661.245780) can0 386#BF06C306CE06CE06
(1699279661.265821) can0 386#BF06C706CC06CA06
(1699279661.285778) can0 386#C206CB06C306CF06
(1699279661.305853) can0 386#C306C806C306D506
(1699279661.326086) can0 386#C606C206CA06C506
(1699279661.345859) can0 386#C306C306C606C406
(1699279661.365821) can0 386#C406C406CA06CE06
(1699279661.385842) can0 386#C606C106CA06CE06
(1699279661.405808) can0 386#C306CB06C406CB06
(1699279661.425786) can0 386#BE06CB06C006D106
(1699279661.445831) can0 386#BF06C306C006C906
(1699279661.465845) can0 386#C106BF06C006BD06
(1699279661.486084) can0 386#BA06BD06BB06C506
(1699279661.505853) can0 386#B906BC06C906CB06
(1699279661.525834) can0 386#BE06BF06C706C406
(1699279661.546030) can0 386#B706C606B806C606
(1699279661.565855) can0 386#BD06C306BD06D406
(1699279661.586028) can0 386#C106C206C906C606
(1699279661.605889) can0 386#BE06BC06C506C306
(1699279661.625858) can0 386#BE06B706C106CC06
(1699279661.646127) can0 386#BE06BF06CC06CB06
(1699279661.666112) can0 386#B506C106CA06C506
(1699279661.686136) can0 386#C206C106B606CC06
(1699279661.705856) can0 386#BF06C806BE06CF06
(1699279661.725796) can0 386#B706BE06C406C006
(1699279661.746155) can0 386#C806BA06BB06BD06
(1699279661.766120) can0 386#CB06D106BD06BE06
(1699279661.786114) can0 386#C106D206CB06CE06
(1699279661.805920) can0 386#BD06BF06C306C406
(1699279661.825906) can0 386#C106BE06B906CA06
(1699279661.845888) can0 386#CB06CC06C106C906
(1699279661.865840) can0 386#BE06C106BE06B806
(1699279661.885844) can0 386#BC06B806C706C106
(1699279661.905824) can0 386#C106C606CE06D306
(1699279661.925921) can0 386#BD06C706B906C606
(1699279661.945846) can0 386#BC06C806AF06B406
(1699279661.965847) can0 386#C106C806B806C106
(1699279661.985918) can0 386#BC06BF06CC06D606
(1699279662.005941) can0 386#C106C106BF06C406
(1699279662.025852) can0 386#C106BC06A906B806
(1699279662.046162) can0 386#B306B806D806C906
(1699279662.065935) can0 386#B706C106CC06D006
(1699279662.086166) can0 386#B406C606B206C906
(1699279662.106165) can0 386#BA06C206C406D006
(1699279662.125929) can0 386#C106BF06CB06C606
(1699279662.146188) can0 386#BC06BC06B906C306
(1699279662.165879) can0 386#BF06BD06BA06CA06
(1699279662.186227) can0 386#BE06C406CA06CE06
(1699279662.205710) can0 386#B806C906BE06CA06
(1699279662.225661) can0 386#BF06C606B306D306
(1699279662.246034) can0 386#C106C606BF06CC06
(1699279662.265906) can0 386#BE06C306CB06BD06
(1699279662.285913) can0 386#C406BF06BF06C006
(1699279662.305753) can0 386#C106C206BE06C406
(1699279662.325788) can0 386#C106C606CE06C106
(1699279662.345665) can0 386#C206CC06C006C006
(1699279662.366002) can0 386#C606CC06B306CA06
(1699279662.385765) can0 386#CC06C606BF06BF06
(1699279662.405691) can0 386#C706C606BB06BE06
(1699279662.425752) can0 386#BD06BE06BE06C706
(1699279662.445932) can0 386#BF06BC06CA06C906
(1699279662.466022) can0 386#BE06C606C506C306
(1699279662.486149) can0 386#B806D006BA06C906
(1699279662.505701) can0 386#C406C406BB06D006
(1699279662.525998) can0 386#C706BE06C106C006
(1699279662.545937) can0 386#C106C206BE06BF06
(1699279662.566015) can0 386#C306BC06B506C906
(1699279662.586017) can0 386#BC06BE06CF06C506
(1699279662.605809) can0 386#BA06CB06CB06C706
(1699279662.625699) can0 386#BA06C806B506D506
(1699279662.645957) can0 386#B906BC06C006CA06
(1699279662.666084) can0 386#BE06BD06C506B606
(1699279662.686084) can0 386#BC06BC06B606C306
(1699279662.706008) can0 386#BA06B806C006C506
(1699279662.725789) can0 386#BF06BD06D306C006
(1699279662.746241) can0 386#B806C306B806C306
(1699279662.766087) can0 386#BD06C206B206CA06
(1699279662.786123) can0 386#BF06C206BB06B906
(1699279662.805848) can0 386#BF06BC06BF06BB06
(1699279662.826020) can0 386#BC06B406C306CC06
(1699279662.846232) can0 386#BA06BF06C606C706
(1699279662.866026) can0 386#C306C306CA06C006
(1699279662.886094) can0 386#BA06C206BE06C506
(1699279662.905752) can0 386#C206C406B806CF06
(1699279662.926105) can0 386#C806C306C006BA06
(1699279662.946009) can0 386#C206BE06B806B106
(1699279662.966116) can0 386#C206BF06B406BD06
(1699279662.986308) can0 386#C606C106C106C306
(1699279663.006180) can0 386#BE06C206BF06BD06
(1699279663.026044) can0 386#B806C406B106BF06
(1699279663.046815) can0 386#C206BF06B606C306
(1699279663.066337) can0 386#BF06BA06C506BB06
(1699279663.086351) can0 386#B906BC06BD06BD06
(1699279663.106099) can0 386#BE06BA06B906C106
(1699279663.126107) can0 386#B806B706CA06C106
(1699279663.146839) can0 386#B706C106BA06C106
(1699279663.166342) can0 386#BA06BF06A606CC06
(1699279663.186895) can0 386#B906BC06BD06BF06
(1699279663.206764) can0 386#B806BA06C706BA06
(1699279663.225885) can0 386#B906B506B906C706
(1699279663.246150) can0 386#B506B406C106C506
(1699279663.266141) can0 386#BD06BD06D006BE06
(1699279663.286179) can0 386#BA06C406BE06C506
(1699279663.305886) can0 386#BC06C206B506D006
(1699279663.325883) can0 386#C306C206C006C306
(1699279663.346166) can0 386#BF06C206BD06B606
(1699279663.366179) can0 386#BC06BA06BE06BF06
(1699279663.386144) can0 386#BE06BD06C406C406
(1699279663.405914) can0 386#C306C206C106C006
(1699279663.425848) can0 386#BD06C406B506C606
(1699279663.445848) can0 386#C406C606B806C506
(1699279663.466103) can0 386#C706BF06BD06B406
(1699279663.485903) can0 386#C306BE06B806B806
(1699279663.505856) can0 386#C406BF06B906C406
(1699279663.526177) can0 386#BE06BE06CB06BF06
(1699279663.545981) can0 386#BE06C306BF06BD06
(1699279663.565958) can0 386#BC06C406AF06CC06
(1699279663.586190) can0 386#BD06C106BD06C606
(1699279663.605935) can0 386#BA06BC06C606BD06
(1699279663.625875) can0 386#BC06B906BE06C306
(1699279663.645968) can0 386#BC06B506BD06CA06
(1699279663.665984) can0 386#BD06BE06CC06C406
(1699279663.685918) can0 386#B906C306C006C306
(1699279663.705881) can0 386#BA06BF06BD06D106
(1699279663.726004) can0 386#BA06BE06C106C406
(1699279663.745942) can0 386#B906BC06BE06BE06
(1699279663.765969) can0 386#BC06B706C106C406
(1699279663.785964) can0 386#B906BC06CB06C906
(1699279663.805986) can0 386#BA06BD06C506C506
(1699279663.825907) can0 386#B806C306BA06C706
(1699279663.846024) can0 386#BD06C206BD06CA06
(1699279663.865965) can0 386#BF06BE06C006BE06
(1699279663.885991) can0 386#C206C106B906BF06
(1699279663.905991) can0 386#BF06BF06BE06C406
(1699279663.925971) can0 386#BA06B906CF06C406
(1699279663.945932) can0 386#BE06C106C006C106
(1699279663.966158) can0 386#BA06C206B306CB06
(1699279663.986029) can0 386#BF06C706C106C606
(1699279664.005943) can0 386#C406C306C506BE06
(1699279664.026089) can0 386#BE06B506BB06C406
(1699279664.046010) can0 386#BE06C106C106C906
(1699279664.066086) can0 386#C606C606CB06BE06
(1699279664.086016) can0 386#BD06C306BB06B806
(1699279664.106017) can0 386#BE06C606B506CE06
(1699279664.126035) can0 386#BE06C306BF06C906
(1699279664.146072) can0 386#BE06BD06C106BF06
(1699279664.165975) can0 386#BF06B906BD06C006
(1699279664.186035) can0 386#B906C206C306CE06
(1699279664.206060) can0 386#BD06C206CE06CC06
(1699279664.226060) can0 386#BD06CB06C106C906
(1699279664.246078) can0 386#C206C406B806C606
(1699279664.266060) can0 386#BF06C106C506C306
(1699279664.286077) can0 386#BD06C306C306C006
(1699279664.306042) can0 386#BF06BD06BD06C906
(1699279664.326042) can0 386#BC06BE06C506D106
(1699279664.346122) can0 386#BC06C406C406C706
(1699279664.366066) can0 386#B906C406B906CF06
(1699279664.386066) can0 386#C206C306C306C706
(1699279664.406094) can0 386#C406BF06C106BB06
(1699279664.426011) can0 386#C106BF06BA06C706
(1699279664.446335) can0 386#C606BE06C306CB06
(1699279664.466284) can0 386#C206BF06CF06C406
(1699279664.486338) can0 386#BE06CB06BF06C606
(1699279664.506137) can0 386#BF06C806B406D406
(1699279664.526775) can0 386#C106C206C106C506
(1699279664.546278) can0 386#C306C306C406BE06
(1699279664.566283) can0 386#BE06BF06BA06C506
(1699279664.586365) can0 386#C206C206C406CC06
(1699279664.606033) can0 386#C206C306D006C406
(1699279664.626119) can0 386#BA06CB06B906CB06
(1699279664.646861) can0 386#C306CB06B806D006
(1699279664.666360) can0 386#C406C606C306BE06
(1699279664.686119) can0 386#BD06C306BD06C306
(1699279664.706157) can0 386#C106BE06BA06CB06
(1699279664.725926) can0 386#BC06BF06C706C906
(1699279664.746121) can0 386#BC06C706CB06C606
(1699279664.766159) can0 386#BD06CB06B406D106
(1699279664.786215) can0 386#C306C306BE06CB06
(1699279664.806089) can0 386#C406C406CE06C006
(1699279664.825915) can0 386#C606C406BA06C506
(1699279664.846093) can0 386#C606C206BB06C906
(1699279664.866104) can0 386#C106C606D606C406
(1699279664.886102) can0 386#BE06CB06C606CA06
(1699279664.905951) can0 386#C606CB06BA06D506
(1699279664.925933) can0 386#C606C706C406C506
(1699279664.946206) can0 386#C406C706C706BE06
(1699279664.966199) can0 386#C706C306BF06C606
(1699279664.985939) can0 386#C706C106C306C906
(1699279665.005973) can0 386#C806C906CF06C506
(1699279665.026108) can0 386#C206D006BF06CC06
(1699279665.045954) can0 386#C706CB06BA06D306
(1699279665.066193) can0 386#C706C906C106C506
(1699279665.085932) can0 386#C606CB06C006C506
(1699279665.106202) can0 386#C406C406C006CC06
(1699279665.126210) can0 386#C106C406CB06CB06
(1699279665.146221) can0 386#C406CE06C706C706
(1699279665.165882) can0 386#BF06CE06BD06D606
(1699279665.185945) can0 386#C606C906C306CF06
(1699279665.205969) can0 386#C906CB06C606C106
(1699279665.226222) can0 386#C706C806BF06CC06
(1699279665.245946) can0 386#C706C706C606D006
(1699279665.265956) can0 386#C206CC06D306CA06
(1699279665.285988) can0 386#BD06CD06C406CC06
(1699279665.306258) can0 386#C406D206BA06D806
(1699279665.326272) can0 386#C606D006C506C506
(1699279665.345932) can0 386#C806CB06C706C706
(1699279665.365992) can0 386#C806C906BD06D406
(1699279665.385992) can0 386#C706CC06C606D106
(1699279665.405995) can0 386#C706CC06D306CB06
(1699279665.426175) can0 386#C406D106C006D306
(1699279665.445933) can0 386#C606D106B906D906
(1699279665.465992) can0 386#C806CC06C506C706
(1699279665.485992) can0 386#C906C906C406C506
(1699279665.506019) can0 386#C406C806C106CF06
(1699279665.526264) can0 386#BE06C706CA06CF06
(1699279665.545960) can0 386#C906D006CC06CA06
(1699279665.566039) can0 386#C406D106BD06D406
(1699279665.586261) can0 386#C606CB06C006D306
(1699279665.606292) can0 386#C906CC06C906C406
(1699279665.626281) can0 386#C806C806C406CC06
(1699279665.646265) can0 386#C806C706C406D406
(1699279665.666318) can0 386#C206CE06CF06CE06
(1699279665.686264) can0 386#C206D506CA06CC06
(1699279665.707087) can0 386#C306CE06BB06DB06
(1699279665.726833) can0 386#C406CC06C106CB06
(1699279665.746790) can0 386#C706CC06C706C506
(1699279665.766835) can0 386#C606C406C306D006
(1699279665.786251) can0 386#C706C906C706D006
(1699279665.806350) can0 386#C806D006D006CB06
(1699279665.826045) can0 386#C106D206C306D406
(1699279665.846047) can0 386#C406D006BE06D406
(1699279665.866104) can0 386#C406CD06C606C506
(1699279665.886069) can0 386#C406CB06C106CB06
(1699279665.906320) can0 386#C406C406BF06D306
(1699279665.926036) can0 386#C106C806CB06CE06
(1699279665.946095) can0 386#C406D006CB06D006
(1699279665.966099) can0 386#C306D006BB06D906
(1699279665.986131) can0 386#C406CD06BE06D006
(1699279666.006124) can0 386#C406CC06C906C506
(1699279666.026075) can0 386#C806C806C006CC06
(1699279666.046125) can0 386#C606C906BF06D006
(1699279666.066094) can0 386#BD06CE06D006CE06
(1699279666.086156) can0 386#BF06D106C606D406
(1699279666.106366) can0 386#C106D006B906D906
(1699279666.126164) can0 386#C606CD06C506CA06
(1699279666.146135) can0 386#C706CB06C506C606
(1699279666.166164) can0 386#C406C706BE06D106
(1699279666.186119) can0 386#C606C806C506CF06
(1699279666.206119) can0 386#C306CD06D006CE06
(1699279666.226149) can0 386#BF06D006C106D806
(1699279666.246148) can0 386#C206D006BA06D506
(1699279666.266176) can0 386#C306CC06C706C606
(1699279666.286182) can0 386#C406CB06C706CA06
(1699279666.306166) can0 386#C406C706BD06D106
(1699279666.326166) can0 386#BE06C806C906CE06
(1699279666.346103) can0 386#C306D006CF06CF06
(1699279666.366162) can0 386#C306D006BF06DB06
(1699279666.386160) can0 386#C306CC06BF06CE06
(1699279666.406161) can0 386#C406C806C906C606
(1699279666.426180) can0 386#C606C706C106CF06
(1699279666.447145) can0 386#C406C806C106D106
(1699279666.466953) can0 386#BD06CD06D006CE06
(1699279666.486939) can0 386#C206D206C706D306
(1699279666.506961) can0 386#C106D206BD06DB06
