(1699277925.643768) can0 56B#366F000000000000
(1699277925.743870) can0 56B#366F000000000000
(1699277925.843860) can0 56B#366F000000000000
(1699277925.943897) can0 56B#366F000000000000
(1699277926.043916) can0 56B#366F000000000000
(1699277926.143957) can0 56B#366F000000000000
(1699277926.243913) can0 56B#366F000000000000
(1699277926.343944) can0 56B#366F000000000000
(1699277926.444001) can0 56B#366F000000000000
(1699277926.544044) can0 56B#366F000000000000
(1699277926.644012) can0 56B#366F000000000000
(1699277926.744045) can0 56B#366F000000000000
(1699277926.843975) can0 56B#366F000000000000
(1699277926.943975) can0 56B#366F000000000000
(1699277927.044061) can0 56B#366F000000000000
(1699277927.144113) can0 56B#366F000000000000
(1699277927.244104) can0 56B#366F000000000000
(1699277927.344130) can0 56B#366F000000000000
(1699277927.444200) can0 56B#366F000000000000
(1699277927.544135) can0 56B#366F000000000000
(1699277927.644101) can0 56B#366F000000000000
(1699277927.744117) can0 56B#366F000000000000
(1699277927.844135) can0 56B#366F000000000000
(1699277927.944153) can0 56B#366F000000000000
(1699277928.044192) can0 56B#366F000000000000
(1699277928.144272) can0 56B#366F000000000000
(1699277928.244203) can0 56B#366F000000000000
(1699277928.344246) can0 56B#366F000000000000
(1699277928.444065) can0 56B#366F000000000000
(1699277928.544003) can0 56B#366F000000000000
(1699277928.643854) can0 56B#366F000000000000
(1699277928.743868) can0 56B#366F000000000000
(1699277928.843888) can0 56B#366F000000000000
(1699277928.943908) can0 56B#366F000000000000
(1699277929.043904) can0 56B#366F000000000000
(1699277929.143951) can0 56B#366F000000000000
(1699277929.243915) can0 56B#366F000000000000
(1699277929.343959) can0 56B#366F000000000000
(1699277929.444011) can0 56B#366F000000000000
(1699277929.543971) can0 56B#366F000000000000
(1699277929.643964) can0 56B#366F000000000000
(1699277929.744062) can0 56B#366F000000000000
(1699277929.844010) can0 56B#366F000000000000
(1699277929.944083) can0 56B#366F000000000000
(1699277930.043827) can0 56B#366F000000000000
(1699277930.143790) can0 56B#366F000000000000
(1699277930.243864) can0 56B#366F000000000000
(1699277930.343861) can0 56B#366F000000000000
(1699277930.443902) can0 56B#366F000000000000
(1699277930.544022) can0 56B#366F000000000000
(1699277930.643933) can0 56B#366F000000000000
(1699277930.743895) can0 56B#366F000000000000
(1699277930.844002) can0 56B#366F000000000000
(1699277930.943957) can0 56B#366F000000000000
(1699277931.044024) can0 56B#366F000000000000
(1699277931.143983) can0 56B#366F000000000000
(1699277931.244043) can0 56B#366F000000000000
(1699277931.344055) can0 56B#366F000000000000
(1699277931.444006) can0 56B#366F000000000000
(1699277931.543854) can0 56B#366F000000000000
(1699277931.643809) can0 56B#366F000000000000
(1699277931.743924) can0 56B#366F000000000000
(1699277931.843842) can0 56B#366F000000000000
(1699277931.943868) can0 56B#366F000000000000
(1699277932.043872) can0 56B#366F000000000000
(1699277932.144046) can0 56B#366F000000000000
(1699277932.243951) can0 56B#366F000000000000
(1699277932.344217) can0 56B#366F000000000000
(1699277932.444033) can0 56B#366F000000000000
(1699277932.544026) can0 56B#366F000000000000
(1699277932.644019) can0 56B#366F000000000000
(1699277932.744080) can0 56B#366F000000000000
(1699277932.844051) can0 56B#366F000000000000
(1699277932.944140) can0 56B#366F000000000000
(1699277933.043853) can0 56B#366F000000000000
(1699277933.144107) can0 56B#366F000000000000
(1699277933.243930) can0 56B#366F000000000000
(1699277933.343910) can0 56B#366F000000000000
(1699277933.443939) can0 56B#366F000000000000
(1699277933.543913) can0 56B#366F000000000000
(1699277933.643980) can0 56B#366F000000000000
(1699277933.743988) can0 56B#366F000000000000
(1699277933.843944) can0 56B#366F000000000000
(1699277933.944057) can0 56B#366F000000000000
(1699277934.043963) can0 56B#366F000000000000
(1699277934.143961) can0 56B#366F000000000000
(1699277934.244072) can0 56B#366F000000000000
(1699277934.344174) can0 56B#366F000000000000
(1699277934.444082) can0 56B#366F000000000000
(1699277934.544072) can0 56B#366F000000000000
(1699277934.643867) can0 56B#366F000000000000
(1699277934.744471) can0 56B#366F000000000000
(1699277934.844126) can0 56B#366F000000000000
(1699277934.944123) can0 56B#366F000000000000
(1699277935.044234) can0 56B#366F000000000000
(1699277935.144180) can0 56B#366F000000000000
(1699277935.244201) can0 56B#366F000000000000
(1699277935.344192) can0 56B#366F000000000000
(1699277935.444222) can0 56B#366F000000000000
(1699277935.544310) can0 56B#366F000000000000
(1699277935.644343) can0 56B#366F000000000000
(1699277935.744268) can0 56B#366F000000000000
(1699277935.844370) can0 56B#366F000000000000
(1699277935.944191) can0 56B#366F000000000000
(1699277936.044066) can0 56B#366F000000000000
(1699277936.144190) can0 56B#366F000000000000
(1699277936.244120) can0 56B#366F000000000000
(1699277936.344137) can0 56B#366F000000000000
(1699277936.444113) can0 56B#366F000000000000
(1699277936.544137) can0 56B#366F000000000000
(1699277936.644173) can0 56B#366F000000000000
(1699277936.744225) can0 56B#366F000000000000
(1699277936.844030) can0 56B#366F000000000000
(1699277936.944243) can0 56B#366F000000000000
(1699277937.044060) can0 56B#366F000000000000
(1699277937.144074) can0 56B#366F000000000000
(1699277937.244120) can0 56B#366F000000000000
(1699277937.344119) can0 56B#366F000000000000
(1699277937.444136) can0 56B#366F000000000000
(1699277937.544151) can0 56B#366F000000000000
(1699277937.644088) can0 56B#366F000000000000
(1699277937.744139) can0 56B#366F000000000000
(1699277937.844146) can0 56B#366F000000000000
(1699277937.944151) can0 56B#366F000000000000
(1699277938.044200) can0 56B#366F000000000000
(1699277938.144152) can0 56B#366F000000000000
(1699277938.243948) can0 56B#366F000000000000
(1699277938.344022) can0 56B#366F000000000000
(1699277938.444038) can0 56B#366F000000000000
(1699277938.544021) can0 56B#366F000000000000
(1699277938.644077) can0 56B#366F000000000000
(1699277938.744101) can0 56B#366F000000000000
(1699277938.844087) can0 56B#366F000000000000
(1699277938.944113) can0 56B#366F000000000000
(1699277939.044112) can0 56B#366F000000000000
(1699277939.144122) can0 56B#366F000000000000
(1699277939.243898) can0 56B#366F000000000000
(1699277939.343924) can0 56B#366F000000000000
(1699277939.443925) can0 56B#366F000000000000
(1699277939.543984) can0 56B#366F000000000000
(1699277939.644019) can0 56B#366F000000000000
(1699277939.744257) can0 56B#366F000000000000
(1699277939.844239) can0 56B#366F000000000000
(1699277939.944236) can0 56B#366F000000000000
(1699277940.044353) can0 56B#366F000000000000
(1699277940.144350) can0 56B#366F000000000000
(1699277940.244374) can0 56B#366F000000000000
(1699277940.344361) can0 56B#366F000000000000
(1699277940.444395) can0 56B#366F000000000000
(1699277940.544326) can0 56B#366F000000000000
(1699277940.644412) can0 56B#366F000000000000
(1699277940.744351) can0 56B#366F000000000000
(1699277940.844184) can0 56B#366F000000000000
(1699277940.944214) can0 56B#366F000000000000
(1699277941.044221) can0 56B#366F000000000000
(1699277941.144189) can0 56B#366F000000000000
(1699277941.244243) can0 56B#366F000000000000
(1699277941.344029) can0 56B#366F000000000000
(1699277941.443974) can0 56B#366F000000000000
(1699277941.544042) can0 56B#366F000000000000
(1699277941.644091) can0 56B#366F000000000000
(1699277941.744098) can0 56B#366F000000000000
(1699277941.844164) can0 56B#366F000000000000
(1699277941.944157) can0 56B#366F000000000000
(1699277942.044123) can0 56B#366F000000000000
(1699277942.144101) can0 56B#366F000000000000
(1699277942.244148) can0 56B#366F000000000000
(1699277942.343912) can0 56B#366F000000000000
(1699277942.443965) can0 56B#366F000000000000
(1699277942.543943) can0 56B#366F000000000000
(1699277942.643948) can0 56B#366F000000000000
(1699277942.744226) can0 56B#366F000000000000
(1699277942.844003) can0 56B#366F000000000000
(1699277942.944068) can0 56B#366F000000000000
(1699277943.044044) can0 56B#366F000000000000
(1699277943.144081) can0 56B#366F000000000000
(1699277943.244077) can0 56B#366F000000000000
(1699277943.344109) can0 56B#366F000000000000
(1699277943.444119) can0 56B#366F000000000000
(1699277943.544124) can0 56B#366F000000000000
(1699277943.644095) can0 56B#366F000000000000
(1699277943.744184) can0 56B#366F000000000000
(1699277943.844128) can0 56B#366F000000000000
(1699277943.943994) can0 56B#366F000000000000
(1699277944.043988) can0 56B#366F000000000000
(1699277944.143974) can0 56B#366F000000000000
(1699277944.244040) can0 56B#366F000000000000
(1699277944.344078) can0 56B#366F000000000000
(1699277944.444086) can0 56B#366F000000000000
(1699277944.543999) can0 56B#366F000000000000
(1699277944.644091) can0 56B#366F000000000000
(1699277944.744139) can0 56B#366F000000000000
(1699277944.844166) can0 56B#366F000000000000
(1699277944.944135) can0 56B#366F000000000000
(1699277945.044113) can0 56B#366F000000000000
(1699277945.144097) can0 56B#366F000000000000
(1699277945.244174) can0 56B#366F000000000000
(1699277945.344198) can0 56B#366F000000000000
(1699277945.444210) can0 56B#366F000000000000
(1699277945.543996) can0 56B#366F000000000000
(1699277945.643972) can0 56B#366F000000000000
(1699277945.743996) can0 56B#366F000000000000
(1699277945.844030) can0 56B#366F000000000000
(1699277945.944089) can0 56B#366F000000000000
(1699277946.044132) can0 56B#366F000000000000
(1699277946.144062) can0 56B#366F000000000000
(1699277946.244114) can0 56B#366F000000000000
(1699277946.344174) can0 56B#366F000000000000
(1699277946.444099) can0 56B#366F000000000000
(1699277946.544204) can0 56B#366F000000000000
(1699277946.644124) can0 56B#366F000000000000
(1699277946.744127) can0 56B#366F000000000000
(1699277946.844182) can0 56B#366F000000000000
(1699277946.944231) can0 56B#366F000000000000
(1699277947.044268) can0 56B#366F000000000000
(1699277947.144210) can0 56B#366F000000000000
(1699277947.244311) can0 56B#366F000000000000
(1699277947.344311) can0 56B#366F000000000000
(1699277947.444613) can0 56B#366F000000000000
(1699277947.544347) can0 56B#366F000000000000
(1699277947.644358) can0 56B#366F000000000000
(1699277947.744400) can0 56B#366F000000000000
(1699277947.844402) can0 56B#366F000000000000
(1699277947.944420) can0 56B#366F000000000000
(1699277948.044452) can0 56B#366F000000000000
(1699277948.144521) can0 56B#366F000000000000
(1699277948.244476) can0 56B#366F000000000000
(1699277948.344562) can0 56B#366F000000000000
(1699277948.444521) can0 56B#366F000000000000
(1699277948.544252) can0 56B#366F000000000000
(1699277948.644554) can0 56B#366F000000000000
(1699277948.744313) can0 56B#366F000000000000
(1699277948.844343) can0 56B#366F000000000000
(1699277948.944090) can0 56B#366F000000000000
(1699277949.044118) can0 56B#366F000000000000
(1699277949.144377) can0 56B#366F000000000000
(1699277949.244408) can0 56B#366F000000000000
(1699277949.344385) can0 56B#366F000000000000
(1699277949.444386) can0 56B#366F000000000000
(1699277949.544509) can0 56B#366F000000000000
(1699277949.644503) can0 56B#366F000000000000
(1699277949.744469) can0 56B#366F000000000000
(1699277949.844204) can0 56B#366F000000000000
(1699277949.944239) can0 56B#366F000000000000
(1699277950.044258) can0 56B#366F000000000000
(1699277950.144308) can0 56B#366F000000000000
(1699277950.244316) can0 56B#366F000000000000
(1699277950.344066) can0 56B#366F000000000000
(1699277950.444186) can0 56B#366F000000000000
(1699277950.544118) can0 56B#366F000000000000
(1699277950.644055) can0 56B#366F000000000000
(1699277950.744131) can0 56B#366F000000000000
(1699277950.844146) can0 56B#366F000000000000
(1699277950.944166) can0 56B#366F000000000000
(1699277951.044171) can0 56B#366F000000000000
(1699277951.144157) can0 56B#366F000000000000
(1699277951.244168) can0 56B#366F000000000000
(1699277951.344247) can0 56B#366F000000000000
(1699277951.444235) can0 56B#366F000000000000
(1699277951.544214) can0 56B#366F000000000000
(1699277951.644244) can0 56B#366F000000000000
(1699277951.744070) can0 56B#366F000000000000
(1699277951.844080) can0 56B#366F000000000000
(1699277951.944370) can0 56B#366F000000000000
(1699277952.044386) can0 56B#366F000000000000
(1699277952.144122) can0 56B#366F000000000000
(1699277952.244192) can0 56B#366F000000000000
(1699277952.344189) can0 56B#366F000000000000
(1699277952.444135) can0 56B#366F000000000000
(1699277952.544134) can0 56B#366F000000000000
(1699277952.644210) can0 56B#366F000000000000
(1699277952.743970) can0 56B#366F000000000000
(1699277952.844201) can0 56B#366F000000000000
(1699277952.944213) can0 56B#366F000000000000
(1699277953.044285) can0 56B#366F000000000000
(1699277953.144260) can0 56B#366F000000000000
(1699277953.244356) can0 56B#366F000000000000
(1699277953.344355) can0 56B#366F000000000000
(1699277953.444619) can0 56B#366F000000000000
(1699277953.544380) can0 56B#366F000000000000
(1699277953.644332) can0 56B#366F000000000000
(1699277953.744395) can0 56B#366F000000000000
(1699277953.844636) can0 56B#366F000000000000
(1699277953.944684) can0 56B#366F000000000000
(1699277954.044749) can0 56B#366F000000000000
(1699277954.144720) can0 56B#366F000000000000
(1699277954.244188) can0 56B#366F000000000000
(1699277954.344266) can0 56B#366F000000000000
(1699277954.444256) can0 56B#366F000000000000
(1699277954.544318) can0 56B#366F000000000000
(1699277954.644334) can0 56B#366F000000000000
(1699277954.744362) can0 56B#366F000000000000
(1699277954.844124) can0 56B#366F000000000000
(1699277954.944056) can0 56B#366F000000000000
(1699277955.044102) can0 56B#366F000000000000
(1699277955.144100) can0 56B#366F000000000000
(1699277955.244236) can0 56B#366F000000000000
(1699277955.344203) can0 56B#366F000000000000
(1699277955.444168) can0 56B#366F000000000000
(1699277955.544185) can0 56B#366F000000000000
(1699277955.644190) can0 56B#366F000000000000
(1699277955.744194) can0 56B#366F000000000000
(1699277955.844214) can0 56B#366F000000000000
(1699277955.944275) can0 56B#366F000000000000
(1699277956.044251) can0 56B#366F000000000000
(1699277956.144358) can0 56B#366F000000000000
(1699277956.244373) can0 56B#366F000000000000
(1699277956.344377) can0 56B#366F000000000000
(1699277956.444386) can0 56B#366F000000000000
(1699277956.544435) can0 56B#366F000000000000
(1699277956.644449) can0 56B#366F000000000000
(1699277956.744372) can0 56B#366F000000000000
(1699277956.844152) can0 56B#366F000000000000
(1699277956.944482) can0 56B#366F000000000000
(1699277957.044265) can0 56B#366F000000000000
(1699277957.144213) can0 56B#366F000000000000
(1699277957.244238) can0 56B#366F000000000000
(1699277957.344020) can0 56B#366F000000000000
(1699277957.444021) can0 56B#366F000000000000
(1699277957.544250) can0 56B#366F000000000000
(1699277957.644013) can0 56B#366F000000000000
(1699277957.744074) can0 56B#366F000000000000
(1699277957.844155) can0 56B#366F000000000000
(1699277957.944118) can0 56B#366F000000000000
(1699277958.044091) can0 56B#366F000000000000
(1699277958.144148) can0 56B#366F000000000000
(1699277958.244140) can0 56B#366F000000000000
(1699277958.344168) can0 56B#366F000000000000
(1699277958.444148) can0 56B#366F000000000000
(1699277958.544221) can0 56B#366F000000000000
(1699277958.644200) can0 56B#366F000000000000
(1699277958.744284) can0 56B#366F000000000000
(1699277958.844317) can0 56B#366F000000000000
(1699277958.944321) can0 56B#366F000000000000
(1699277959.044293) can0 56B#366F000000000000
(1699277959.144349) can0 56B#366F000000000000
(1699277959.244285) can0 56B#366F000000000000
(1699277959.344403) can0 56B#366F000000000000
(1699277959.444427) can0 56B#366F000000000000
(1699277959.544144) can0 56B#366F000000000000
(1699277959.644144) can0 56B#366F000000000000
(1699277959.744167) can0 56B#366F000000000000
(1699277959.844238) can0 56B#366F000000000000
(1699277959.944222) can0 56B#366F000000000000
(1699277960.044220) can0 56B#366F000000000000
(1699277960.144241) can0 56B#366F000000000000
(1699277960.244283) can0 56B#366F000000000000
(1699277960.344833) can0 56B#366F000000000000
(1699277960.444831) can0 56B#366F000000000000
(1699277960.544518) can0 56B#366F000000000000
(1699277960.644644) can0 56B#366F000000000000
(1699277960.744608) can0 56B#366F000000000000
(1699277960.844627) can0 56B#366F000000000000
(1699277960.944686) can0 56B#366F000000000000
(1699277961.044638) can0 56B#366F000000000000
(1699277961.144678) can0 56B#366F000000000000
(1699277961.244711) can0 56B#366F000000000000
(1699277961.344676) can0 56B#366F000000000000
(1699277961.444731) can0 56B#366F000000000000
(1699277961.544791) can0 56B#366F000000000000
(1699277961.644745) can0 56B#366F000000000000
(1699277961.744767) can0 56B#366F000000000000
(1699277961.844801) can0 56B#366F000000000000
(1699277961.944891) can0 56B#366F000000000000
(1699277962.044843) can0 56B#366F000000000000
(1699277962.144891) can0 56B#366F000000000000
(1699277962.244853) can0 56B#366F000000000000
(1699277962.344882) can0 56B#366F000000000000
(1699277962.444938) can0 56B#366F000000000000
(1699277962.544669) can0 56B#366F000000000000
(1699277962.644668) can0 56B#366F000000000000
(1699277962.744701) can0 56B#366F000000000000
(1699277962.844705) can0 56B#366F000000000000
(1699277962.944763) can0 56B#366F000000000000
(1699277963.044766) can0 56B#366F000000000000
(1699277963.144787) can0 56B#366F000000000000
(1699277963.244769) can0 56B#366F000000000000
(1699277963.344834) can0 56B#366F000000000000
(1699277963.444836) can0 56B#366F000000000000
(1699277963.545109) can0 56B#366F000000000000
(1699277963.645096) can0 56B#366F000000000000
(1699277963.744855) can0 56B#366F000000000000
(1699277963.844882) can0 56B#366F000000000000
(1699277963.944896) can0 56B#366F000000000000
(1699277964.044928) can0 56B#366F000000000000
(1699277964.144972) can0 56B#366F000000000000
(1699277964.245002) can0 56B#366F000000000000
(1699277964.344959) can0 56B#366F000000000000
(1699277964.445266) can0 56B#366F000000000000
(1699277964.545005) can0 56B#366F000000000000
(1699277964.645312) can0 56B#366F000000000000
(1699277964.745311) can0 56B#366F000000000000
(1699277964.845296) can0 56B#366F000000000000
(1699277964.945290) can0 56B#366F000000000000
(1699277965.045295) can0 56B#366F000000000000
(1699277965.145386) can0 56B#366F000000000000
(1699277965.245401) can0 56B#366F000000000000
(1699277965.345398) can0 56B#366F000000000000
(1699277965.445415) can0 56B#366F000000000000
(1699277965.545368) can0 56B#366F000000000000
(1699277965.645623) can0 56B#366F000000000000
(1699277965.745711) can0 56B#366F000000000000
(1699277965.845780) can0 56B#366F000000000000
(1699277965.945688) can0 56B#366F000000000000
(1699277966.045522) can0 56B#366F000000000000
(1699277966.145576) can0 56B#366F000000000000
(1699277966.245824) can0 56B#366F000000000000
(1699277966.345839) can0 56B#366F000000000000
(1699277966.445877) can0 56B#366F000000000000
(1699277966.545785) can0 56B#366F000000000000
(1699277966.645833) can0 56B#366F000000000000
(1699277966.745930) can0 56B#366F000000000000
(1699277966.845825) can0 56B#366F000000000000
(1699277966.945849) can0 56B#366F000000000000
(1699277967.045974) can0 56B#366F000000000000
(1699277967.145932) can0 56B#366F000000000000
(1699277967.245928) can0 56B#366F000000000000
(1699277967.345983) can0 56B#366F000000000000
(1699277967.445787) can0 56B#366F000000000000
(1699277967.546017) can0 56B#366F000000000000
(1699277967.645792) can0 56B#366F000000000000
(1699277967.745842) can0 56B#366F000000000000
(1699277967.845780) can0 56B#366F000000000000
(1699277967.945878) can0 56B#366F000000000000
(1699277968.045878) can0 56B#366F000000000000
(1699277968.145910) can0 56B#366F000000000000
(1699277968.245937) can0 56B#366F000000000000
(1699277968.346126) can0 56B#366F000000000000
(1699277968.445852) can0 56B#366F000000000000
(1699277968.545439) can0 56B#366F000000000000
(1699277968.645478) can0 56B#366F000000000000
(1699277968.745926) can0 56B#366F000000000000
(1699277968.845532) can0 56B#366F000000000000
(1699277968.945498) can0 56B#366F000000000000
(1699277969.045871) can0 56B#366F000000000000
(1699277969.145814) can0 56B#366F000000000000
(1699277969.245761) can0 56B#366F000000000000
(1699277969.345860) can0 56B#366F000000000000
(1699277969.445848) can0 56B#366F000000000000
(1699277969.545859) can0 56B#366F000000000000
(1699277969.645820) can0 56B#366F000000000000
(1699277969.745925) can0 56B#366F000000000000
(1699277969.845960) can0 56B#366F000000000000
(1699277969.945909) can0 56B#366F000000000000
(1699277970.045694) can0 56B#366F000000000000
(1699277970.145704) can0 56B#366F000000000000
(1699277970.245764) can0 56B#366F000000000000
(1699277970.345732) can0 56B#366F000000000000
(1699277970.445711) can0 56B#366F000000000000
(1699277970.544242) can0 56B#366F000000000000
(1699277970.644345) can0 56B#366F000000000000
(1699277970.744282) can0 56B#366F000000000000
(1699277970.844315) can0 56B#366F000000000000
(1699277970.944381) can0 56B#366F000000000000
(1699277971.044395) can0 56B#366F000000000000
(1699277971.144619) can0 56B#366F000000000000
(1699277971.244441) can0 56B#366F000000000000
(1699277971.344472) can0 56B#366F000000000000
(1699277971.444439) can0 56B#366F000000000000
(1699277971.544478) can0 56B#366F000000000000
(1699277971.644195) can0 56B#366F000000000000
(1699277971.744232) can0 56B#366F000000000000
(1699277971.844259) can0 56B#366F000000000000
(1699277971.944219) can0 56B#366F000000000000
(1699277972.044263) can0 56B#366F000000000000
(1699277972.144340) can0 56B#366F000000000000
(1699277972.244259) can0 56B#366F000000000000
(1699277972.344383) can0 56B#366F000000000000
(1699277972.444318) can0 56B#366F000000000000
(1699277972.544369) can0 56B#366F000000000000
(1699277972.644369) can0 56B#366F000000000000
(1699277972.744699) can0 56B#366F000000000000
(1699277972.844468) can0 56B#366F000000000000
(1699277972.944444) can0 56B#366F000000000000
(1699277973.044503) can0 56B#366F000000000000
(1699277973.144197) can0 56B#366F000000000000
(1699277973.244796) can0 56B#366F000000000000
(1699277973.344765) can0 56B#366F000000000000
(1699277973.444816) can0 56B#366F000000000000
(1699277973.544529) can0 56B#366F000000000000
(1699277973.644546) can0 56B#366F000000000000
(1699277973.744622) can0 56B#366F000000000000
(1699277973.844561) can0 56B#366F000000000000
(1699277973.944559) can0 56B#366F000000000000
(1699277974.044590) can0 56B#366F000000000000
(1699277974.144611) can0 56B#366F000000000000
(1699277974.244636) can0 56B#366F000000000000
(1699277974.344736) can0 56B#366F000000000000
(1699277974.444134) can0 56B#366F000000000000
(1699277974.544500) can0 56B#366F000000000000
(1699277974.644197) can0 56B#366F000000000000
(1699277974.744195) can0 56B#366F000000000000
(1699277974.844230) can0 56B#366F000000000000
(1699277974.944236) can0 56B#366F000000000000
(1699277975.044247) can0 56B#366F000000000000
(1699277975.144320) can0 56B#366F000000000000
(1699277975.244302) can0 56B#366F000000000000
(1699277975.344322) can0 56B#366F000000000000
(1699277975.444396) can0 56B#366F000000000000
(1699277975.544379) can0 56B#366F000000000000
(1699277975.644375) can0 56B#366F000000000000
(1699277975.744179) can0 56B#366F000000000000
(1699277975.844187) can0 56B#366F000000000000
(1699277975.944495) can0 56B#366F000000000000
(1699277976.044424) can0 56B#366F000000000000
(1699277976.144597) can0 56B#366F000000000000
(1699277976.244473) can0 56B#366F000000000000
(1699277976.344757) can0 56B#366F000000000000
(1699277976.444244) can0 56B#366F000000000000
(1699277976.544351) can0 56B#366F000000000000
(1699277976.644355) can0 56B#366F000000000000
(1699277976.744296) can0 56B#366F000000000000
(1699277976.844344) can0 56B#366F000000000000
(1699277976.944415) can0 56B#366F000000000000
(1699277977.044395) can0 56B#366F000000000000
(1699277977.144347) can0 56B#366F000000000000
(1699277977.244479) can0 56B#366F000000000000
(1699277977.344513) can0 56B#366F000000000000
(1699277977.444478) can0 56B#366F000000000000
(1699277977.544487) can0 56B#366F000000000000
(1699277977.644574) can0 56B#366F000000000000
(1699277977.744569) can0 56B#366F000000000000
(1699277977.844551) can0 56B#366F000000000000
(1699277977.944741) can0 56B#366F000000000000
(1699277978.044623) can0 56B#366F000000000000
(1699277978.144682) can0 56B#366F000000000000
(1699277978.244613) can0 56B#366F000000000000
(1699277978.344662) can0 56B#366F000000000000
(1699277978.444684) can0 56B#366F000000000000
(1699277978.544656) can0 56B#366F000000000000
(1699277978.644624) can0 56B#366F000000000000
(1699277978.744731) can0 56B#366F000000000000
(1699277978.844782) can0 56B#366F000000000000
(1699277978.944531) can0 56B#366F000000000000
(1699277979.044536) can0 56B#366F000000000000
(1699277979.144602) can0 56B#366F000000000000
(1699277979.244736) can0 56B#366F000000000000
(1699277979.344837) can0 56B#366F000000000000
(1699277979.444781) can0 56B#366F000000000000
(1699277979.544349) can0 56B#366F000000000000
(1699277979.644402) can0 56B#366F000000000000
(1699277979.744387) can0 56B#366F000000000000
(1699277979.844411) can0 56B#366F000000000000
(1699277979.944448) can0 56B#366F000000000000
(1699277980.044351) can0 56B#366F000000000000
(1699277980.144463) can0 56B#366F000000000000
(1699277980.244488) can0 56B#366F000000000000
(1699277980.344495) can0 56B#366F000000000000
(1699277980.444507) can0 56B#366F000000000000
(1699277980.544537) can0 56B#366F000000000000
(1699277980.644501) can0 56B#366F000000000000
(1699277980.744548) can0 56B#366F000000000000
(1699277980.844589) can0 56B#366F000000000000
(1699277980.944587) can0 56B#366F000000000000
(1699277981.044681) can0 56B#366F000000000000
(1699277981.144571) can0 56B#366F000000000000
(1699277981.244424) can0 56B#366F000000000000
(1699277981.344414) can0 56B#366F000000000000
(1699277981.444443) can0 56B#366F000000000000
(1699277981.544410) can0 56B#366F000000000000
(1699277981.644480) can0 56B#366F000000000000
(1699277981.744497) can0 56B#366F000000000000
(1699277981.844517) can0 56B#366F000000000000
(1699277981.944488) can0 56B#366F000000000000
(1699277982.044543) can0 56B#366F000000000000
(1699277982.144567) can0 56B#366F000000000000
(1699277982.244558) can0 56B#366F000000000000
(1699277982.344552) can0 56B#366F000000000000
(1699277982.444596) can0 56B#366F000000000000
(1699277982.544595) can0 56B#366F000000000000
(1699277982.644623) can0 56B#366F000000000000
(1699277982.744619) can0 56B#366F000000000000
(1699277982.844683) can0 56B#366F000000000000
(1699277982.944691) can0 56B#366F000000000000
(1699277983.044650) can0 56B#366F000000000000
(1699277983.144716) can0 56B#366F000000000000
(1699277983.244741) can0 56B#366F000000000000
(1699277983.344789) can0 56B#366F000000000000
(1699277983.444757) can0 56B#366F000000000000
(1699277983.544515) can0 56B#366F000000000000
(1699277983.644568) can0 56B#366F000000000000
(1699277983.744553) can0 56B#366F000000000000
(1699277983.844555) can0 56B#366F000000000000
(1699277983.944589) can0 56B#366F000000000000
(1699277984.044606) can0 56B#366F000000000000
(1699277984.144668) can0 56B#366F000000000000
(1699277984.244622) can0 56B#366F000000000000
(1699277984.344647) can0 56B#366F000000000000
(1699277984.444650) can0 56B#366F000000000000
(1699277984.544667) can0 56B#366F000000000000
(1699277984.644702) can0 56B#366F000000000000
(1699277984.744728) can0 56B#366F000000000000
(1699277984.844798) can0 56B#366F000000000000
(1699277984.944788) can0 56B#366F000000000000
(1699277985.044810) can0 56B#366F000000000000
(1699277985.144803) can0 56B#366F000000000000
(1699277985.244835) can0 56B#366F000000000000
(1699277985.345044) can0 56B#366F000000000000
(1699277985.444892) can0 56B#366F000000000000
(1699277985.544866) can0 56B#366F000000000000
(1699277985.645397) can0 56B#366F000000000000
(1699277985.745131) can0 56B#366F000000000000
(1699277985.845187) can0 56B#366F000000000000
(1699277985.945180) can0 56B#366F000000000000
(1699277986.044974) can0 56B#366F000000000000
(1699277986.144935) can0 56B#366F000000000000
(1699277986.244961) can0 56B#366F000000000000
(1699277986.345052) can0 56B#366F000000000000
(1699277986.445007) can0 56B#366F000000000000
(1699277986.545062) can0 56B#366F000000000000
(1699277986.645029) can0 56B#366F000000000000
(1699277986.745007) can0 56B#366F000000000000
(1699277986.845032) can0 56B#366F000000000000
(1699277986.945146) can0 56B#366F000000000000
(1699277987.045227) can0 56B#366F000000000000
(1699277987.145134) can0 56B#366F000000000000
(1699277987.245226) can0 56B#366F000000000000
(1699277987.345125) can0 56B#366F000000000000
(1699277987.445171) can0 56B#366F000000000000
(1699277987.545163) can0 56B#366F000000000000
(1699277987.645025) can0 56B#366F000000000000
(1699277987.744984) can0 56B#366F000000000000
(1699277987.845019) can0 56B#366F000000000000
(1699277987.945009) can0 56B#366F000000000000
(1699277988.045040) can0 56B#366F000000000000
(1699277988.144876) can0 56B#366F000000000000
(1699277988.244834) can0 56B#366F000000000000
(1699277988.344839) can0 56B#366F000000000000
(1699277988.444877) can0 56B#366F000000000000
(1699277988.544894) can0 56B#366F000000000000
(1699277988.644935) can0 56B#366F000000000000
(1699277988.744948) can0 56B#366F000000000000
(1699277988.844933) can0 56B#366F000000000000
(1699277988.944950) can0 56B#366F000000000000
(1699277989.045007) can0 56B#366F000000000000
(1699277989.145041) can0 56B#366F000000000000
(1699277989.244997) can0 56B#366F000000000000
(1699277989.345055) can0 56B#366F000000000000
(1699277989.445076) can0 56B#366F000000000000
(1699277989.545055) can0 56B#366F000000000000
(1699277989.645060) can0 56B#366F000000000000
(1699277989.745035) can0 56B#366F000000000000
(1699277989.845085) can0 56B#366F000000000000
(1699277989.945140) can0 56B#366F000000000000
(1699277990.045169) can0 56B#366F000000000000
(1699277990.145154) can0 56B#366F000000000000
(1699277990.245181) can0 56B#366F000000000000
(1699277990.345136) can0 56B#366F000000000000
(1699277990.445223) can0 56B#366F000000000000
(1699277990.545173) can0 56B#366F000000000000
(1699277990.645268) can0 56B#366F000000000000
(1699277990.745294) can0 56B#366F000000000000
(1699277990.845304) can0 56B#366F000000000000
(1699277990.945294) can0 56B#366F000000000000
(1699277991.045261) can0 56B#366F000000000000
(1699277991.145376) can0 56B#366F000000000000
(1699277991.245625) can0 56B#366F000000000000
(1699277991.345643) can0 56B#366F000000000000
(1699277991.445681) can0 56B#366F000000000000
(1699277991.545583) can0 56B#366F000000000000
(1699277991.645699) can0 56B#366F000000000000
(1699277991.745723) can0 56B#366F000000000000
(1699277991.845696) can0 56B#366F000000000000
(1699277991.945766) can0 56B#366F000000000000
(1699277992.045701) can0 56B#366F000000000000
(1699277992.145527) can0 56B#366F000000000000
(1699277992.245452) can0 56B#366F000000000000
(1699277992.345556) can0 56B#366F000000000000
(1699277992.445539) can0 56B#366F000000000000
(1699277992.545544) can0 56B#366F000000000000
(1699277992.645584) can0 56B#366F000000000000
(1699277992.745606) can0 56B#366F000000000000
(1699277992.845644) can0 56B#366F000000000000
(1699277992.945675) can0 56B#366F000000000000
(1699277993.045640) can0 56B#366F000000000000
(1699277993.145927) can0 56B#366F000000000000
(1699277993.245931) can0 56B#366F000000000000
(1699277993.345933) can0 56B#366F000000000000
(1699277993.445509) can0 56B#366F000000000000
(1699277993.545459) can0 56B#366F000000000000
(1699277993.645531) can0 56B#366F000000000000
(1699277993.745556) can0 56B#366F000000000000
(1699277993.845586) can0 56B#366F000000000000
(1699277993.945313) can0 56B#366F000000000000
(1699277994.045266) can0 56B#366F000000000000
(1699277994.145369) can0 56B#366F000000000000
(1699277994.245379) can0 56B#366F000000000000
(1699277994.345424) can0 56B#366F000000000000
(1699277994.445400) can0 56B#366F000000000000
(1699277994.545629) can0 56B#366F000000000000
(1699277994.645638) can0 56B#366F000000000000
(1699277994.745487) can0 56B#366F000000000000
(1699277994.845751) can0 56B#366F000000000000
(1699277994.945687) can0 56B#366F000000000000
(1699277995.045705) can0 56B#366F000000000000
(1699277995.145760) can0 56B#366F000000000000
(1699277995.245492) can0 56B#366F000000000000
(1699277995.345579) can0 56B#366F000000000000
(1699277995.445522) can0 56B#366F000000000000
(1699277995.545532) can0 56B#366F000000000000
(1699277995.645623) can0 56B#366F000000000000
(1699277995.745561) can0 56B#366F000000000000
(1699277995.845650) can0 56B#366F000000000000
(1699277995.945641) can0 56B#366F000000000000
(1699277996.045711) can0 56B#366F000000000000
(1699277996.145665) can0 56B#366F000000000000
(1699277996.245697) can0 56B#366F000000000000
(1699277996.345716) can0 56B#366F000000000000
(1699277996.445736) can0 56B#366F000000000000
(1699277996.545783) can0 56B#366F000000000000
(1699277996.645802) can0 56B#366F000000000000
(1699277996.745824) can0 56B#366F000000000000
(1699277996.845545) can0 56B#366F000000000000
(1699277996.945575) can0 56B#366F000000000000
(1699277997.045548) can0 56B#366F000000000000
(1699277997.145636) can0 56B#366F000000000000
(1699277997.245624) can0 56B#366F000000000000
(1699277997.345686) can0 56B#366F000000000000
(1699277997.445910) can0 56B#366F000000000000
(1699277997.545957) can0 56B#366F000000000000
(1699277997.645911) can0 56B#366F000000000000
(1699277997.745947) can0 56B#366F000000000000
(1699277997.845915) can0 56B#366F000000000000
(1699277997.946013) can0 56B#366F000000000000
(1699277998.045806) can0 56B#366F000000000000
(1699277998.146024) can0 56B#366F000000000000
(1699277998.246026) can0 56B#366F000000000000
(1699277998.345835) can0 56B#366F000000000000
(1699277998.445833) can0 56B#366F000000000000
(1699277998.545808) can0 56B#366F000000000000
(1699277998.645892) can0 56B#366F000000000000
(1699277998.745884) can0 56B#366F000000000000
(1699277998.845911) can0 56B#366F000000000000
(1699277998.945894) can0 56B#366F000000000000
(1699277999.045631) can0 56B#366F000000000000
(1699277999.145944) can0 56B#366F000000000000
(1699277999.245990) can0 56B#366F000000000000
(1699277999.345987) can0 56B#366F000000000000
(1699277999.445998) can0 56B#366F000000000000
(1699277999.545968) can0 56B#366F000000000000
(1699277999.645972) can0 56B#366F000000000000
(1699277999.746106) can0 56B#366F000000000000
(1699277999.845877) can0 56B#366F000000000000
(1699277999.945898) can0 56B#366F000000000000
(1699278000.045558) can0 56B#366F000000000000
(1699278000.145620) can0 56B#366F000000000000
(1699278000.245652) can0 56B#366F000000000000
(1699278000.345686) can0 56B#366F000000000000
(1699278000.445704) can0 56B#366F000000000000
(1699278000.545636) can0 56B#366F000000000000
(1699278000.645700) can0 56B#366F000000000000
(1699278000.745731) can0 56B#366F000000000000
(1699278000.845720) can0 56B#366F000000000000
(1699278000.945748) can0 56B#366F000000000000
(1699278001.045805) can0 56B#366F000000000000
(1699278001.145798) can0 56B#366F000000000000
(1699278001.245743) can0 56B#366F000000000000
(1699278001.345624) can0 56B#366F000000000000
(1699278001.445794) can0 56B#366F000000000000
(1699278001.545563) can0 56B#366F000000000000
(1699278001.645657) can0 56B#366F000000000000
(1699278001.745697) can0 56B#366F000000000000
(1699278001.845718) can0 56B#366F000000000000
(1699278001.945706) can0 56B#366F000000000000
(1699278002.045747) can0 56B#366F000000000000
(1699278002.145493) can0 56B#366F000000000000
(1699278002.245698) can0 56B#366F000000000000
(1699278002.345548) can0 56B#366F000000000000
(1699278002.445481) can0 56B#366F000000000000
(1699278002.545495) can0 56B#366F000000000000
(1699278002.645569) can0 56B#366F000000000000
(1699278002.745608) can0 56B#366F000000000000
(1699278002.845567) can0 56B#366F000000000000
(1699278002.945641) can0 56B#366F000000000000
(1699278003.045582) can0 56B#366F000000000000
(1699278003.145635) can0 56B#366F000000000000
(1699278003.245662) can0 56B#366F000000000000
(1699278003.345721) can0 56B#366F000000000000
(1699278003.445620) can0 56B#366F000000000000
(1699278003.545660) can0 56B#366F000000000000
(1699278003.645735) can0 56B#366E000000000000
(1699278003.745725) can0 56B#366F000000000000
(1699278003.845482) can0 56B#366F000000000000
(1699278003.945815) can0 56B#366F000000000000
(1699278004.045780) can0 56B#366F000000000000
(1699278004.145747) can0 56B#366F000000000000
(1699278004.245800) can0 56B#366F000000000000
(1699278004.345868) can0 56B#366F000000000000
(1699278004.445880) can0 56B#366E000000000000
(1699278004.545843) can0 56B#366F000000000000
(1699278004.645902) can0 56B#366F000000000000
(1699278004.745921) can0 56B#366F000000000000
(1699278004.846151) can0 56B#366F000000000000
(1699278004.946253) can0 56B#366F000000000000
(1699278005.045985) can0 56B#366F000000000000
(1699278005.146044) can0 56B#366F000000000000
(1699278005.245958) can0 56B#366E000000000000
(1699278005.346039) can0 56B#366F000000000000
(1699278005.446010) can0 56B#366F000000000000
(1699278005.546040) can0 56B#366E000000000000
(1699278005.646033) can0 56B#366E000000000000
(1699278005.746109) can0 56B#366F000000000000
(1699278005.846102) can0 56B#366F000000000000
(1699278005.946083) can0 56B#366F000000000000
(1699278006.045879) can0 56B#366F000000000000
(1699278006.146163) can0 56B#366F000000000000
(1699278006.246129) can0 56B#366F000000000000
(1699278006.346153) can0 56B#366F000000000000
(1699278006.446218) can0 56B#366F000000000000
(1699278006.546260) can0 56B#366F000000000000
(1699278006.645994) can0 56B#366E000000000000
(1699278006.746025) can0 56B#366F000000000000
(1699278006.845753) can0 56B#366F000000000000
(1699278006.946069) can0 56B#366F000000000000
(1699278007.045846) can0 56B#366F000000000000
(1699278007.145873) can0 56B#366F000000000000
(1699278007.245840) can0 56B#366F000000000000
(1699278007.345854) can0 56B#366E000000000000
(1699278007.445906) can0 56B#366F000000000000
(1699278007.545849) can0 56B#366E000000000000
(1699278007.645983) can0 56B#366F000000000000
(1699278007.745859) can0 56B#366E000000000000
(1699278007.845950) can0 56B#366F000000000000
(1699278007.945930) can0 56B#366F000000000000
(1699278008.045954) can0 56B#366F000000000000
(1699278008.145959) can0 56B#366F000000000000
(1699278008.245988) can0 56B#366E000000000000
(1699278008.345758) can0 56B#366F000000000000
(1699278008.445752) can0 56B#366E000000000000
(1699278008.546027) can0 56B#366F000000000000
(1699278008.644620) can0 56B#366F000000000000
(1699278008.745882) can0 56B#366F000000000000
(1699278008.845867) can0 56B#366F000000000000
(1699278008.945907) can0 56B#366F000000000000
(1699278009.045917) can0 56B#366E000000000000
(1699278009.145929) can0 56B#366F000000000000
(1699278009.244472) can0 56B#366E000000000000
(1699278009.345968) can0 56B#366F000000000000
(1699278009.445958) can0 56B#366F000000000000
(1699278009.544772) can0 56B#366F000000000000
(1699278009.644791) can0 56B#366F000000000000
(1699278009.746020) can0 56B#366F000000000000
(1699278009.844815) can0 56B#366E000000000000
(1699278009.946282) can0 56B#366F000000000000
(1699278010.044820) can0 56B#366F000000000000
(1699278010.144837) can0 56B#366F000000000000
(1699278010.244588) can0 56B#366F000000000000
(1699278010.346117) can0 56B#366F000000000000
(1699278010.444926) can0 56B#366F000000000000
(1699278010.544462) can0 56B#366F000000000000
(1699278010.644459) can0 56B#366F000000000000
(1699278010.744443) can0 56B#366F000000000000
(1699278010.844503) can0 56B#366E000000000000
(1699278010.944474) can0 56B#366F000000000000
(1699278011.044570) can0 56B#366F000000000000
(1699278011.144572) can0 56B#366F000000000000
(1699278011.244702) can0 56B#366F000000000000
(1699278011.344560) can0 56B#366F000000000000
(1699278011.444600) can0 56B#366E000000000000
(1699278011.544573) can0 56B#366E000000000000
(1699278011.644658) can0 56B#366F000000000000
(1699278011.744631) can0 56B#366E000000000000
(1699278011.846348) can0 56B#366E000000000000
(1699278011.944924) can0 56B#366E000000000000
(1699278012.044864) can0 56B#366E000000000000
(1699278012.144903) can0 56B#366F000000000000
(1699278012.244686) can0 56B#366F000000000000
(1699278012.344719) can0 56B#366F000000000000
(1699278012.444710) can0 56B#366F000000000000
(1699278012.544725) can0 56B#366E000000000000
(1699278012.644769) can0 56B#366E000000000000
(1699278012.744751) can0 56B#366E000000000000
(1699278012.844551) can0 56B#366F000000000000
(1699278012.944670) can0 56B#366E000000000000
(1699278013.044517) can0 56B#366E000000000000
(1699278013.144553) can0 56B#366E000000000000
(1699278013.244583) can0 56B#366E000000000000
(1699278013.344583) can0 56B#366F000000000000
(1699278013.444610) can0 56B#366E000000000000
(1699278013.544609) can0 56B#366F000000000000
(1699278013.644714) can0 56B#366F000000000000
(1699278013.744720) can0 56B#366F000000000000
(1699278013.844695) can0 56B#366E000000000000
(1699278013.944737) can0 56B#366F000000000000
(1699278014.044802) can0 56B#366E000000000000
(1699278014.144759) can0 56B#366F000000000000
(1699278014.244802) can0 56B#366E000000000000
(1699278014.344494) can0 56B#366E000000000000
(1699278014.444517) can0 56B#366F000000000000
(1699278014.544636) can0 56B#366E000000000000
(1699278014.644593) can0 56B#366E000000000000
(1699278014.744666) can0 56B#366E000000000000
(1699278014.844585) can0 56B#366E000000000000
(1699278014.944709) can0 56B#366E000000000000
(1699278015.044671) can0 56B#366E000000000000
(1699278015.144694) can0 56B#366E000000000000
(1699278015.244753) can0 56B#366E000000000000
(1699278015.345047) can0 56B#366E000000000000
(1699278015.445029) can0 56B#366E000000000000
(1699278015.545057) can0 56B#366E000000000000
(1699278015.645080) can0 56B#366E000000000000
(1699278015.745082) can0 56B#366E000000000000
(1699278015.845108) can0 56B#366E000000000000
(1699278015.945072) can0 56B#366F000000000000
(1699278016.045149) can0 56B#366E000000000000
(1699278016.145155) can0 56B#366F000000000000
(1699278016.245174) can0 56B#366F000000000000
(1699278016.345179) can0 56B#366E000000000000
(1699278016.445201) can0 56B#366E000000000000
(1699278016.546434) can0 56B#366E000000000000
(1699278016.646489) can0 56B#366E000000000000
(1699278016.746415) can0 56B#366E000000000000
(1699278016.846469) can0 56B#366E000000000000
(1699278016.946446) can0 56B#366E000000000000
(1699278017.046564) can0 56B#366F000000000000
(1699278017.146582) can0 56B#366E000000000000
(1699278017.246584) can0 56B#366E000000000000
(1699278017.346609) can0 56B#366E000000000000
(1699278017.446535) can0 56B#366E000000000000
(1699278017.546546) can0 56B#366E000000000000
(1699278017.646362) can0 56B#366E000000000000
(1699278017.746326) can0 56B#366E000000000000
(1699278017.846413) can0 56B#366E000000000000
(1699278017.946400) can0 56B#366F000000000000
(1699278018.046424) can0 56B#366F000000000000
(1699278018.146398) can0 56B#366E000000000000
(1699278018.246438) can0 56B#366E000000000000
(1699278018.347996) can0 56B#366E000000000000
(1699278018.448014) can0 56B#366E000000000000
(1699278018.548022) can0 56B#366E000000000000
(1699278018.648023) can0 56B#366F000000000000
(1699278018.748020) can0 56B#366F000000000000
(1699278018.848109) can0 56B#366E000000000000
(1699278018.947790) can0 56B#366E000000000000
(1699278019.047906) can0 56B#366E000000000000
(1699278019.147906) can0 56B#366E000000000000
(1699278019.247903) can0 56B#366F000000000000
(1699278019.347937) can0 56B#366F000000000000
(1699278019.447988) can0 56B#366E000000000000
(1699278019.547976) can0 56B#366E000000000000
(1699278019.647944) can0 56B#366F000000000000
(1699278019.747780) can0 56B#366E000000000000
(1699278019.847740) can0 56B#366F000000000000
(1699278019.948039) can0 56B#366F000000000000
(1699278020.048041) can0 56B#366E000000000000
(1699278020.146548) can0 56B#366F000000000000
(1699278020.248833) can0 56B#366E000000000000
(1699278020.348860) can0 56B#366F000000000000
(1699278020.448408) can0 56B#366F000000000000
(1699278020.548425) can0 56B#366F000000000000
(1699278020.648932) can0 56B#366F000000000000
(1699278020.748430) can0 56B#366F000000000000
(1699278020.849005) can0 56B#366F000000000000
(1699278020.948463) can0 56B#366F000000000000
(1699278021.048520) can0 56B#366F000000000000
(1699278021.148510) can0 56B#366F000000000000
(1699278021.248576) can0 56B#366F000000000000
(1699278021.348742) can0 56B#366F000000000000
(1699278021.448313) can0 56B#366F000000000000
(1699278021.548852) can0 56B#366F000600000000
(1699278021.648359) can0 56B#366E000700000000
(1699278021.748302) can0 56B#366F000800000000
(1699278021.848354) can0 56B#366F000800000000
(1699278021.948580) can0 56B#366F000800000000
(1699278022.048641) can0 56B#366F000700000000
(1699278022.148449) can0 56B#366F000600000000
(1699278022.248668) can0 56B#366F000600000000
(1699278022.348461) can0 56B#366F000700000000
(1699278022.448464) can0 56B#366F000800000000
(1699278022.548527) can0 56B#366F000900000000
(1699278022.648480) can0 56B#366F000B00000000
(1699278022.748218) can0 56B#366F000C00000000
(1699278022.848480) can0 56B#366F000D00000000
(1699278022.948579) can0 56B#366F000E00000000
(1699278023.048530) can0 56B#366F000E00000000
(1699278023.148371) can0 56B#366F000E00000000
(1699278023.248805) can0 56B#366F000E00000000
(1699278023.348649) can0 56B#366F000F00000000
(1699278023.448620) can0 56B#366F001000000000
(1699278023.548891) can0 56B#366F001000000000
(1699278023.648910) can0 56B#366F001000000000
(1699278023.748944) can0 56B#366F001000000000
(1699278023.848969) can0 56B#366F001000000000
(1699278023.949027) can0 56B#366F001000000000
(1699278024.048988) can0 56B#366F000F00000000
(1699278024.148786) can0 56B#366F000F00000000
(1699278024.249068) can0 56B#366F000F00000000
(1699278024.349005) can0 56B#366F000E00000000
(1699278024.449007) can0 56B#366F000D00000000
(1699278024.549134) can0 56B#366F000C00000000
(1699278024.648872) can0 56B#366F000B00000000
(1699278024.748929) can0 56B#366F000B00000000
(1699278024.848625) can0 56B#366F000A00000000
(1699278024.948645) can0 56B#366F000900000000
(1699278025.048686) can0 56B#366F000800000000
(1699278025.148658) can0 56B#366F000700000000
(1699278025.248672) can0 56B#366F000000000000
(1699278025.348445) can0 56B#366F000000000000
(1699278025.448676) can0 56B#366F000000000000
(1699278025.548729) can0 56B#366F000000000000
(1699278025.648726) can0 56B#366F000000000000
(1699278025.748812) can0 56B#366F000000000000
(1699278025.848772) can0 56B#366F000000000000
(1699278025.948307) can0 56B#366F000000000000
(1699278026.048078) can0 56B#366F000000000000
(1699278026.148126) can0 56B#366F000000000000
(1699278026.248175) can0 56B#366F000000000000
(1699278026.348888) can0 56B#366F000000000000
(1699278026.448893) can0 56B#366F000000000000
(1699278026.548945) can0 56B#366F000000000000
(1699278026.648942) can0 56B#366F000000000000
(1699278026.748979) can0 56B#366F000000000000
(1699278026.849036) can0 56B#366F000000000000
(1699278026.948783) can0 56B#366F000600000000
(1699278027.049042) can0 56B#366F000600000000
(1699278027.149056) can0 56B#366F000000000000
(1699278027.249093) can0 56B#366F000000000000
(1699278027.348781) can0 56B#366F000000000000
(1699278027.445011) can0 56B#366F000000000000
(1699278027.545082) can0 56B#366F000000000000
(1699278027.645144) can0 56B#366F000000000000
(1699278027.745169) can0 56B#366F000000000000
(1699278027.845170) can0 56B#366F000000000000
(1699278027.945191) can0 56B#366F000000000000
(1699278028.045154) can0 56B#366F000000000000
(1699278028.145213) can0 56B#366F000000000000
(1699278028.245241) can0 56B#366F000000000000
(1699278028.345240) can0 56B#366F000000000000
(1699278028.445276) can0 56B#366F000000000000
(1699278028.545252) can0 56B#366F000000000000
(1699278028.645252) can0 56B#366F000000000000
(1699278028.745318) can0 56B#366F000000000000
(1699278028.845340) can0 56B#366F000000000000
(1699278028.945325) can0 56B#366F000000000000
(1699278029.045331) can0 56B#366F000000000000
(1699278029.145389) can0 56B#366F000000000000
(1699278029.245345) can0 56B#366F000000000000
(1699278029.345419) can0 56B#366F000000000000
(1699278029.445449) can0 56B#366F000000000000
(1699278029.545421) can0 56B#366F000000000000
(1699278029.645481) can0 56B#366F000000000000
(1699278029.745241) can0 56B#366F000000000000
(1699278029.845019) can0 56B#366F000000000000
(1699278029.945237) can0 56B#366F000000000000
(1699278030.045043) can0 56B#366F000000000000
(1699278030.145073) can0 56B#366F000000000000
(1699278030.245055) can0 56B#366F000000000000
(1699278030.345078) can0 56B#366F000000000000
(1699278030.445064) can0 56B#366F000000000000
(1699278030.545124) can0 56B#366F000000040000
(1699278030.645123) can0 56B#366F000000040000
(1699278030.745151) can0 56B#366F000000040000
(1699278030.845216) can0 56B#366F000000040000
(1699278030.945171) can0 56B#366F000000040000
(1699278031.045247) can0 56B#366F000000040000
(1699278031.145260) can0 56B#366F000000040000
(1699278031.245244) can0 56B#366F000000040000
(1699278031.345275) can0 56B#366F000000040000
(1699278031.445049) can0 56B#366F000000040000
(1699278031.545256) can0 56B#366F000000040000
(1699278031.645076) can0 56B#366F000000040000
(1699278031.745075) can0 56B#366F000000040000
(1699278031.845078) can0 56B#366F000000040000
(1699278031.945617) can0 56B#366F000000040000
(1699278032.045343) can0 56B#366F000000040000
(1699278032.145604) can0 56B#366F000000040000
(1699278032.245663) can0 56B#366F000600040000
(1699278032.345669) can0 56B#366F000800040000
(1699278032.445658) can0 56B#366F000900040000
(1699278032.545684) can0 56B#366F000A00040000
(1699278032.645739) can0 56B#366F000B00040000
(1699278032.745745) can0 56B#366F000D00040000
(1699278032.845776) can0 56B#366F000E00040000
(1699278032.945812) can0 56B#366F000F00040000
(1699278033.045777) can0 56B#366F001100040000
(1699278033.145826) can0 56B#366F001200040000
(1699278033.245828) can0 56B#366F001400040000
(1699278033.345571) can0 56B#366F001400040000
(1699278033.446144) can0 56B#366F001500040000
(1699278033.545936) can0 56B#366F001300040000
(1699278033.650087) can0 56B#366F001100040000
(1699278033.750116) can0 56B#366F001000040000
(1699278033.850200) can0 56B#366F000E00040000
(1699278033.945669) can0 56B#366F000D00040000
(1699278034.045683) can0 56B#366F000D00040000
(1699278034.145660) can0 56B#366F000C00040000
(1699278034.245770) can0 56B#366F000C00040000
(1699278034.345773) can0 56B#366F000B00040000
(1699278034.445799) can0 56B#366F000A00040000
(1699278034.545803) can0 56B#366F000A00040000
(1699278034.645771) can0 56B#366F000900040000
(1699278034.746104) can0 56B#366F000900040000
(1699278034.845872) can0 56B#366F000900040000
(1699278034.945610) can0 56B#366F000A00040000
(1699278035.045617) can0 56B#366F000B00040000
(1699278035.145656) can0 56B#366F000C00040000
(1699278035.245683) can0 56B#366F000E00040000
(1699278035.345683) can0 56B#366F000F00040000
(1699278035.445722) can0 56B#366F001000040000
(1699278035.545697) can0 56B#366F001000040000
(1699278035.645748) can0 56B#366F001000040000
(1699278035.745779) can0 56B#366F000F00040000
(1699278035.845496) can0 56B#366F000F00040000
(1699278035.945564) can0 56B#366F000F00040000
(1699278036.046058) can0 56B#366F000E00040000
(1699278036.146081) can0 56B#366F000D00040000
(1699278036.246102) can0 56B#366F000C00040000
(1699278036.346145) can0 56B#366F000B00040000
(1699278036.445904) can0 56B#366F000A00040000
(1699278036.545864) can0 56B#366F000900040000
(1699278036.645925) can0 56B#366F000800040000
(1699278036.745912) can0 56B#366F000000040000
(1699278036.845891) can0 56B#366F000000040000
(1699278036.945698) can0 56B#366F000000040000
(1699278037.045446) can0 56B#366F000000040000
(1699278037.145751) can0 56B#366F000000040000
(1699278037.245536) can0 56B#366F000000040000
(1699278037.345512) can0 56B#366F000000040000
(1699278037.445522) can0 56B#366F000000000000
(1699278037.545555) can0 56B#366F000000000000
(1699278037.645546) can0 56B#366F000000000000
(1699278037.745648) can0 56B#366F000000000000
(1699278037.845336) can0 56B#366F000000000000
(1699278037.945403) can0 56B#366F000000000000
(1699278038.045366) can0 56B#366F000000000000
(1699278038.145397) can0 56B#366F000000000000
(1699278038.245460) can0 56B#366F000000000000
(1699278038.345238) can0 56B#366F000000000000
(1699278038.445251) can0 56B#366F000000000000
(1699278038.545253) can0 56B#366F000000000000
(1699278038.645812) can0 56B#366F000000000000
(1699278038.745778) can0 56B#366F000000000000
(1699278038.845809) can0 56B#366F000000000000
(1699278038.945530) can0 56B#366F000000000000
(1699278039.045551) can0 56B#366F000700000000
(1699278039.145650) can0 56B#366F000900000000
(1699278039.245652) can0 56B#366F000A00000000
(1699278039.345675) can0 56B#366F000B00000000
(1699278039.445639) can0 56B#366F000B00000000
(1699278039.545634) can0 56B#366F000B00000000
(1699278039.645871) can0 56B#366F000900000000
(1699278039.745872) can0 56B#366F000800000000
(1699278039.845457) can0 56B#366F000600000000
(1699278039.945695) can0 56B#366F000000000000
(1699278040.045695) can0 56B#366F000000000000
(1699278040.145815) can0 56B#366F000000000000
(1699278040.245822) can0 56B#366F000000000000
(1699278040.345807) can0 56B#366F000000000000
(1699278040.445813) can0 56B#366F000000000000
(1699278040.545564) can0 56B#366F000000000000
(1699278040.645352) can0 56B#366F000000000000
(1699278040.745396) can0 56B#366F000000000000
(1699278040.845172) can0 56B#366F000000000000
(1699278040.945190) can0 56B#366F000000000000
(1699278041.045143) can0 56B#366F000000000000
(1699278041.145463) can0 56B#366F000000000000
(1699278041.245243) can0 56B#366F000000000000
(1699278041.345253) can0 56B#366F000000000000
(1699278041.445258) can0 56B#366F000000000000
(1699278041.545240) can0 56B#366F000000000000
(1699278041.645286) can0 56B#366F000000000000
(1699278041.745512) can0 56B#366F000000000000
(1699278041.845786) can0 56B#366F000000000000
(1699278041.945838) can0 56B#366F000000000000
(1699278042.045567) can0 56B#366F000000000000
(1699278042.145586) can0 56B#366F000000000000
(1699278042.245652) can0 56B#366F000000000000
(1699278042.345158) can0 56B#366F000000000000
(1699278042.445185) can0 56B#366F000000000000
(1699278042.545662) can0 56B#366F000000000000
(1699278042.645187) can0 56B#366F000000000000
(1699278042.745243) can0 56B#366F000000000000
(1699278042.845253) can0 56B#366F000000000000
(1699278042.945258) can0 56B#366F000000000000
(1699278043.045266) can0 56B#366F000000000000
(1699278043.145314) can0 56B#366F000000000000
(1699278043.245322) can0 56B#366F000000000000
(1699278043.345332) can0 56B#366F000000000000
(1699278043.445346) can0 56B#366F000000000000
(1699278043.545325) can0 56B#366F000000000000
(1699278043.645131) can0 56B#366F000000000000
(1699278043.745403) can0 56B#366F000000000000
(1699278043.845160) can0 56B#366F000000000000
(1699278043.945231) can0 56B#366F000000000000
(1699278044.045233) can0 56B#366F000000000000
(1699278044.145284) can0 56B#366F000000000000
(1699278044.245200) can0 56B#366F000000000000
(1699278044.345222) can0 56B#366F000000000000
(1699278044.445287) can0 56B#366F000000000000
(1699278044.545224) can0 56B#366F000000000000
(1699278044.645317) can0 56B#366F000000000000
(1699278044.745250) can0 56B#366F000000000000
(1699278044.845347) can0 56B#366F000000000000
(1699278044.945287) can0 56B#366F000000000000
(1699278045.045345) can0 56B#366F000000000000
(1699278045.145385) can0 56B#366F000000000000
(1699278045.245123) can0 56B#366F000000000000
(1699278045.345180) can0 56B#366F000000000000
(1699278045.445164) can0 56B#366F000000000000
(1699278045.545442) can0 56B#366F000000000000
(1699278045.645238) can0 56B#366F000000000000
(1699278045.745164) can0 56B#366F000000000000
(1699278045.845261) can0 56B#366F000000000000
(1699278045.945303) can0 56B#366F000000000000
(1699278046.045291) can0 56B#366F000000000000
(1699278046.145313) can0 56B#366F000000000000
(1699278046.245277) can0 56B#366F000000000000
(1699278046.345339) can0 56B#366F000000000000
(1699278046.445360) can0 56B#366F000000000000
(1699278046.545349) can0 56B#366F000000000000
(1699278046.645390) can0 56B#366F000000000000
(1699278046.745409) can0 56B#366F000000000000
(1699278046.845446) can0 56B#366F000000000000
(1699278046.945400) can0 56B#366F000000000000
(1699278047.045154) can0 56B#366F000000000000
(1699278047.144987) can0 56B#366F000000000000
(1699278047.244968) can0 56B#366F000000000000
(1699278047.345021) can0 56B#366F000000000000
(1699278047.444725) can0 56B#366F000000000000
(1699278047.545038) can0 56B#366F000000000000
(1699278047.645248) can0 56B#366F000000000000
(1699278047.745098) can0 56B#366F000000000000
(1699278047.845121) can0 56B#366F000000000000
(1699278047.945102) can0 56B#366F000000000000
(1699278048.045350) can0 56B#366F000000000000
(1699278048.145653) can0 56B#366F000000000000
(1699278048.245417) can0 56B#366F000000000000
(1699278048.345661) can0 56B#366F000000000000
(1699278048.445448) can0 56B#366F000000000000
(1699278048.545689) can0 56B#366F000700000000
(1699278048.645741) can0 56B#366F000900000000
(1699278048.746269) can0 56B#366F000A00000000
(1699278048.846265) can0 56B#366F000B00000000
(1699278048.946292) can0 56B#366F000C00000000
(1699278049.046062) can0 56B#366F000D00000000
(1699278049.146032) can0 56B#366F000D00000000
(1699278049.246061) can0 56B#366F000D00000000
(1699278049.346061) can0 56B#366F000C00000000
(1699278049.445873) can0 56B#366F000B00000000
(1699278049.545857) can0 56B#366F000B00000000
(1699278049.645912) can0 56B#366F000A00000000
(1699278049.745927) can0 56B#366F000A00000000
(1699278049.845626) can0 56B#366F000900000000
(1699278049.945689) can0 56B#366F000800000000
(1699278050.045657) can0 56B#366F000800000000
(1699278050.145737) can0 56B#366F000700000000
(1699278050.245781) can0 56B#366F000700000000
(1699278050.345771) can0 56B#366F000700000000
(1699278050.445791) can0 56B#366F000900000000
(1699278050.545821) can0 56B#366F000A00000000
(1699278050.645843) can0 56B#366F000B00000000
(1699278050.745851) can0 56B#366F000D00000000
(1699278050.845589) can0 56B#366F000E00000000
(1699278050.945893) can0 56B#366F001000000000
(1699278051.045855) can0 56B#366F001100000000
(1699278051.145685) can0 56B#366F001200000000
(1699278051.245704) can0 56B#366F001300000000
(1699278051.345700) can0 56B#366F001200000000
(1699278051.445698) can0 56B#366F001200000000
(1699278051.545711) can0 56B#366F001100000000
(1699278051.645783) can0 56B#366F001000000000
(1699278051.745773) can0 56B#366F000E00000000
(1699278051.845793) can0 56B#366F000C00000000
(1699278051.945762) can0 56B#366F000A00000000
(1699278052.045782) can0 56B#366F000900000000
(1699278052.146028) can0 56B#366F000700000000
(1699278052.246104) can0 56B#366F000600000000
(1699278052.346136) can0 56B#366F000000000000
(1699278052.445604) can0 56B#366F000000000000
(1699278052.545344) can0 56B#366F000000000000
(1699278052.645382) can0 56B#366F000000000000
(1699278052.745455) can0 56B#366F000000000000
(1699278052.845487) can0 56B#366F000000000000
(1699278052.945508) can0 56B#366F000000000000
(1699278053.045663) can0 56B#366F000000000000
(1699278053.145771) can0 56B#366F000000000000
(1699278053.245810) can0 56B#366F000500000000
(1699278053.345794) can0 56B#366F000700000000
(1699278053.445827) can0 56B#366F000800000000
(1699278053.545788) can0 56B#366F000A00000000
(1699278053.645845) can0 56B#366F000C00000000
(1699278053.745572) can0 56B#366F000D00000000
(1699278053.845845) can0 56B#366F000F00000000
(1699278053.945903) can0 56B#366F001100000000
(1699278054.045970) can0 56B#366F001100000000
(1699278054.145660) can0 56B#366F001000000000
(1699278054.245742) can0 56B#366F000F00000000
(1699278054.345730) can0 56B#366F000D00000000
(1699278054.445751) can0 56B#366F000C00000000
(1699278054.545687) can0 56B#366F000B00000000
(1699278054.645773) can0 56B#366F000B00000000
(1699278054.745754) can0 56B#366F000B00000000
(1699278054.845805) can0 56B#366F000B00000000
(1699278054.945818) can0 56B#366F000B00000000
(1699278055.045812) can0 56B#366F000C00000000
(1699278055.145827) can0 56B#366F000C00000000
(1699278055.245873) can0 56B#366F000B00000000
(1699278055.345908) can0 56B#366F000B00000000
(1699278055.445928) can0 56B#366F000A00000000
(1699278055.545653) can0 56B#366F000A00000000
(1699278055.645683) can0 56B#366F000A00000000
(1699278055.745737) can0 56B#366F000A00000000
(1699278055.845715) can0 56B#366F000A00000000
(1699278055.945981) can0 56B#366F000B00000000
(1699278056.046046) can0 56B#366F000C00000000
(1699278056.146283) can0 56B#366F000D00000000
(1699278056.245794) can0 56B#366F000E00000000
(1699278056.345800) can0 56B#366F001000000000
(1699278056.445833) can0 56B#366F001000000000
(1699278056.545813) can0 56B#366F001000000000
(1699278056.645815) can0 56B#366F001000000000
(1699278056.745874) can0 56B#366F000F00000000
(1699278056.845909) can0 56B#366F000E00000000
(1699278056.945872) can0 56B#366F000D00000000
(1699278057.045871) can0 56B#366F000C00000000
(1699278057.145746) can0 56B#366F000B00000000
(1699278057.245760) can0 56B#366F000900000000
(1699278057.345955) can0 56B#366F000800000000
(1699278057.445734) can0 56B#366F000800000000
(1699278057.546017) can0 56B#366F000800000000
(1699278057.645778) can0 56B#366F000900000000
(1699278057.745741) can0 56B#366F000900000000
(1699278057.845845) can0 56B#366F000A00000000
(1699278057.945826) can0 56B#366F000A00000000
(1699278058.045814) can0 56B#366F000B00000000
(1699278058.145932) can0 56B#366F000B00000000
(1699278058.245876) can0 56B#366F000B00000000
(1699278058.345843) can0 56B#366F000C00000000
(1699278058.445867) can0 56B#366F000D00000000
(1699278058.545960) can0 56B#366F000E00000000
(1699278058.645893) can0 56B#366F000E00000000
(1699278058.745982) can0 56B#366F000F00000000
(1699278058.845764) can0 56B#366F001000000000
(1699278058.946032) can0 56B#366F001000000000
(1699278059.045794) can0 56B#366F001000000000
(1699278059.145750) can0 56B#366F001000000000
(1699278059.245815) can0 56B#366F001000000000
(1699278059.346058) can0 56B#366F001000000000
(1699278059.446047) can0 56B#366F001000000000
(1699278059.545867) can0 56B#366F001000000000
(1699278059.645823) can0 56B#366F000F00000000
(1699278059.745919) can0 56B#366F000E00000000
(1699278059.845848) can0 56B#366F000D00000000
(1699278059.945909) can0 56B#366F000C00000000
(1699278060.045916) can0 56B#366F000B00000000
(1699278060.145941) can0 56B#366F000900000000
(1699278060.245766) can0 56B#366F000900000000
(1699278060.345973) can0 56B#366F000800000000
(1699278060.445795) can0 56B#366F000800000000
(1699278060.545753) can0 56B#366F000800000000
(1699278060.645827) can0 56B#366F000700000000
(1699278060.745842) can0 56B#366F000700000000
(1699278060.845810) can0 56B#366F000600000000
(1699278060.945796) can0 56B#366F000600000000
(1699278061.045795) can0 56B#366F000600000000
(1699278061.145931) can0 56B#366F000600000000
(1699278061.245885) can0 56B#366F000700000000
(1699278061.345930) can0 56B#366F000800000000
(1699278061.445911) can0 56B#366F000900000000
(1699278061.545920) can0 56B#366F000B00000000
(1699278061.645926) can0 56B#366F000C00000000
(1699278061.746203) can0 56B#366F000E00000000
(1699278061.846236) can0 56B#366F000F00000000
(1699278061.946253) can0 56B#366F001000000000
(1699278062.046260) can0 56B#366F001200000000
(1699278062.146054) can0 56B#366F001200000000
(1699278062.246022) can0 56B#366F001100000000
(1699278062.346053) can0 56B#366F001000000000
(1699278062.446048) can0 56B#366F000F00000000
(1699278062.546082) can0 56B#366F000E00000000
(1699278062.647080) can0 56B#366F000D00000000
(1699278062.746150) can0 56B#366F000D00000000
(1699278062.847121) can0 56B#366F000E00000000
(1699278062.945899) can0 56B#366F000E00000000
(1699278063.045942) can0 56B#366F000D00000000
(1699278063.145970) can0 56B#366F000D00000000
(1699278063.246155) can0 56B#366F000D00000000
(1699278063.346025) can0 56B#366F000C00000000
(1699278063.445767) can0 56B#366F000C00000000
(1699278063.545774) can0 56B#366F000B00000000
(1699278063.646061) can0 56B#366F000B00000000
(1699278063.745799) can0 56B#366F000A00000000
(1699278063.845841) can0 56B#366F000A00000000
(1699278063.945859) can0 56B#366F000A00000000
(1699278064.045921) can0 56B#366F000A00000000
(1699278064.145913) can0 56B#366F000C00000000
(1699278064.245946) can0 56B#366F000D00000000
(1699278064.345912) can0 56B#366F000E00000000
(1699278064.445935) can0 56B#366F000F00000000
(1699278064.545922) can0 56B#366F001000000000
(1699278064.645992) can0 56B#366F001100000000
(1699278064.745934) can0 56B#366F001200000000
(1699278064.845980) can0 56B#366F001200000000
(1699278064.946082) can0 56B#366F001100000000
(1699278065.045840) can0 56B#366F000F00000000
(1699278065.146022) can0 56B#366F000E00000000
(1699278065.245776) can0 56B#366F000B00000000
(1699278065.345864) can0 56B#366F000900000000
(1699278065.445886) can0 56B#366F000800000000
(1699278065.545932) can0 56B#366F000700000000
(1699278065.645893) can0 56B#366F000600000000
(1699278065.745890) can0 56B#366F000600000000
(1699278065.845935) can0 56B#366F000000000000
(1699278065.946217) can0 56B#366F000000000000
(1699278066.046197) can0 56B#366F000000000000
(1699278066.146239) can0 56B#366F000700000000
(1699278066.246305) can0 56B#366F000700000000
(1699278066.347286) can0 56B#366F000800000000
(1699278066.445776) can0 56B#366F000900000000
(1699278066.546040) can0 56B#366F000B00000000
(1699278066.646085) can0 56B#366F000C00000000
(1699278066.746100) can0 56B#366F000E00000000
(1699278066.845835) can0 56B#366F000F00000000
(1699278066.945830) can0 56B#366F000F00000000
(1699278067.045810) can0 56B#366F000D00000000
(1699278067.145916) can0 56B#366F000C00000000
(1699278067.245914) can0 56B#366F000B00000000
(1699278067.345903) can0 56B#366F000A00000000
(1699278067.445941) can0 56B#366F000900000000
(1699278067.546047) can0 56B#366F000800000000
(1699278067.646006) can0 56B#366F000700000000
(1699278067.745704) can0 56B#366F000600000000
(1699278067.846051) can0 56B#366F000000000000
(1699278067.946033) can0 56B#366F000000000000
(1699278068.045976) can0 56B#366F000000000000
(1699278068.146057) can0 56B#366F000000000000
(1699278068.245805) can0 56B#366F000000000000
(1699278068.346140) can0 56B#366F000000000000
(1699278068.445831) can0 56B#366F000000000000
(1699278068.545976) can0 56B#366F000000000000
(1699278068.645887) can0 56B#366F000000000000
(1699278068.745891) can0 56B#366F000000000000
(1699278068.845705) can0 56B#366F000000000000
(1699278068.945944) can0 56B#366F000000000000
(1699278069.045918) can0 56B#366F000000000000
(1699278069.145999) can0 56B#366F000000000000
(1699278069.245988) can0 56B#366F000700000000
(1699278069.346048) can0 56B#366F000800000000
(1699278069.446051) can0 56B#366F000800000000
(1699278069.545980) can0 56B#366F000800000000
(1699278069.646105) can0 56B#366F000800000000
(1699278069.746178) can0 56B#366F000700000000
(1699278069.846162) can0 56B#366F000000000000
(1699278069.946124) can0 56B#366F000000000000
(1699278070.046138) can0 56B#366F000000000000
(1699278070.147222) can0 56B#366F000000000000
(1699278070.246107) can0 56B#366F000000000000
(1699278070.347156) can0 56B#366F000000000000
(1699278070.447243) can0 56B#366F000000000000
(1699278070.545655) can0 56B#366F000000000000
(1699278070.645768) can0 56B#366F000000000000
(1699278070.745754) can0 56B#366F000000000000
(1699278070.846084) can0 56B#366F000000040000
(1699278070.945981) can0 56B#366F000000040000
(1699278071.045995) can0 56B#366F000000040000
(1699278071.147262) can0 56B#366F000000040000
(1699278071.246126) can0 56B#366F000000040000
(1699278071.347406) can0 56B#366F000000040000
(1699278071.447385) can0 56B#366F000000040000
(1699278071.547421) can0 56B#366F000000040000
(1699278071.647451) can0 56B#366F000000040000
(1699278071.747615) can0 56B#366F000000040000
(1699278071.847435) can0 56B#366F000000040000
(1699278071.947503) can0 56B#366F000000040000
(1699278072.047488) can0 56B#366F000000040000
(1699278072.147527) can0 56B#366F000000040000
(1699278072.247587) can0 56B#366F000000040000
(1699278072.347532) can0 56B#366F000000040000
(1699278072.448103) can0 56B#366F000700040000
(1699278072.548081) can0 56B#366F000800040000
(1699278072.647376) can0 56B#366F000A00040000
(1699278072.747668) can0 56B#366F000B00040000
(1699278072.847690) can0 56B#366F000E00040000
(1699278072.947636) can0 56B#366F001100040000
(1699278073.047833) can0 56B#366F001200040000
(1699278073.147618) can0 56B#366F001300040000
(1699278073.247945) can0 56B#366F001300040000
(1699278073.347938) can0 56B#366F001600040000
(1699278073.447973) can0 56B#366F001900040000
(1699278073.547711) can0 56B#366F001A00040000
(1699278073.647773) can0 56B#366F001B00040000
(1699278073.748019) can0 56B#366F001B00040000
(1699278073.848045) can0 56B#366F001900040000
(1699278073.947521) can0 56B#366F001500040000
(1699278074.048083) can0 56B#366F000F00040000
(1699278074.147591) can0 56B#366F000B00040000
(1699278074.248086) can0 56B#366F000000040000
(1699278074.348205) can0 56B#366F000000000000
(1699278074.448146) can0 56B#366F000000000000
(1699278074.548214) can0 56B#366F000000000000
(1699278074.648133) can0 56B#366F000000000000
(1699278074.748196) can0 56B#366F000000000000
(1699278074.848271) can0 56B#366F000000000000
(1699278074.948238) can0 56B#366F000000000000
(1699278075.048246) can0 56B#366F000000000000
(1699278075.148031) can0 56B#366F000000000000
(1699278075.248222) can0 56B#366F000000000000
(1699278075.348336) can0 56B#366F000000000000
(1699278075.448328) can0 56B#366F000000000000
(1699278075.548355) can0 56B#366F000000000000
(1699278075.648377) can0 56B#366F000000000000
(1699278075.748641) can0 56B#366F000000000000
(1699278075.848410) can0 56B#366F000800000000
(1699278075.948656) can0 56B#366F000700000000
(1699278076.048622) can0 56B#366F000B00000000
(1699278076.148712) can0 56B#366F000D00000000
(1699278076.248735) can0 56B#366F000F00000000
(1699278076.348516) can0 56B#366F001100000000
(1699278076.448470) can0 56B#366F001200000000
(1699278076.548207) can0 56B#366F001400000000
(1699278076.648224) can0 56B#366F001600000000
(1699278076.748052) can0 56B#366F001500000000
(1699278076.847983) can0 56B#366F001300000000
(1699278076.948092) can0 56B#366F001200000000
(1699278077.048087) can0 56B#366F000F00000000
(1699278077.148072) can0 56B#366F000E00000000
(1699278077.248119) can0 56B#366F000C00000000
(1699278077.348109) can0 56B#366F000B00000000
(1699278077.448168) can0 56B#366F000B00000000
(1699278077.548449) can0 56B#366F000C00000000
(1699278077.648456) can0 56B#366F000D00000000
(1699278077.748147) can0 56B#366F000E00000000
(1699278077.848495) can0 56B#366F000E00000000
(1699278077.949009) can0 56B#366F001000000000
(1699278078.049071) can0 56B#366F001100000000
(1699278078.149063) can0 56B#366F001300000000
(1699278078.248803) can0 56B#366F001400000000
(1699278078.349017) can0 56B#366F001500000000
(1699278078.448839) can0 56B#366F001500000000
(1699278078.549133) can0 56B#366F001400000000
(1699278078.649111) can0 56B#366F001200000000
(1699278078.750345) can0 56B#366F001100000000
(1699278078.849184) can0 56B#366F001000000000
(1699278078.950388) can0 56B#366F000F00000000
(1699278079.049116) can0 56B#366F000F00000000
(1699278079.148483) can0 56B#366F000E00000000
(1699278079.248513) can0 56B#366F000D00000000
(1699278079.348515) can0 56B#366F000C00000000
(1699278079.448498) can0 56B#366F000B00000000
(1699278079.548562) can0 56B#366F000A00000000
(1699278079.648562) can0 56B#366F000A00000000
(1699278079.748589) can0 56B#366F000900000000
(1699278079.848378) can0 56B#366F000A00000000
(1699278079.948395) can0 56B#366F000A00000000
(1699278080.048358) can0 56B#366F000B00000000
(1699278080.148403) can0 56B#366F000C00000000
(1699278080.248413) can0 56B#366F000E00000000
(1699278080.348344) can0 56B#366F001000000000
(1699278080.448450) can0 56B#366F001100000000
(1699278080.548481) can0 56B#366F001200000000
(1699278080.648484) can0 56B#366F001300000000
(1699278080.748522) can0 56B#366F001200000000
(1699278080.848476) can0 56B#366F001100000000
(1699278080.948507) can0 56B#366F001000000000
(1699278081.048569) can0 56B#366F001000000000
(1699278081.148525) can0 56B#366F000F00000000
(1699278081.248502) can0 56B#366F000E00000000
(1699278081.348612) can0 56B#366F000D00000000
(1699278081.448583) can0 56B#366F000C00000000
(1699278081.548618) can0 56B#366F000900000000
(1699278081.648641) can0 56B#366F000000000000
(1699278081.748626) can0 56B#366F000000000000
(1699278081.848344) can0 56B#366F000000000000
(1699278081.948715) can0 56B#366F000000000000
(1699278082.048395) can0 56B#366F000000000000
(1699278082.148496) can0 56B#366F000000040000
(1699278082.248477) can0 56B#366F000000040000
(1699278082.348535) can0 56B#366F000000040000
(1699278082.448547) can0 56B#366F000000040000
(1699278082.548531) can0 56B#366F000000040000
(1699278082.648527) can0 56B#366F000000040000
(1699278082.748605) can0 56B#366F000000040000
(1699278082.848781) can0 56B#366F000000040000
(1699278082.948625) can0 56B#366F000000040000
(1699278083.048645) can0 56B#366F000000040000
(1699278083.148899) can0 56B#366F000000040000
(1699278083.248936) can0 56B#366F000700040000
(1699278083.348656) can0 56B#366F000000040000
(1699278083.449149) can0 56B#366F000600040000
(1699278083.549272) can0 56B#366F000900040000
(1699278083.649233) can0 56B#366F000C00040000
(1699278083.749225) can0 56B#366F000F00040000
(1699278083.849245) can0 56B#366F001300040000
(1699278083.949312) can0 56B#366F001500040000
(1699278084.049278) can0 56B#366F001800040000
(1699278084.149095) can0 56B#366F001A00040000
(1699278084.248821) can0 56B#366F001C00040000
(1699278084.348839) can0 56B#366F001E00040000
(1699278084.448846) can0 56B#366F002100040000
(1699278084.548851) can0 56B#366F002300040000
(1699278084.648976) can0 56B#366F002400040000
(1699278084.748929) can0 56B#366F002500040000
(1699278084.848975) can0 56B#366F002700040000
(1699278084.948968) can0 56B#366F002800040000
(1699278085.048984) can0 56B#366F002800040000
(1699278085.148929) can0 56B#366F002900040000
(1699278085.248985) can0 56B#366F002A00040000
(1699278085.349051) can0 56B#366F002A00040000
(1699278085.449069) can0 56B#366F002A00040000
(1699278085.549091) can0 56B#366F002A00040000
(1699278085.649089) can0 56B#366F002B00040000
(1699278085.748861) can0 56B#366F002B00040000
(1699278085.849080) can0 56B#366F002C00040000
(1699278085.948848) can0 56B#366F002C00040000
(1699278086.048912) can0 56B#366F002C00040000
(1699278086.148902) can0 56B#366F002D00040000
(1699278086.248916) can0 56B#366F002D00040000
(1699278086.349016) can0 56B#366F002D00040000
(1699278086.448947) can0 56B#366F002A00040000
(1699278086.549235) can0 56B#366F002700040000
(1699278086.649264) can0 56B#366F002400040000
(1699278086.749287) can0 56B#366F002100040000
(1699278086.849289) can0 56B#366F001E00040000
(1699278086.949280) can0 56B#366F001B00040000
(1699278087.049000) can0 56B#366F001800040000
(1699278087.149313) can0 56B#366F001600040000
(1699278087.249165) can0 56B#366F001500040000
(1699278087.349351) can0 56B#366F001400040000
(1699278087.449104) can0 56B#366F001300040000
(1699278087.549169) can0 56B#366F001300040000
(1699278087.648902) can0 56B#366F001300040000
(1699278087.749127) can0 56B#366F001400040000
(1699278087.848682) can0 56B#366F001400040000
(1699278087.948721) can0 56B#366F001600040000
(1699278088.048764) can0 56B#366F001700040000
(1699278088.148731) can0 56B#366F001800040000
(1699278088.248752) can0 56B#366F001900040000
(1699278088.348819) can0 56B#366F001900040000
(1699278088.448777) can0 56B#366F001900040000
(1699278088.548842) can0 56B#366F001600040000
(1699278088.648868) can0 56B#366F001400040000
(1699278088.748826) can0 56B#366F001200040000
(1699278088.848590) can0 56B#366F001000040000
(1699278088.948615) can0 56B#366F000F00040000
(1699278089.048913) can0 56B#366F000E00040000
(1699278089.148611) can0 56B#366F000E00040000
(1699278089.248735) can0 56B#366F000D00040000
(1699278089.348686) can0 56B#366F000C00040000
(1699278089.448755) can0 56B#366F000B00040000
(1699278089.548771) can0 56B#366F000B00040000
(1699278089.649024) can0 56B#366F000A00040000
(1699278089.749048) can0 56B#366F000A00040000
(1699278089.849019) can0 56B#366F000A00040000
(1699278089.949091) can0 56B#366F000B00040000
(1699278090.049071) can0 56B#366F000C00040000
(1699278090.149090) can0 56B#366F000D00040000
(1699278090.247128) can0 56B#366F000E00040000
(1699278090.349131) can0 56B#366F001000040000
(1699278090.447138) can0 56B#366F001100040000
(1699278090.547176) can0 56B#366F001200040000
(1699278090.647157) can0 56B#366F001400040000
(1699278090.747185) can0 56B#366F001500040000
(1699278090.847187) can0 56B#366F001600040000
(1699278090.947278) can0 56B#366F001800040000
(1699278091.047034) can0 56B#366F001A00040000
(1699278091.147257) can0 56B#366F001B00040000
(1699278091.247256) can0 56B#366F001C00040000
(1699278091.347036) can0 56B#366F001D00040000
(1699278091.447058) can0 56B#366F001D00040000
(1699278091.547284) can0 56B#366F001B00040000
(1699278091.647139) can0 56B#366F001A00040000
(1699278091.747123) can0 56B#366F001800040000
(1699278091.847154) can0 56B#366F001700040000
(1699278091.947205) can0 56B#366F001700040000
(1699278092.047174) can0 56B#366F001700040000
(1699278092.147186) can0 56B#366F001700040000
(1699278092.247190) can0 56B#366F001800040000
(1699278092.347260) can0 56B#366F001900040000
(1699278092.447280) can0 56B#366F001900040000
(1699278092.547234) can0 56B#366F001B00040000
(1699278092.649050) can0 56B#366F001C00040000
(1699278092.747796) can0 56B#366F001D00040000
(1699278092.847556) can0 56B#366F001E00040000
(1699278092.947610) can0 56B#366F002000040000
(1699278093.047565) can0 56B#366F002100040000
(1699278093.147133) can0 56B#366F002200040000
(1699278093.247151) can0 56B#366F002300040000
(1699278093.347176) can0 56B#366F002400040000
(1699278093.447139) can0 56B#366F002600040000
(1699278093.547116) can0 56B#366F002700040000
(1699278093.647232) can0 56B#366F002700040000
(1699278093.747199) can0 56B#366F002500040000
(1699278093.847245) can0 56B#366F002300040000
(1699278093.947276) can0 56B#366F002100040000
(1699278094.047307) can0 56B#366F001F00040000
(1699278094.147209) can0 56B#366F001E00040000
(1699278094.247367) can0 56B#366F001D00040000
(1699278094.347347) can0 56B#366F001C00040000
(1699278094.447310) can0 56B#366F001C00040000
(1699278094.547354) can0 56B#366F001B00040000
(1699278094.647369) can0 56B#366F001C00040000
(1699278094.747095) can0 56B#366F001C00040000
(1699278094.847185) can0 56B#366F001D00040000
(1699278094.947093) can0 56B#366F001D00040000
(1699278095.047205) can0 56B#366F001E00040000
(1699278095.147189) can0 56B#366F001F00040000
(1699278095.247197) can0 56B#366F002100040000
(1699278095.347736) can0 56B#366F002200040000
(1699278095.447737) can0 56B#366F002200040000
(1699278095.547799) can0 56B#366F002100040000
(1699278095.647823) can0 56B#366F002000040000
(1699278095.747786) can0 56B#366F001E00040000
(1699278095.847350) can0 56B#366F001D00040000
(1699278095.947130) can0 56B#366F001C00040000
(1699278096.047346) can0 56B#366F001C00040000
(1699278096.147402) can0 56B#366F001D00040000
(1699278096.247119) can0 56B#366F001D00040000
(1699278096.347188) can0 56B#366F001E00040000
(1699278096.447205) can0 56B#366F001F00040000
(1699278096.547204) can0 56B#366F002000040000
(1699278096.647228) can0 56B#366F002100040000
(1699278096.747254) can0 56B#366F002200040000
(1699278096.847512) can0 56B#366F002300040000
(1699278096.947309) can0 56B#366F002300040000
(1699278097.047278) can0 56B#366F002000040000
(1699278097.147557) can0 56B#366F001D00040000
(1699278097.247333) can0 56B#366F001B00040000
(1699278097.347367) can0 56B#366F001800040000
(1699278097.447375) can0 56B#366F001600040000
(1699278097.547643) can0 56B#366F001600040000
(1699278097.647382) can0 56B#366F001600040000
(1699278097.747399) can0 56B#366F001700040000
(1699278097.847463) can0 56B#366F001700040000
(1699278097.947191) can0 56B#366F001800040000
(1699278098.047168) can0 56B#366F001900040000
(1699278098.147192) can0 56B#366F001A00040000
(1699278098.247980) can0 56B#366F001B00040000
(1699278098.347967) can0 56B#366F001C00040000
(1699278098.448013) can0 56B#366F001C00040000
(1699278098.548060) can0 56B#366F001D00040000
(1699278098.648062) can0 56B#366F001D00040000
(1699278098.748164) can0 56B#366F001D00040000
(1699278098.848069) can0 56B#366F001E00040000
(1699278098.947849) can0 56B#366F001D00040000
(1699278099.047941) can0 56B#366F001D00040000
(1699278099.147627) can0 56B#366F001C00040000
(1699278099.247723) can0 56B#366F001B00040000
(1699278099.347657) can0 56B#366F001B00040000
(1699278099.447712) can0 56B#366F001B00040000
(1699278099.547738) can0 56B#366F001B00040000
(1699278099.647702) can0 56B#366F001B00040000
(1699278099.747746) can0 56B#366F001D00040000
(1699278099.847744) can0 56B#366F001D00040000
(1699278099.947776) can0 56B#366F001D00040000
(1699278100.047870) can0 56B#366F001F00040000
(1699278100.147795) can0 56B#366F002100040000
(1699278100.247834) can0 56B#366F002000040000
(1699278100.347597) can0 56B#366F002300040000
(1699278100.447637) can0 56B#366F002400040000
(1699278100.547576) can0 56B#366F002400040000
(1699278100.647444) can0 56B#366F002400040000
(1699278100.747654) can0 56B#366F002500040000
(1699278100.847686) can0 56B#366F002700040000
(1699278100.947689) can0 56B#366F002700040000
(1699278101.047948) can0 56B#366F002800040000
(1699278101.147223) can0 56B#366F002700040000
(1699278101.247220) can0 56B#366F002600040000
(1699278101.347451) can0 56B#366F002700040000
(1699278101.447507) can0 56B#366F002900040000
(1699278101.547293) can0 56B#366F002A00040000
(1699278101.647550) can0 56B#366F002900040000
(1699278101.747617) can0 56B#366F002800040000
(1699278101.847358) can0 56B#366F002A00040000
(1699278101.947120) can0 56B#366F002D00040000
(1699278102.047386) can0 56B#366F002D00040000
(1699278102.147157) can0 56B#366F002B00040000
(1699278102.247153) can0 56B#366F002A00040000
(1699278102.347226) can0 56B#366F002900040000
(1699278102.447417) can0 56B#366F002900040000
(1699278102.547207) can0 56B#366F002900040000
(1699278102.647206) can0 56B#366F002700040000
(1699278102.747506) can0 56B#366F002400040000
(1699278102.847527) can0 56B#366F002200040000
(1699278102.947811) can0 56B#366F002100040000
(1699278103.047840) can0 56B#366F002100040000
(1699278103.147860) can0 56B#366F001F00040000
(1699278103.247600) can0 56B#366F001E00040000
(1699278103.347111) can0 56B#366F001F00040000
(1699278103.447405) can0 56B#366F001E00040000
(1699278103.547133) can0 56B#366F001E00040000
(1699278103.647194) can0 56B#366F001E00040000
(1699278103.747220) can0 56B#366F001E00040000
(1699278103.847487) can0 56B#366F001D00040000
(1699278103.947247) can0 56B#366F001E00040000
(1699278104.047198) can0 56B#366F001E00040000
(1699278104.147179) can0 56B#366F001F00040000
(1699278104.247264) can0 56B#366F002000040000
(1699278104.347310) can0 56B#366F002100040000
(1699278104.447362) can0 56B#366F002200040000
(1699278104.547537) can0 56B#366F002300040000
(1699278104.647329) can0 56B#366F002400040000
(1699278104.747112) can0 56B#366F002500040000
(1699278104.847363) can0 56B#366F002600040000
(1699278104.947182) can0 56B#366F002600040000
(1699278105.047129) can0 56B#366F002700040000
(1699278105.147205) can0 56B#366F002700040000
(1699278105.247462) can0 56B#366F002800040000
(1699278105.347148) can0 56B#366F002900040000
(1699278105.447235) can0 56B#366F002A00040000
(1699278105.547513) can0 56B#366F002900040000
(1699278105.647249) can0 56B#366F002A00040000
(1699278105.747199) can0 56B#366F002900040000
(1699278105.847774) can0 56B#366F002A00040000
(1699278105.947598) can0 56B#366F002B00040000
(1699278106.047561) can0 56B#366F002B00040000
(1699278106.147627) can0 56B#366F002B00040000
(1699278106.247653) can0 56B#366F002C00040000
(1699278106.347073) can0 56B#366F002E00040000
(1699278106.447091) can0 56B#366F002D00040000
(1699278106.547104) can0 56B#366F002F00040000
(1699278106.647372) can0 56B#366F003000040000
(1699278106.747128) can0 56B#366F003000040000
(1699278106.847147) can0 56B#366F003100040000
(1699278106.947423) can0 56B#366F003200040000
(1699278107.047179) can0 56B#366F003300040000
(1699278107.147198) can0 56B#366F003200040000
(1699278107.247454) can0 56B#366F003200040000
(1699278107.347480) can0 56B#366F003100040000
(1699278107.448049) can0 56B#366F003200040000
(1699278107.547923) can0 56B#366F003200040000
(1699278107.648364) can0 56B#366F003200040000
(1699278107.748111) can0 56B#366F003200040000
(1699278107.848416) can0 56B#366F003200040000
(1699278107.947084) can0 56B#366F003200040000
(1699278108.047364) can0 56B#366F003200040000
(1699278108.147440) can0 56B#366F003300040000
(1699278108.247694) can0 56B#366F003300040000
(1699278108.347805) can0 56B#366F003400040000
(1699278108.447244) can0 56B#366F003400040000
(1699278108.547218) can0 56B#366F003500040000
(1699278108.647285) can0 56B#366F003700040000
(1699278108.747328) can0 56B#366F003700040000
(1699278108.847036) can0 56B#366F003800040000
(1699278108.947116) can0 56B#366F003900040000
(1699278109.047368) can0 56B#366F003A00040000
(1699278109.147094) can0 56B#366F003B00040000
(1699278109.247138) can0 56B#366F003B00040000
(1699278109.347193) can0 56B#366F003C00040000
(1699278109.447451) can0 56B#366F003D00040000
(1699278109.547198) can0 56B#366F003C00040000
(1699278109.647184) can0 56B#366F003D00040000
(1699278109.747506) can0 56B#366F003E00040000
(1699278109.847156) can0 56B#366F003D00040000
(1699278109.947279) can0 56B#366F003C00040000
(1699278110.047514) can0 56B#366F003D00040000
(1699278110.147534) can0 56B#366F003E00040000
(1699278110.247549) can0 56B#366F003D00040000
(1699278110.347563) can0 56B#366F003D00040000
(1699278110.447574) can0 56B#366F003E00040000
(1699278110.547118) can0 56B#366F003D00040000
(1699278110.647151) can0 56B#366F003D00040000
(1699278110.747091) can0 56B#366F003E00040000
(1699278110.847379) can0 56B#366F003D00040000
(1699278110.947212) can0 56B#366F003D00040000
(1699278111.047140) can0 56B#366F003E00040000
(1699278111.147726) can0 56B#366F003E00040000
(1699278111.247241) can0 56B#366F003D00040000
(1699278111.347718) can0 56B#366F003E00040000
(1699278111.447496) can0 56B#366F003D00040000
(1699278111.547467) can0 56B#366F003D00040000
(1699278111.647533) can0 56B#366F003B00040000
(1699278111.747616) can0 56B#366F003B00040000
(1699278111.847576) can0 56B#366F003A00040000
(1699278111.947518) can0 56B#366F003800040000
(1699278112.047634) can0 56B#366F003600040000
(1699278112.147624) can0 56B#366F003500040000
(1699278112.247933) can0 56B#366F003400040000
(1699278112.347590) can0 56B#366F003300040000
(1699278112.447858) can0 56B#366F003200040000
(1699278112.547895) can0 56B#366F003200040000
(1699278112.647960) can0 56B#366F003000040000
(1699278112.747724) can0 56B#366F002E00040000
(1699278112.847790) can0 56B#366F002E00040000
(1699278112.947767) can0 56B#366F002E00040000
(1699278113.047519) can0 56B#366F002D00040000
(1699278113.147553) can0 56B#366F002C00040000
(1699278113.247545) can0 56B#366F002C00040000
(1699278113.347567) can0 56B#366F002D00040000
(1699278113.447594) can0 56B#366F002C00040000
(1699278113.547551) can0 56B#366F002C00040000
(1699278113.647566) can0 56B#366F002B00040000
(1699278113.747428) can0 56B#366F002D00040000
(1699278113.847457) can0 56B#366F002D00040000
(1699278113.947368) can0 56B#366F002C00040000
(1699278114.047445) can0 56B#366F002C00040000
(1699278114.147505) can0 56B#366F002D00040000
(1699278114.247434) can0 56B#366F002D00040000
(1699278114.347489) can0 56B#366F002E00040000
(1699278114.447070) can0 56B#366F002D00040000
(1699278114.546978) can0 56B#366F002E00040000
(1699278114.647251) can0 56B#366F002F00040000
(1699278114.747073) can0 56B#366F002E00040000
(1699278114.847099) can0 56B#366F002E00040000
(1699278114.947188) can0 56B#366F003000040000
(1699278115.047370) can0 56B#366F003000040000
(1699278115.147130) can0 56B#366F003000040000
(1699278115.247358) can0 56B#366F003100040000
(1699278115.347471) can0 56B#366F003100040000
(1699278115.447619) can0 56B#366F003000040000
(1699278115.547739) can0 56B#366F003000040000
(1699278115.647716) can0 56B#366F002F00040000
(1699278115.747822) can0 56B#366F003000040000
(1699278115.847193) can0 56B#366F003000040000
(1699278115.947537) can0 56B#366F002F00040000
(1699278116.047563) can0 56B#366F002D00040000
(1699278116.147330) can0 56B#366F002D00040000
(1699278116.247019) can0 56B#366F002D00040000
(1699278116.347315) can0 56B#366F002D00040000
(1699278116.447358) can0 56B#366F002B00040000
(1699278116.547412) can0 56B#366F002B00040000
(1699278116.647387) can0 56B#366F002A00040000
(1699278116.747451) can0 56B#366F002A00040000
(1699278116.847718) can0 56B#366F002900040000
(1699278116.947744) can0 56B#366F002900040000
(1699278117.047749) can0 56B#366F002700040000
(1699278117.147546) can0 56B#366F002700040000
(1699278117.247486) can0 56B#366F002700040000
(1699278117.347472) can0 56B#366F002600040000
(1699278117.447520) can0 56B#366F002500040000
(1699278117.547241) can0 56B#366F002600040000
(1699278117.647546) can0 56B#366F002500040000
(1699278117.747591) can0 56B#366F002400040000
(1699278117.847288) can0 56B#366F002400040000
(1699278117.947596) can0 56B#366F002300040000
(1699278118.047670) can0 56B#366F002400040000
(1699278118.147597) can0 56B#366F002200040000
(1699278118.247364) can0 56B#366F002200040000
(1699278118.347414) can0 56B#366F002100040000
(1699278118.447480) can0 56B#366F002000040000
(1699278118.547464) can0 56B#366F001F00040000
(1699278118.647488) can0 56B#366F001F00040000
(1699278118.747439) can0 56B#366F001E00040000
(1699278118.847569) can0 56B#366F001E00040000
(1699278118.947545) can0 56B#366F001D00040000
(1699278119.047608) can0 56B#366F001D00040000
(1699278119.147878) can0 56B#366F001C00040000
(1699278119.247839) can0 56B#366F001C00040000
(1699278119.347840) can0 56B#366F001B00040000
(1699278119.447575) can0 56B#366F001A00040000
(1699278119.547669) can0 56B#366F001A00040000
(1699278119.647685) can0 56B#366F001900040000
(1699278119.747718) can0 56B#366F001800040000
(1699278119.847624) can0 56B#366F001700040000
(1699278119.947450) can0 56B#366F001600040000
(1699278120.047498) can0 56B#366F001600040000
(1699278120.147442) can0 56B#366F001400040000
(1699278120.247490) can0 56B#366F001400040000
(1699278120.347476) can0 56B#366F001200040000
(1699278120.447527) can0 56B#366F001200040000
(1699278120.547587) can0 56B#366F001200040000
(1699278120.647576) can0 56B#366F001200040000
(1699278120.747646) can0 56B#366F001300040000
(1699278120.847654) can0 56B#366F001300040000
(1699278120.947577) can0 56B#366F001200040000
(1699278121.047649) can0 56B#366F001300040000
(1699278121.147745) can0 56B#366F001200040000
(1699278121.247676) can0 56B#366F001200040000
(1699278121.347652) can0 56B#366F001200040000
(1699278121.447503) can0 56B#366F001300040000
(1699278121.547967) can0 56B#366F001400040000
(1699278121.648048) can0 56B#366F001400040000
(1699278121.747794) can0 56B#366F001400040000
(1699278121.847826) can0 56B#366F001400040000
(1699278121.947753) can0 56B#366F001300040000
(1699278122.047511) can0 56B#366F001300040000
(1699278122.147528) can0 56B#366F001200040000
(1699278122.247653) can0 56B#366F001100040000
(1699278122.347560) can0 56B#366F000F00040000
(1699278122.447628) can0 56B#366F000E00040000
(1699278122.547658) can0 56B#366F000D00040000
(1699278122.647630) can0 56B#366F000D00040000
(1699278122.747677) can0 56B#366F000B00040000
(1699278122.847796) can0 56B#366F000A00040000
(1699278122.947770) can0 56B#366F000900040000
(1699278123.047736) can0 56B#366F000800040000
(1699278123.147711) can0 56B#366F000800040000
(1699278123.247730) can0 56B#366F000600040000
(1699278123.347895) can0 56B#366F000000040000
(1699278123.447512) can0 56B#366F000000040000
(1699278123.547780) can0 56B#366F000000040000
(1699278123.647580) can0 56B#366F000000040000
(1699278123.747860) can0 56B#366F000000040000
(1699278123.847869) can0 56B#366F000000040000
(1699278123.947847) can0 56B#366F000000040000
(1699278124.047611) can0 56B#366F000000040000
(1699278124.147732) can0 56B#366F000000040000
(1699278124.247680) can0 56B#366F000000040000
(1699278124.347703) can0 56B#366F000000040000
(1699278124.447729) can0 56B#366F000000040000
(1699278124.547680) can0 56B#366F000000040000
(1699278124.647769) can0 56B#366F000000040000
(1699278124.748124) can0 56B#366F000000040000
(1699278124.847621) can0 56B#366F000000040000
(1699278124.947524) can0 56B#366F000000040000
(1699278125.047781) can0 56B#366F000000040000
(1699278125.147805) can0 56B#366F000000040000
(1699278125.247585) can0 56B#366F000000040000
(1699278125.347590) can0 56B#366F000000040000
(1699278125.447715) can0 56B#366F000000040000
(1699278125.547614) can0 56B#366F000000040000
(1699278125.647746) can0 56B#366F000000040000
(1699278125.747658) can0 56B#366F000000040000
(1699278125.847745) can0 56B#366F000000040000
(1699278125.947731) can0 56B#366F000000040000
(1699278126.047707) can0 56B#366F000000040000
(1699278126.147530) can0 56B#366F000000040000
(1699278126.247573) can0 56B#366F000000040000
(1699278126.347556) can0 56B#366F000000040000
(1699278126.447558) can0 56B#366F000000040000
(1699278126.547583) can0 56B#366F000000040000
(1699278126.647644) can0 56B#366F000000040000
(1699278126.747585) can0 56B#366F000000040000
(1699278126.847570) can0 56B#366F000000040000
(1699278126.947609) can0 56B#366F000000040000
(1699278127.047670) can0 56B#366F000000040000
(1699278127.147685) can0 56B#366F000000040000
(1699278127.247658) can0 56B#366F000000040000
(1699278127.347771) can0 56B#366F000000040000
(1699278127.447734) can0 56B#366F000000040000
(1699278127.547729) can0 56B#366F000000040000
(1699278127.647776) can0 56B#366F000000040000
(1699278127.747802) can0 56B#366F000000040000
(1699278127.847840) can0 56B#366F000000040000
(1699278127.947624) can0 56B#366F000000040000
(1699278128.047648) can0 56B#366F000000040000
(1699278128.147650) can0 56B#366F000000040000
(1699278128.247670) can0 56B#366F000000040000
(1699278128.347641) can0 56B#366F000000040000
(1699278128.447658) can0 56B#366F000000040000
(1699278128.547733) can0 56B#366F000000040000
(1699278128.647635) can0 56B#366F000000040000
(1699278128.747675) can0 56B#366F000000040000
(1699278128.847780) can0 56B#366F000000040000
(1699278128.947698) can0 56B#366F000000040000
(1699278129.047716) can0 56B#366F000000040000
(1699278129.147743) can0 56B#366F000000040000
(1699278129.247860) can0 56B#366F000000040000
(1699278129.347787) can0 56B#366F000000040000
(1699278129.447927) can0 56B#366F000000040000
(1699278129.547852) can0 56B#366F000000040000
(1699278129.647878) can0 56B#366F000000040000
(1699278129.747895) can0 56B#366F000000040000
(1699278129.847903) can0 56B#366F000000040000
(1699278129.948022) can0 56B#366F000000040000
(1699278130.047930) can0 56B#366F000000040000
(1699278130.148149) can0 56B#366F000000040000
(1699278130.248172) can0 56B#366F000000040000
(1699278130.348216) can0 56B#366F000000040000
(1699278130.447743) can0 56B#366F000000040000
(1699278130.547738) can0 56B#366F000000040000
(1699278130.647734) can0 56B#366F000000040000
(1699278130.747772) can0 56B#366F000000040000
(1699278130.847928) can0 56B#366F000000040000
(1699278130.947843) can0 56B#366F000000040000
(1699278131.047806) can0 56B#366F000000040000
(1699278131.147844) can0 56B#366F000000040000
(1699278131.247838) can0 56B#366F000000040000
(1699278131.347870) can0 56B#366F000000040000
(1699278131.447889) can0 56B#366F000000040000
(1699278131.547913) can0 56B#366F000000040000
(1699278131.647914) can0 56B#366F000000040000
(1699278131.747980) can0 56B#366F000000040000
(1699278131.848099) can0 56B#366F000000040000
(1699278131.948102) can0 56B#366F000000040000
(1699278132.048050) can0 56B#366F000000040000
(1699278132.148044) can0 56B#366F000000040000
(1699278132.248066) can0 56B#366F000000040000
(1699278132.348154) can0 56B#366F000000040000
(1699278132.448124) can0 56B#366F000000040000
(1699278132.548114) can0 56B#366F000000040000
(1699278132.648099) can0 56B#366F000000040000
(1699278132.748266) can0 56B#366F000000040000
(1699278132.848172) can0 56B#366F000000040000
(1699278132.948258) can0 56B#366F000000040000
(1699278133.047916) can0 56B#366F000000040000
(1699278133.147944) can0 56B#366F000000040000
(1699278133.247998) can0 56B#366F000000040000
(1699278133.348034) can0 56B#366F000000040000
(1699278133.448010) can0 56B#366F000000040000
(1699278133.548013) can0 56B#366F000000040000
(1699278133.648372) can0 56B#366F000000040000
(1699278133.748065) can0 56B#366F000000040000
(1699278133.848401) can0 56B#366F000000040000
(1699278133.948193) can0 56B#366F000000040000
(1699278134.048066) can0 56B#366F000000040000
(1699278134.147952) can0 56B#366F000000040000
(1699278134.248178) can0 56B#366F000000040000
(1699278134.347885) can0 56B#366F000000040000
(1699278134.447933) can0 56B#366F000000040000
(1699278134.547937) can0 56B#366F000000040000
(1699278134.648256) can0 56B#366F000000040000
(1699278134.748240) can0 56B#366F000000040000
(1699278134.848283) can0 56B#366F000000040000
(1699278134.948066) can0 56B#366F000000040000
(1699278135.048309) can0 56B#366F000000040000
(1699278135.148089) can0 56B#366F000000040000
(1699278135.248048) can0 56B#366F000000040000
(1699278135.348112) can0 56B#366F000000040000
(1699278135.447897) can0 56B#366F000000040000
(1699278135.548087) can0 56B#366F000000040000
(1699278135.648614) can0 56B#366F000000040000
(1699278135.747880) can0 56B#366F000000040000
(1699278135.848513) can0 56B#366F000000040000
(1699278135.948496) can0 56B#366F000000040000
(1699278136.048202) can0 56B#366F000000040000
(1699278136.148195) can0 56B#366F000000040000
(1699278136.248256) can0 56B#366F000000040000
(1699278136.348230) can0 56B#366F000000040000
(1699278136.448310) can0 56B#366F000000040000
(1699278136.548308) can0 56B#366F000000040000
(1699278136.648346) can0 56B#366F000000040000
(1699278136.748370) can0 56B#366F000000040000
(1699278136.848123) can0 56B#366F000000040000
(1699278136.948385) can0 56B#366F000000040000
(1699278137.048436) can0 56B#366F000000040000
(1699278137.148123) can0 56B#366F000000040000
(1699278137.248121) can0 56B#366F000000040000
(1699278137.348221) can0 56B#366F000000040000
(1699278137.448178) can0 56B#366F000000040000
(1699278137.548224) can0 56B#366F000000040000
(1699278137.648203) can0 56B#366F000000040000
(1699278137.748228) can0 56B#366F000000040000
(1699278137.848297) can0 56B#366F000000040000
(1699278137.948261) can0 56B#366F000000040000
(1699278138.048307) can0 56B#366F000000040000
(1699278138.148389) can0 56B#366F000000040000
(1699278138.248320) can0 56B#366F000000040000
(1699278138.348411) can0 56B#366F000000040000
(1699278138.448420) can0 56B#366F000000040000
(1699278138.548098) can0 56B#366F000000040000
(1699278138.648466) can0 56B#366F000000040000
(1699278138.748217) can0 56B#366F000000040000
(1699278138.848209) can0 56B#366F000000040000
(1699278138.948198) can0 56B#366F000000040000
(1699278139.048192) can0 56B#366F000000040000
(1699278139.148297) can0 56B#366F000000040000
(1699278139.248230) can0 56B#366F000000040000
(1699278139.348594) can0 56B#366F000000040000
(1699278139.448618) can0 56B#366F000000040000
(1699278139.548578) can0 56B#366F000000040000
(1699278139.648646) can0 56B#366F000000040000
(1699278139.748336) can0 56B#366F000000040000
(1699278139.848324) can0 56B#366F000000040000
(1699278139.948338) can0 56B#366F000000040000
(1699278140.048115) can0 56B#366F000000040000
(1699278140.148134) can0 56B#366F000000040000
(1699278140.248186) can0 56B#366F000000040000
(1699278140.348178) can0 56B#366F000000040000
(1699278140.448189) can0 56B#366F000000040000
(1699278140.548249) can0 56B#366F000000040000
(1699278140.648717) can0 56B#366F000000040000
(1699278140.748571) can0 56B#366F000000040000
(1699278140.848596) can0 56B#366F000000040000
(1699278140.948353) can0 56B#366F000000040000
(1699278141.048600) can0 56B#366F000000040000
(1699278141.148344) can0 56B#366F000000040000
(1699278141.248456) can0 56B#366F000000040000
(1699278141.348632) can0 56B#366F000000040000
(1699278141.448615) can0 56B#366F000000040000
(1699278141.546717) can0 56B#366F000000040000
(1699278141.648700) can0 56B#366F000000040000
(1699278141.746711) can0 56B#366F000000040000
(1699278141.846776) can0 56B#366F000000040000
(1699278141.946707) can0 56B#366F000000040000
(1699278142.046720) can0 56B#366F000000040000
(1699278142.146535) can0 56B#366F000000040000
(1699278142.246565) can0 56B#366F000000040000
(1699278142.346573) can0 56B#366F000000040000
(1699278142.446586) can0 56B#366F000000040000
(1699278142.546547) can0 56B#366F000000040000
(1699278142.646625) can0 56B#366F000000040000
(1699278142.746659) can0 56B#366F000000040000
(1699278142.846637) can0 56B#366F000000040000
